!Keysight Technologies,E5063A,MY54503115,A.05.08
!Date: Sun Feb 04 18:18:13 2024
!Data & Calibration Information:
!Freq	S11:NONE(--)	S21:NONE(--)	S12:NONE(--)	S22:NONE(--)
# Hz S dB R 50
100000.000	4.451571e-002	-7.547314e-001	-8.814298e+001	9.761309e+001	-2.000000e+002	0.000000e+000	-2.000000e+002	0.000000e+000
749990.000	9.823706e-003	-3.027749e+000	-1.009822e+002	1.159417e+002	-2.000000e+002	0.000000e+000	-2.000000e+002	0.000000e+000
1399980.000	1.120422e-002	-5.351019e+000	-8.391762e+001	1.574527e+002	-2.000000e+002	0.000000e+000	-2.000000e+002	0.000000e+000
2049970.000	1.133835e-002	-7.672530e+000	-7.770787e+001	8.361326e+001	-2.000000e+002	0.000000e+000	-2.000000e+002	0.000000e+000
2699960.000	1.213286e-002	-1.000592e+001	-7.782426e+001	7.365120e+001	-2.000000e+002	0.000000e+000	-2.000000e+002	0.000000e+000
3349950.000	1.541449e-002	-1.234038e+001	-7.673239e+001	9.022024e+001	-2.000000e+002	0.000000e+000	-2.000000e+002	0.000000e+000
3999940.000	1.420291e-002	-1.468053e+001	-7.272879e+001	6.761328e+001	-2.000000e+002	0.000000e+000	-2.000000e+002	0.000000e+000
4649930.000	1.722309e-002	-1.701507e+001	-7.524966e+001	8.229006e+001	-2.000000e+002	0.000000e+000	-2.000000e+002	0.000000e+000
5299920.000	1.409424e-002	-1.935344e+001	-7.292156e+001	5.762388e+001	-2.000000e+002	0.000000e+000	-2.000000e+002	0.000000e+000
5949910.000	1.463227e-002	-2.169459e+001	-7.056106e+001	6.876567e+001	-2.000000e+002	0.000000e+000	-2.000000e+002	0.000000e+000
6599900.000	1.463945e-002	-2.403038e+001	-6.904355e+001	6.482984e+001	-2.000000e+002	0.000000e+000	-2.000000e+002	0.000000e+000
7249890.000	1.506407e-002	-2.637287e+001	-6.903361e+001	6.359493e+001	-2.000000e+002	0.000000e+000	-2.000000e+002	0.000000e+000
7899880.000	1.507833e-002	-2.871807e+001	-6.821284e+001	6.872315e+001	-2.000000e+002	0.000000e+000	-2.000000e+002	0.000000e+000
8549870.000	1.934298e-002	-3.105916e+001	-6.812296e+001	5.967615e+001	-2.000000e+002	0.000000e+000	-2.000000e+002	0.000000e+000
9199860.000	1.843904e-002	-3.340388e+001	-6.718963e+001	5.281088e+001	-2.000000e+002	0.000000e+000	-2.000000e+002	0.000000e+000
9849850.000	1.665019e-002	-3.574939e+001	-6.686205e+001	5.631852e+001	-2.000000e+002	0.000000e+000	-2.000000e+002	0.000000e+000
10499840.000	1.460920e-002	-3.809357e+001	-6.609869e+001	4.972734e+001	-2.000000e+002	0.000000e+000	-2.000000e+002	0.000000e+000
11149830.000	1.128269e-002	-4.043562e+001	-6.545898e+001	5.239458e+001	-2.000000e+002	0.000000e+000	-2.000000e+002	0.000000e+000
11799820.000	9.873670e-003	-4.277926e+001	-6.502549e+001	4.924251e+001	-2.000000e+002	0.000000e+000	-2.000000e+002	0.000000e+000
12449810.000	9.958704e-003	-4.513600e+001	-6.498272e+001	4.596310e+001	-2.000000e+002	0.000000e+000	-2.000000e+002	0.000000e+000
13099800.000	1.108904e-002	-4.747703e+001	-6.403519e+001	4.366446e+001	-2.000000e+002	0.000000e+000	-2.000000e+002	0.000000e+000
13749790.000	8.794503e-003	-4.982370e+001	-6.324759e+001	4.119585e+001	-2.000000e+002	0.000000e+000	-2.000000e+002	0.000000e+000
14399780.000	6.069053e-003	-5.218909e+001	-6.326443e+001	4.076492e+001	-2.000000e+002	0.000000e+000	-2.000000e+002	0.000000e+000
15049770.000	5.796269e-003	-5.453868e+001	-6.267376e+001	3.688605e+001	-2.000000e+002	0.000000e+000	-2.000000e+002	0.000000e+000
15699760.000	5.115726e-003	-5.688352e+001	-6.240603e+001	3.644856e+001	-2.000000e+002	0.000000e+000	-2.000000e+002	0.000000e+000
16349750.000	3.526260e-003	-5.924126e+001	-6.174454e+001	3.327724e+001	-2.000000e+002	0.000000e+000	-2.000000e+002	0.000000e+000
16999740.000	1.022480e-003	-6.161647e+001	-6.151864e+001	3.266449e+001	-2.000000e+002	0.000000e+000	-2.000000e+002	0.000000e+000
17649730.000	5.787389e-003	-6.398977e+001	-6.111605e+001	3.263622e+001	-2.000000e+002	0.000000e+000	-2.000000e+002	0.000000e+000
18299720.000	7.008797e-003	-6.636564e+001	-6.030148e+001	2.951620e+001	-2.000000e+002	0.000000e+000	-2.000000e+002	0.000000e+000
18949710.000	4.383608e-003	-6.874148e+001	-5.998564e+001	2.446053e+001	-2.000000e+002	0.000000e+000	-2.000000e+002	0.000000e+000
19599700.000	-3.815034e-003	-7.111824e+001	-5.978490e+001	2.114888e+001	-2.000000e+002	0.000000e+000	-2.000000e+002	0.000000e+000
20249690.000	-1.091650e-002	-7.349738e+001	-5.937179e+001	1.904458e+001	-2.000000e+002	0.000000e+000	-2.000000e+002	0.000000e+000
20899680.000	-1.483915e-002	-7.590719e+001	-5.916325e+001	1.639400e+001	-2.000000e+002	0.000000e+000	-2.000000e+002	0.000000e+000
21549670.000	-1.905438e-002	-7.829885e+001	-5.911783e+001	1.267618e+001	-2.000000e+002	0.000000e+000	-2.000000e+002	0.000000e+000
22199660.000	-2.438216e-002	-8.067694e+001	-5.880107e+001	1.124468e+001	-2.000000e+002	0.000000e+000	-2.000000e+002	0.000000e+000
22849650.000	-2.880757e-002	-8.304370e+001	-5.849393e+001	8.682864e+000	-2.000000e+002	0.000000e+000	-2.000000e+002	0.000000e+000
23499640.000	-3.540806e-002	-8.543336e+001	-5.843378e+001	9.660476e+000	-2.000000e+002	0.000000e+000	-2.000000e+002	0.000000e+000
24149630.000	-4.244798e-002	-8.783117e+001	-5.788646e+001	8.570992e+000	-2.000000e+002	0.000000e+000	-2.000000e+002	0.000000e+000
24799620.000	-4.853818e-002	-9.022044e+001	-5.743158e+001	6.512089e+000	-2.000000e+002	0.000000e+000	-2.000000e+002	0.000000e+000
25449610.000	-5.318160e-002	-9.260543e+001	-5.688531e+001	4.689925e+000	-2.000000e+002	0.000000e+000	-2.000000e+002	0.000000e+000
26099600.000	-5.934537e-002	-9.499786e+001	-5.651633e+001	1.197725e+000	-2.000000e+002	0.000000e+000	-2.000000e+002	0.000000e+000
26749590.000	-6.663951e-002	-9.739847e+001	-5.615933e+001	-7.422776e-001	-2.000000e+002	0.000000e+000	-2.000000e+002	0.000000e+000
27399580.000	-7.343499e-002	-9.980013e+001	-5.582754e+001	-3.050899e+000	-2.000000e+002	0.000000e+000	-2.000000e+002	0.000000e+000
28049570.000	-7.928057e-002	-1.022044e+002	-5.532827e+001	-5.624116e+000	-2.000000e+002	0.000000e+000	-2.000000e+002	0.000000e+000
28699560.000	-8.598979e-002	-1.046057e+002	-5.511077e+001	-9.839765e+000	-2.000000e+002	0.000000e+000	-2.000000e+002	0.000000e+000
29349550.000	-9.318100e-002	-1.070132e+002	-5.492903e+001	-1.091605e+001	-2.000000e+002	0.000000e+000	-2.000000e+002	0.000000e+000
29999540.000	-1.005075e-001	-1.094256e+002	-5.449317e+001	-1.434831e+001	-2.000000e+002	0.000000e+000	-2.000000e+002	0.000000e+000
30649530.000	-1.074620e-001	-1.118454e+002	-5.434114e+001	-1.708620e+001	-2.000000e+002	0.000000e+000	-2.000000e+002	0.000000e+000
31299520.000	-1.146613e-001	-1.142674e+002	-5.415304e+001	-1.890485e+001	-2.000000e+002	0.000000e+000	-2.000000e+002	0.000000e+000
31949510.000	-1.228408e-001	-1.166897e+002	-5.406918e+001	-2.054247e+001	-2.000000e+002	0.000000e+000	-2.000000e+002	0.000000e+000
32599500.000	-1.314743e-001	-1.191240e+002	-5.391632e+001	-2.083118e+001	-2.000000e+002	0.000000e+000	-2.000000e+002	0.000000e+000
33249490.000	-1.408676e-001	-1.215543e+002	-5.376458e+001	-1.974985e+001	-2.000000e+002	0.000000e+000	-2.000000e+002	0.000000e+000
33899480.000	-1.511887e-001	-1.239859e+002	-5.319116e+001	-1.679947e+001	-2.000000e+002	0.000000e+000	-2.000000e+002	0.000000e+000
34549470.000	-1.622912e-001	-1.264058e+002	-5.207959e+001	-1.510050e+001	-2.000000e+002	0.000000e+000	-2.000000e+002	0.000000e+000
35199460.000	-1.731700e-001	-1.288222e+002	-5.062441e+001	-1.562490e+001	-2.000000e+002	0.000000e+000	-2.000000e+002	0.000000e+000
35849450.000	-1.810369e-001	-1.312367e+002	-4.936650e+001	-2.174195e+001	-2.000000e+002	0.000000e+000	-2.000000e+002	0.000000e+000
36499440.000	-1.881823e-001	-1.336640e+002	-4.857745e+001	-2.707944e+001	-2.000000e+002	0.000000e+000	-2.000000e+002	0.000000e+000
37149430.000	-1.950037e-001	-1.360983e+002	-4.771673e+001	-3.258694e+001	-2.000000e+002	0.000000e+000	-2.000000e+002	0.000000e+000
37799420.000	-2.016520e-001	-1.385429e+002	-4.697637e+001	-3.855724e+001	-2.000000e+002	0.000000e+000	-2.000000e+002	0.000000e+000
38449410.000	-2.078846e-001	-1.409942e+002	-4.654071e+001	-4.495333e+001	-2.000000e+002	0.000000e+000	-2.000000e+002	0.000000e+000
39099400.000	-2.154547e-001	-1.434599e+002	-4.615470e+001	-4.954602e+001	-2.000000e+002	0.000000e+000	-2.000000e+002	0.000000e+000
39749390.000	-2.239988e-001	-1.459301e+002	-4.572204e+001	-5.342395e+001	-2.000000e+002	0.000000e+000	-2.000000e+002	0.000000e+000
40399380.000	-2.329848e-001	-1.484062e+002	-4.515675e+001	-5.652565e+001	-2.000000e+002	0.000000e+000	-2.000000e+002	0.000000e+000
41049370.000	-2.421926e-001	-1.508889e+002	-4.446564e+001	-5.973581e+001	-2.000000e+002	0.000000e+000	-2.000000e+002	0.000000e+000
41699360.000	-2.523962e-001	-1.533802e+002	-4.363660e+001	-6.302622e+001	-2.000000e+002	0.000000e+000	-2.000000e+002	0.000000e+000
42349350.000	-2.631241e-001	-1.558855e+002	-4.263937e+001	-6.601848e+001	-2.000000e+002	0.000000e+000	-2.000000e+002	0.000000e+000
42999340.000	-2.753257e-001	-1.584058e+002	-4.149651e+001	-6.958869e+001	-2.000000e+002	0.000000e+000	-2.000000e+002	0.000000e+000
43649330.000	-2.898988e-001	-1.609538e+002	-4.001869e+001	-7.363383e+001	-2.000000e+002	0.000000e+000	-2.000000e+002	0.000000e+000
44299320.000	-3.088715e-001	-1.635467e+002	-3.817862e+001	-7.829387e+001	-2.000000e+002	0.000000e+000	-2.000000e+002	0.000000e+000
44949310.000	-3.380361e-001	-1.662134e+002	-3.579074e+001	-8.500531e+001	-2.000000e+002	0.000000e+000	-2.000000e+002	0.000000e+000
45599300.000	-3.964581e-001	-1.690140e+002	-3.258304e+001	-9.584421e+001	-2.000000e+002	0.000000e+000	-2.000000e+002	0.000000e+000
46249290.000	-5.718405e-001	-1.718955e+002	-2.808820e+001	-1.186307e+002	-2.000000e+002	0.000000e+000	-2.000000e+002	0.000000e+000
46899280.000	-8.685557e-001	-1.720100e+002	-2.482474e+001	-1.766290e+002	-2.000000e+002	0.000000e+000	-2.000000e+002	0.000000e+000
47549270.000	-5.115159e-001	-1.731964e+002	-2.938935e+001	1.319882e+002	-2.000000e+002	0.000000e+000	-2.000000e+002	0.000000e+000
48199260.000	-3.984227e-001	-1.762020e+002	-3.411679e+001	1.119788e+002	-2.000000e+002	0.000000e+000	-2.000000e+002	0.000000e+000
48849250.000	-3.708405e-001	-1.789877e+002	-3.761437e+001	1.014576e+002	-2.000000e+002	0.000000e+000	-2.000000e+002	0.000000e+000
49499240.000	-3.640894e-001	1.783649e+002	-4.037614e+001	9.436585e+001	-2.000000e+002	0.000000e+000	-2.000000e+002	0.000000e+000
50149230.000	-3.638573e-001	1.757911e+002	-4.271497e+001	8.871262e+001	-2.000000e+002	0.000000e+000	-2.000000e+002	0.000000e+000
50799220.000	-3.664725e-001	1.732570e+002	-4.477387e+001	8.427400e+001	-2.000000e+002	0.000000e+000	-2.000000e+002	0.000000e+000
51449210.000	-3.701267e-001	1.707363e+002	-4.657816e+001	8.033535e+001	-2.000000e+002	0.000000e+000	-2.000000e+002	0.000000e+000
52099200.000	-3.746523e-001	1.682371e+002	-4.821463e+001	7.642747e+001	-2.000000e+002	0.000000e+000	-2.000000e+002	0.000000e+000
52749190.000	-3.794711e-001	1.657511e+002	-4.972908e+001	7.259413e+001	-2.000000e+002	0.000000e+000	-2.000000e+002	0.000000e+000
53399180.000	-3.843103e-001	1.632687e+002	-5.121742e+001	6.955977e+001	-2.000000e+002	0.000000e+000	-2.000000e+002	0.000000e+000
54049170.000	-3.896525e-001	1.607922e+002	-5.253226e+001	6.661359e+001	-2.000000e+002	0.000000e+000	-2.000000e+002	0.000000e+000
54699160.000	-3.952453e-001	1.583185e+002	-5.380064e+001	6.357218e+001	-2.000000e+002	0.000000e+000	-2.000000e+002	0.000000e+000
55349150.000	-4.005181e-001	1.558505e+002	-5.484969e+001	6.027287e+001	-2.000000e+002	0.000000e+000	-2.000000e+002	0.000000e+000
55999140.000	-4.062575e-001	1.533843e+002	-5.592864e+001	5.495428e+001	-2.000000e+002	0.000000e+000	-2.000000e+002	0.000000e+000
56649130.000	-4.120237e-001	1.509265e+002	-5.713111e+001	5.036944e+001	-2.000000e+002	0.000000e+000	-2.000000e+002	0.000000e+000
57299120.000	-4.174337e-001	1.484710e+002	-5.836895e+001	4.536969e+001	-2.000000e+002	0.000000e+000	-2.000000e+002	0.000000e+000
57949110.000	-4.227382e-001	1.460134e+002	-5.890127e+001	4.077168e+001	-2.000000e+002	0.000000e+000	-2.000000e+002	0.000000e+000
58599100.000	-4.275821e-001	1.435622e+002	-5.941958e+001	3.314349e+001	-2.000000e+002	0.000000e+000	-2.000000e+002	0.000000e+000
59249090.000	-4.333994e-001	1.411096e+002	-6.003831e+001	2.284074e+001	-2.000000e+002	0.000000e+000	-2.000000e+002	0.000000e+000
59899080.000	-4.383325e-001	1.386668e+002	-5.990056e+001	7.405366e+000	-2.000000e+002	0.000000e+000	-2.000000e+002	0.000000e+000
60549070.000	-4.444557e-001	1.362292e+002	-6.001769e+001	-1.271346e+001	-2.000000e+002	0.000000e+000	-2.000000e+002	0.000000e+000
61199060.000	-4.491731e-001	1.338031e+002	-6.055988e+001	-3.756339e+001	-2.000000e+002	0.000000e+000	-2.000000e+002	0.000000e+000
61849050.000	-4.528407e-001	1.313715e+002	-6.138199e+001	-6.028781e+001	-2.000000e+002	0.000000e+000	-2.000000e+002	0.000000e+000
62499040.000	-4.556011e-001	1.289421e+002	-6.217825e+001	-7.803374e+001	-2.000000e+002	0.000000e+000	-2.000000e+002	0.000000e+000
63149030.000	-4.587217e-001	1.265078e+002	-6.283155e+001	-9.213128e+001	-2.000000e+002	0.000000e+000	-2.000000e+002	0.000000e+000
63799020.000	-4.619268e-001	1.240751e+002	-6.294964e+001	-1.038626e+002	-2.000000e+002	0.000000e+000	-2.000000e+002	0.000000e+000
64449010.000	-4.657331e-001	1.216494e+002	-6.296664e+001	-1.126490e+002	-2.000000e+002	0.000000e+000	-2.000000e+002	0.000000e+000
65099000.000	-4.680209e-001	1.192186e+002	-6.264082e+001	-1.192802e+002	-2.000000e+002	0.000000e+000	-2.000000e+002	0.000000e+000
65748990.000	-4.704423e-001	1.167908e+002	-6.242344e+001	-1.292939e+002	-2.000000e+002	0.000000e+000	-2.000000e+002	0.000000e+000
66398980.000	-4.733383e-001	1.143647e+002	-6.265622e+001	-1.308305e+002	-2.000000e+002	0.000000e+000	-2.000000e+002	0.000000e+000
67048970.000	-4.757020e-001	1.119394e+002	-6.261955e+001	-1.345403e+002	-2.000000e+002	0.000000e+000	-2.000000e+002	0.000000e+000
67698960.000	-4.789914e-001	1.095233e+002	-6.238300e+001	-1.394868e+002	-2.000000e+002	0.000000e+000	-2.000000e+002	0.000000e+000
68348950.000	-4.807989e-001	1.071023e+002	-6.196084e+001	-1.422168e+002	-2.000000e+002	0.000000e+000	-2.000000e+002	0.000000e+000
68998940.000	-4.832316e-001	1.046921e+002	-6.201489e+001	-1.439885e+002	-2.000000e+002	0.000000e+000	-2.000000e+002	0.000000e+000
69648930.000	-4.852510e-001	1.022738e+002	-6.146089e+001	-1.464619e+002	-2.000000e+002	0.000000e+000	-2.000000e+002	0.000000e+000
70298920.000	-4.857412e-001	9.985501e+001	-6.117954e+001	-1.481145e+002	-2.000000e+002	0.000000e+000	-2.000000e+002	0.000000e+000
70948910.000	-4.881662e-001	9.744596e+001	-6.086038e+001	-1.506248e+002	-2.000000e+002	0.000000e+000	-2.000000e+002	0.000000e+000
71598900.000	-4.890660e-001	9.503869e+001	-6.068293e+001	-1.518439e+002	-2.000000e+002	0.000000e+000	-2.000000e+002	0.000000e+000
72248890.000	-4.913306e-001	9.263588e+001	-6.021319e+001	-1.545173e+002	-2.000000e+002	0.000000e+000	-2.000000e+002	0.000000e+000
72898880.000	-4.922919e-001	9.023324e+001	-5.990406e+001	-1.555008e+002	-2.000000e+002	0.000000e+000	-2.000000e+002	0.000000e+000
73548870.000	-4.945139e-001	8.783412e+001	-5.955100e+001	-1.577450e+002	-2.000000e+002	0.000000e+000	-2.000000e+002	0.000000e+000
74198860.000	-4.950989e-001	8.543578e+001	-5.924744e+001	-1.587692e+002	-2.000000e+002	0.000000e+000	-2.000000e+002	0.000000e+000
74848850.000	-4.965151e-001	8.304419e+001	-5.892018e+001	-1.610963e+002	-2.000000e+002	0.000000e+000	-2.000000e+002	0.000000e+000
75498840.000	-4.965482e-001	8.065247e+001	-5.849361e+001	-1.617675e+002	-2.000000e+002	0.000000e+000	-2.000000e+002	0.000000e+000
76148830.000	-4.977974e-001	7.826347e+001	-5.816576e+001	-1.648440e+002	-2.000000e+002	0.000000e+000	-2.000000e+002	0.000000e+000
76798820.000	-4.969944e-001	7.587392e+001	-5.784112e+001	-1.669492e+002	-2.000000e+002	0.000000e+000	-2.000000e+002	0.000000e+000
77448810.000	-4.986390e-001	7.349973e+001	-5.738548e+001	-1.696523e+002	-2.000000e+002	0.000000e+000	-2.000000e+002	0.000000e+000
78098800.000	-4.987155e-001	7.111876e+001	-5.713621e+001	-1.720117e+002	-2.000000e+002	0.000000e+000	-2.000000e+002	0.000000e+000
78748790.000	-4.980764e-001	6.874166e+001	-5.670526e+001	-1.751216e+002	-2.000000e+002	0.000000e+000	-2.000000e+002	0.000000e+000
79398780.000	-4.964401e-001	6.636076e+001	-5.646229e+001	-1.787989e+002	-2.000000e+002	0.000000e+000	-2.000000e+002	0.000000e+000
80048770.000	-4.946672e-001	6.397937e+001	-5.632332e+001	1.782831e+002	-2.000000e+002	0.000000e+000	-2.000000e+002	0.000000e+000
80698760.000	-4.936184e-001	6.160234e+001	-5.622625e+001	1.752800e+002	-2.000000e+002	0.000000e+000	-2.000000e+002	0.000000e+000
81348750.000	-4.924614e-001	5.923096e+001	-5.612902e+001	1.729148e+002	-2.000000e+002	0.000000e+000	-2.000000e+002	0.000000e+000
81998740.000	-4.913065e-001	5.685513e+001	-5.607569e+001	1.705014e+002	-2.000000e+002	0.000000e+000	-2.000000e+002	0.000000e+000
82648730.000	-4.916508e-001	5.449549e+001	-5.597542e+001	1.689606e+002	-2.000000e+002	0.000000e+000	-2.000000e+002	0.000000e+000
83298720.000	-4.904310e-001	5.212546e+001	-5.586546e+001	1.664799e+002	-2.000000e+002	0.000000e+000	-2.000000e+002	0.000000e+000
83948710.000	-4.888184e-001	4.975546e+001	-5.582447e+001	1.646012e+002	-2.000000e+002	0.000000e+000	-2.000000e+002	0.000000e+000
84598700.000	-4.873104e-001	4.738905e+001	-5.568668e+001	1.628527e+002	-2.000000e+002	0.000000e+000	-2.000000e+002	0.000000e+000
85248690.000	-4.860749e-001	4.502201e+001	-5.535572e+001	1.610810e+002	-2.000000e+002	0.000000e+000	-2.000000e+002	0.000000e+000
85898680.000	-4.841406e-001	4.266042e+001	-5.546020e+001	1.602720e+002	-2.000000e+002	0.000000e+000	-2.000000e+002	0.000000e+000
86548670.000	-4.819914e-001	4.030595e+001	-5.522125e+001	1.581625e+002	-2.000000e+002	0.000000e+000	-2.000000e+002	0.000000e+000
87198660.000	-4.806222e-001	3.794622e+001	-5.502782e+001	1.566273e+002	-2.000000e+002	0.000000e+000	-2.000000e+002	0.000000e+000
87848650.000	-4.783531e-001	3.559901e+001	-5.490145e+001	1.543518e+002	-2.000000e+002	0.000000e+000	-2.000000e+002	0.000000e+000
88498640.000	-4.760956e-001	3.324789e+001	-5.460406e+001	1.517280e+002	-2.000000e+002	0.000000e+000	-2.000000e+002	0.000000e+000
89148630.000	-4.732854e-001	3.090155e+001	-5.458535e+001	1.493312e+002	-2.000000e+002	0.000000e+000	-2.000000e+002	0.000000e+000
89798620.000	-4.700287e-001	2.854790e+001	-5.464475e+001	1.476783e+002	-2.000000e+002	0.000000e+000	-2.000000e+002	0.000000e+000
90448610.000	-4.672008e-001	2.619728e+001	-5.461865e+001	1.449554e+002	-2.000000e+002	0.000000e+000	-2.000000e+002	0.000000e+000
91098600.000	-4.644647e-001	2.384430e+001	-5.467789e+001	1.445614e+002	-2.000000e+002	0.000000e+000	-2.000000e+002	0.000000e+000
91748590.000	-4.622548e-001	2.149007e+001	-5.464334e+001	1.429977e+002	-2.000000e+002	0.000000e+000	-2.000000e+002	0.000000e+000
92398580.000	-4.592300e-001	1.913740e+001	-5.465094e+001	1.428723e+002	-2.000000e+002	0.000000e+000	-2.000000e+002	0.000000e+000
93048570.000	-4.565223e-001	1.678406e+001	-5.447473e+001	1.443435e+002	-2.000000e+002	0.000000e+000	-2.000000e+002	0.000000e+000
93698560.000	-4.543388e-001	1.443033e+001	-5.453699e+001	1.430336e+002	-2.000000e+002	0.000000e+000	-2.000000e+002	0.000000e+000
94348550.000	-4.521024e-001	1.207965e+001	-5.439329e+001	1.443099e+002	-2.000000e+002	0.000000e+000	-2.000000e+002	0.000000e+000
94998540.000	-4.507996e-001	9.732242e+000	-5.390044e+001	1.450495e+002	-2.000000e+002	0.000000e+000	-2.000000e+002	0.000000e+000
95648530.000	-4.483484e-001	7.387159e+000	-5.375913e+001	1.455094e+002	-2.000000e+002	0.000000e+000	-2.000000e+002	0.000000e+000
96298520.000	-4.471249e-001	5.044084e+000	-5.339245e+001	1.469500e+002	-2.000000e+002	0.000000e+000	-2.000000e+002	0.000000e+000
96948510.000	-4.461243e-001	2.701604e+000	-5.270560e+001	1.489600e+002	-2.000000e+002	0.000000e+000	-2.000000e+002	0.000000e+000
97598500.000	-4.453132e-001	3.703189e-001	-5.175251e+001	1.488507e+002	-2.000000e+002	0.000000e+000	-2.000000e+002	0.000000e+000
98248490.000	-4.446161e-001	-1.956960e+000	-5.060094e+001	1.469241e+002	-2.000000e+002	0.000000e+000	-2.000000e+002	0.000000e+000
