!Keysight Technologies,E5063A,MY54503115,A.05.08
!Date: Sun Feb 04 18:52:59 2024
!Data & Calibration Information:
!Freq	S11:NONE(--)	S21:NONE(--)	S12:NONE(--)	S22:NONE(--)
# Hz S dB R 50
100000.000	4.812575e-002	-8.231619e-001	-8.208062e+001	5.284150e+001	-2.000000e+002	0.000000e+000	-2.000000e+002	0.000000e+000
749990.000	9.315663e-003	-3.051275e+000	-8.304145e+001	-1.230240e+002	-2.000000e+002	0.000000e+000	-2.000000e+002	0.000000e+000
1399980.000	1.004814e-002	-5.375332e+000	-8.470029e+001	-1.502550e+002	-2.000000e+002	0.000000e+000	-2.000000e+002	0.000000e+000
2049970.000	1.062395e-002	-7.705691e+000	-9.177351e+001	1.307030e+002	-2.000000e+002	0.000000e+000	-2.000000e+002	0.000000e+000
2699960.000	1.003817e-002	-1.002929e+001	-8.120205e+001	1.325799e+002	-2.000000e+002	0.000000e+000	-2.000000e+002	0.000000e+000
3349950.000	1.456595e-002	-1.236221e+001	-7.970351e+001	7.750615e+001	-2.000000e+002	0.000000e+000	-2.000000e+002	0.000000e+000
3999940.000	1.335648e-002	-1.470225e+001	-7.779143e+001	7.156884e+001	-2.000000e+002	0.000000e+000	-2.000000e+002	0.000000e+000
4649930.000	1.570190e-002	-1.704347e+001	-7.491786e+001	8.141115e+001	-2.000000e+002	0.000000e+000	-2.000000e+002	0.000000e+000
5299920.000	1.344893e-002	-1.936581e+001	-7.504402e+001	6.442572e+001	-2.000000e+002	0.000000e+000	-2.000000e+002	0.000000e+000
5949910.000	1.403844e-002	-2.171065e+001	-7.358689e+001	7.972290e+001	-2.000000e+002	0.000000e+000	-2.000000e+002	0.000000e+000
6599900.000	1.329457e-002	-2.405923e+001	-7.391331e+001	6.808837e+001	-2.000000e+002	0.000000e+000	-2.000000e+002	0.000000e+000
7249890.000	1.427102e-002	-2.639543e+001	-7.393564e+001	6.796488e+001	-2.000000e+002	0.000000e+000	-2.000000e+002	0.000000e+000
7899880.000	1.209821e-002	-2.873718e+001	-7.166377e+001	6.928964e+001	-2.000000e+002	0.000000e+000	-2.000000e+002	0.000000e+000
8549870.000	1.731530e-002	-3.108717e+001	-7.007180e+001	6.611793e+001	-2.000000e+002	0.000000e+000	-2.000000e+002	0.000000e+000
9199860.000	1.630817e-002	-3.343267e+001	-6.939927e+001	6.311659e+001	-2.000000e+002	0.000000e+000	-2.000000e+002	0.000000e+000
9849850.000	1.577895e-002	-3.577901e+001	-6.852212e+001	6.006169e+001	-2.000000e+002	0.000000e+000	-2.000000e+002	0.000000e+000
10499840.000	1.321603e-002	-3.812123e+001	-6.764775e+001	5.573603e+001	-2.000000e+002	0.000000e+000	-2.000000e+002	0.000000e+000
11149830.000	9.964757e-003	-4.046409e+001	-6.769047e+001	5.764858e+001	-2.000000e+002	0.000000e+000	-2.000000e+002	0.000000e+000
11799820.000	8.573158e-003	-4.281489e+001	-6.696911e+001	5.589120e+001	-2.000000e+002	0.000000e+000	-2.000000e+002	0.000000e+000
12449810.000	8.527310e-003	-4.516613e+001	-6.601036e+001	5.463581e+001	-2.000000e+002	0.000000e+000	-2.000000e+002	0.000000e+000
13099800.000	9.787262e-003	-4.751693e+001	-6.575388e+001	5.188131e+001	-2.000000e+002	0.000000e+000	-2.000000e+002	0.000000e+000
13749790.000	7.797077e-003	-4.986104e+001	-6.528549e+001	4.900605e+001	-2.000000e+002	0.000000e+000	-2.000000e+002	0.000000e+000
14399780.000	4.717508e-003	-5.222532e+001	-6.536403e+001	4.683538e+001	-2.000000e+002	0.000000e+000	-2.000000e+002	0.000000e+000
15049770.000	3.962639e-003	-5.457899e+001	-6.452587e+001	4.492459e+001	-2.000000e+002	0.000000e+000	-2.000000e+002	0.000000e+000
15699760.000	2.849596e-003	-5.692415e+001	-6.453525e+001	4.316187e+001	-2.000000e+002	0.000000e+000	-2.000000e+002	0.000000e+000
16349750.000	1.435517e-003	-5.928220e+001	-6.400553e+001	4.106972e+001	-2.000000e+002	0.000000e+000	-2.000000e+002	0.000000e+000
16999740.000	-1.038524e-003	-6.165118e+001	-6.316643e+001	4.180533e+001	-2.000000e+002	0.000000e+000	-2.000000e+002	0.000000e+000
17649730.000	2.847928e-003	-6.402750e+001	-6.260844e+001	3.887777e+001	-2.000000e+002	0.000000e+000	-2.000000e+002	0.000000e+000
18299720.000	3.939382e-003	-6.640470e+001	-6.157920e+001	3.616952e+001	-2.000000e+002	0.000000e+000	-2.000000e+002	0.000000e+000
18949710.000	1.543833e-003	-6.878027e+001	-6.105560e+001	3.300411e+001	-2.000000e+002	0.000000e+000	-2.000000e+002	0.000000e+000
19599700.000	-6.937198e-003	-7.115328e+001	-6.108978e+001	2.636331e+001	-2.000000e+002	0.000000e+000	-2.000000e+002	0.000000e+000
20249690.000	-1.318523e-002	-7.353071e+001	-6.075559e+001	2.340984e+001	-2.000000e+002	0.000000e+000	-2.000000e+002	0.000000e+000
20899680.000	-1.743552e-002	-7.594071e+001	-6.045150e+001	2.152307e+001	-2.000000e+002	0.000000e+000	-2.000000e+002	0.000000e+000
21549670.000	-2.163375e-002	-7.833209e+001	-6.032313e+001	1.856408e+001	-2.000000e+002	0.000000e+000	-2.000000e+002	0.000000e+000
22199660.000	-2.668610e-002	-8.071081e+001	-6.034242e+001	1.606340e+001	-2.000000e+002	0.000000e+000	-2.000000e+002	0.000000e+000
22849650.000	-3.101072e-002	-8.307529e+001	-5.983679e+001	1.632366e+001	-2.000000e+002	0.000000e+000	-2.000000e+002	0.000000e+000
23499640.000	-3.766676e-002	-8.546760e+001	-5.952954e+001	1.603075e+001	-2.000000e+002	0.000000e+000	-2.000000e+002	0.000000e+000
24149630.000	-4.456972e-002	-8.786444e+001	-5.915217e+001	1.488304e+001	-2.000000e+002	0.000000e+000	-2.000000e+002	0.000000e+000
24799620.000	-5.060607e-002	-9.025263e+001	-5.849580e+001	1.313544e+001	-2.000000e+002	0.000000e+000	-2.000000e+002	0.000000e+000
25449610.000	-5.476900e-002	-9.263700e+001	-5.783870e+001	9.582572e+000	-2.000000e+002	0.000000e+000	-2.000000e+002	0.000000e+000
26099600.000	-6.134148e-002	-9.503021e+001	-5.746243e+001	7.291919e+000	-2.000000e+002	0.000000e+000	-2.000000e+002	0.000000e+000
26749590.000	-6.780279e-002	-9.743044e+001	-5.700697e+001	2.871223e+000	-2.000000e+002	0.000000e+000	-2.000000e+002	0.000000e+000
27399580.000	-7.480118e-002	-9.983532e+001	-5.654964e+001	4.470541e-001	-2.000000e+002	0.000000e+000	-2.000000e+002	0.000000e+000
28049570.000	-8.079884e-002	-1.022363e+002	-5.632543e+001	-1.557526e+000	-2.000000e+002	0.000000e+000	-2.000000e+002	0.000000e+000
28699560.000	-8.757695e-002	-1.046395e+002	-5.598056e+001	-4.177953e+000	-2.000000e+002	0.000000e+000	-2.000000e+002	0.000000e+000
29349550.000	-9.433211e-002	-1.070504e+002	-5.570051e+001	-7.886713e+000	-2.000000e+002	0.000000e+000	-2.000000e+002	0.000000e+000
29999540.000	-1.019078e-001	-1.094635e+002	-5.547344e+001	-1.031023e+001	-2.000000e+002	0.000000e+000	-2.000000e+002	0.000000e+000
30649530.000	-1.090061e-001	-1.118848e+002	-5.512894e+001	-1.311266e+001	-2.000000e+002	0.000000e+000	-2.000000e+002	0.000000e+000
31299520.000	-1.158361e-001	-1.143067e+002	-5.495813e+001	-1.494683e+001	-2.000000e+002	0.000000e+000	-2.000000e+002	0.000000e+000
31949510.000	-1.238956e-001	-1.167345e+002	-5.481677e+001	-1.593087e+001	-2.000000e+002	0.000000e+000	-2.000000e+002	0.000000e+000
32599500.000	-1.328759e-001	-1.191689e+002	-5.476417e+001	-1.673087e+001	-2.000000e+002	0.000000e+000	-2.000000e+002	0.000000e+000
33249490.000	-1.426421e-001	-1.216005e+002	-5.444071e+001	-1.419393e+001	-2.000000e+002	0.000000e+000	-2.000000e+002	0.000000e+000
33899480.000	-1.532070e-001	-1.240340e+002	-5.375821e+001	-1.076909e+001	-2.000000e+002	0.000000e+000	-2.000000e+002	0.000000e+000
34549470.000	-1.649370e-001	-1.264583e+002	-5.245922e+001	-7.774012e+000	-2.000000e+002	0.000000e+000	-2.000000e+002	0.000000e+000
35199460.000	-1.770310e-001	-1.288679e+002	-5.044714e+001	-8.709487e+000	-2.000000e+002	0.000000e+000	-2.000000e+002	0.000000e+000
35849450.000	-1.849429e-001	-1.312719e+002	-4.883870e+001	-1.770997e+001	-2.000000e+002	0.000000e+000	-2.000000e+002	0.000000e+000
36499440.000	-1.903873e-001	-1.336958e+002	-4.783508e+001	-2.585045e+001	-2.000000e+002	0.000000e+000	-2.000000e+002	0.000000e+000
37149430.000	-1.962821e-001	-1.361389e+002	-4.719665e+001	-3.403219e+001	-2.000000e+002	0.000000e+000	-2.000000e+002	0.000000e+000
37799420.000	-2.025502e-001	-1.385940e+002	-4.675038e+001	-4.078229e+001	-2.000000e+002	0.000000e+000	-2.000000e+002	0.000000e+000
38449410.000	-2.101336e-001	-1.410531e+002	-4.633186e+001	-4.633544e+001	-2.000000e+002	0.000000e+000	-2.000000e+002	0.000000e+000
39099400.000	-2.179579e-001	-1.435254e+002	-4.592254e+001	-5.074675e+001	-2.000000e+002	0.000000e+000	-2.000000e+002	0.000000e+000
39749390.000	-2.269606e-001	-1.460042e+002	-4.531811e+001	-5.454075e+001	-2.000000e+002	0.000000e+000	-2.000000e+002	0.000000e+000
40399380.000	-2.370529e-001	-1.484899e+002	-4.460768e+001	-5.810626e+001	-2.000000e+002	0.000000e+000	-2.000000e+002	0.000000e+000
41049370.000	-2.472879e-001	-1.509861e+002	-4.367209e+001	-6.159497e+001	-2.000000e+002	0.000000e+000	-2.000000e+002	0.000000e+000
41699360.000	-2.590493e-001	-1.534942e+002	-4.259737e+001	-6.550703e+001	-2.000000e+002	0.000000e+000	-2.000000e+002	0.000000e+000
42349350.000	-2.728283e-001	-1.560282e+002	-4.125888e+001	-6.960025e+001	-2.000000e+002	0.000000e+000	-2.000000e+002	0.000000e+000
42999340.000	-2.904722e-001	-1.585919e+002	-3.966375e+001	-7.453690e+001	-2.000000e+002	0.000000e+000	-2.000000e+002	0.000000e+000
43649330.000	-3.148419e-001	-1.612111e+002	-3.757063e+001	-8.074308e+001	-2.000000e+002	0.000000e+000	-2.000000e+002	0.000000e+000
44299320.000	-3.584607e-001	-1.639236e+002	-3.484845e+001	-9.000165e+001	-2.000000e+002	0.000000e+000	-2.000000e+002	0.000000e+000
44949310.000	-4.618656e-001	-1.667513e+002	-3.116578e+001	-1.065914e+002	-2.000000e+002	0.000000e+000	-2.000000e+002	0.000000e+000
45599300.000	-7.471639e-001	-1.687108e+002	-2.691892e+001	-1.445449e+002	-2.000000e+002	0.000000e+000	-2.000000e+002	0.000000e+000
46249290.000	-6.428953e-001	-1.684439e+002	-2.799095e+001	1.555610e+002	-2.000000e+002	0.000000e+000	-2.000000e+002	0.000000e+000
46899280.000	-4.269010e-001	-1.710951e+002	-3.264482e+001	1.246208e+002	-2.000000e+002	0.000000e+000	-2.000000e+002	0.000000e+000
47549270.000	-3.699264e-001	-1.739549e+002	-3.637808e+001	1.098675e+002	-2.000000e+002	0.000000e+000	-2.000000e+002	0.000000e+000
48199260.000	-3.543957e-001	-1.766531e+002	-3.926498e+001	1.006394e+002	-2.000000e+002	0.000000e+000	-2.000000e+002	0.000000e+000
48849250.000	-3.515314e-001	-1.792586e+002	-4.162064e+001	9.352432e+001	-2.000000e+002	0.000000e+000	-2.000000e+002	0.000000e+000
49499240.000	-3.530666e-001	1.781894e+002	-4.366674e+001	8.754310e+001	-2.000000e+002	0.000000e+000	-2.000000e+002	0.000000e+000
50149230.000	-3.564089e-001	1.756638e+002	-4.550001e+001	8.249994e+001	-2.000000e+002	0.000000e+000	-2.000000e+002	0.000000e+000
50799220.000	-3.609487e-001	1.731594e+002	-4.705513e+001	7.803204e+001	-2.000000e+002	0.000000e+000	-2.000000e+002	0.000000e+000
51449210.000	-3.659706e-001	1.706626e+002	-4.846849e+001	7.334466e+001	-2.000000e+002	0.000000e+000	-2.000000e+002	0.000000e+000
52099200.000	-3.711404e-001	1.681766e+002	-4.975253e+001	6.847513e+001	-2.000000e+002	0.000000e+000	-2.000000e+002	0.000000e+000
52749190.000	-3.763729e-001	1.656998e+002	-5.101901e+001	6.379891e+001	-2.000000e+002	0.000000e+000	-2.000000e+002	0.000000e+000
53399180.000	-3.818263e-001	1.632256e+002	-5.234090e+001	5.920876e+001	-2.000000e+002	0.000000e+000	-2.000000e+002	0.000000e+000
54049170.000	-3.874110e-001	1.607540e+002	-5.334861e+001	5.433689e+001	-2.000000e+002	0.000000e+000	-2.000000e+002	0.000000e+000
54699160.000	-3.933565e-001	1.582862e+002	-5.429347e+001	5.171921e+001	-2.000000e+002	0.000000e+000	-2.000000e+002	0.000000e+000
55349150.000	-3.990517e-001	1.558240e+002	-5.525689e+001	4.639503e+001	-2.000000e+002	0.000000e+000	-2.000000e+002	0.000000e+000
55999140.000	-4.050515e-001	1.533615e+002	-5.578113e+001	4.097130e+001	-2.000000e+002	0.000000e+000	-2.000000e+002	0.000000e+000
56649130.000	-4.107620e-001	1.509072e+002	-5.669957e+001	3.385882e+001	-2.000000e+002	0.000000e+000	-2.000000e+002	0.000000e+000
57299120.000	-4.157798e-001	1.484517e+002	-5.735139e+001	3.044415e+001	-2.000000e+002	0.000000e+000	-2.000000e+002	0.000000e+000
57949110.000	-4.213929e-001	1.460008e+002	-5.770271e+001	2.422406e+001	-2.000000e+002	0.000000e+000	-2.000000e+002	0.000000e+000
58599100.000	-4.266324e-001	1.435511e+002	-5.769511e+001	1.673166e+001	-2.000000e+002	0.000000e+000	-2.000000e+002	0.000000e+000
59249090.000	-4.321621e-001	1.411033e+002	-5.740543e+001	7.168653e+000	-2.000000e+002	0.000000e+000	-2.000000e+002	0.000000e+000
59899080.000	-4.376054e-001	1.386610e+002	-5.720548e+001	-6.481165e+000	-2.000000e+002	0.000000e+000	-2.000000e+002	0.000000e+000
60549070.000	-4.436766e-001	1.362289e+002	-5.676948e+001	-2.245491e+001	-2.000000e+002	0.000000e+000	-2.000000e+002	0.000000e+000
61199060.000	-4.486093e-001	1.338045e+002	-5.699209e+001	-4.042837e+001	-2.000000e+002	0.000000e+000	-2.000000e+002	0.000000e+000
61849050.000	-4.519534e-001	1.313766e+002	-5.787395e+001	-5.839122e+001	-2.000000e+002	0.000000e+000	-2.000000e+002	0.000000e+000
62499040.000	-4.543143e-001	1.289454e+002	-5.899832e+001	-7.189580e+001	-2.000000e+002	0.000000e+000	-2.000000e+002	0.000000e+000
63149030.000	-4.570040e-001	1.265142e+002	-5.973376e+001	-8.168164e+001	-2.000000e+002	0.000000e+000	-2.000000e+002	0.000000e+000
63799020.000	-4.604555e-001	1.240836e+002	-6.037795e+001	-8.920992e+001	-2.000000e+002	0.000000e+000	-2.000000e+002	0.000000e+000
64449010.000	-4.637500e-001	1.216556e+002	-6.080258e+001	-9.379906e+001	-2.000000e+002	0.000000e+000	-2.000000e+002	0.000000e+000
65099000.000	-4.662938e-001	1.192282e+002	-6.076895e+001	-1.009334e+002	-2.000000e+002	0.000000e+000	-2.000000e+002	0.000000e+000
65748990.000	-4.684159e-001	1.167977e+002	-6.082723e+001	-1.105387e+002	-2.000000e+002	0.000000e+000	-2.000000e+002	0.000000e+000
66398980.000	-4.715768e-001	1.143755e+002	-6.063248e+001	-1.124048e+002	-2.000000e+002	0.000000e+000	-2.000000e+002	0.000000e+000
67048970.000	-4.739155e-001	1.119538e+002	-6.122072e+001	-1.190826e+002	-2.000000e+002	0.000000e+000	-2.000000e+002	0.000000e+000
67698960.000	-4.769572e-001	1.095377e+002	-6.105837e+001	-1.224000e+002	-2.000000e+002	0.000000e+000	-2.000000e+002	0.000000e+000
68348950.000	-4.784155e-001	1.071185e+002	-6.108512e+001	-1.269863e+002	-2.000000e+002	0.000000e+000	-2.000000e+002	0.000000e+000
68998940.000	-4.814098e-001	1.047053e+002	-6.075093e+001	-1.308840e+002	-2.000000e+002	0.000000e+000	-2.000000e+002	0.000000e+000
69648930.000	-4.824651e-001	1.022886e+002	-6.052696e+001	-1.327115e+002	-2.000000e+002	0.000000e+000	-2.000000e+002	0.000000e+000
70298920.000	-4.838226e-001	9.987361e+001	-6.050815e+001	-1.363298e+002	-2.000000e+002	0.000000e+000	-2.000000e+002	0.000000e+000
70948910.000	-4.864967e-001	9.746446e+001	-6.042098e+001	-1.376119e+002	-2.000000e+002	0.000000e+000	-2.000000e+002	0.000000e+000
71598900.000	-4.870069e-001	9.505046e+001	-6.018839e+001	-1.405845e+002	-2.000000e+002	0.000000e+000	-2.000000e+002	0.000000e+000
72248890.000	-4.890736e-001	9.265148e+001	-5.981677e+001	-1.419210e+002	-2.000000e+002	0.000000e+000	-2.000000e+002	0.000000e+000
72898880.000	-4.902802e-001	9.024721e+001	-5.960883e+001	-1.450758e+002	-2.000000e+002	0.000000e+000	-2.000000e+002	0.000000e+000
73548870.000	-4.919892e-001	8.785249e+001	-5.924616e+001	-1.477072e+002	-2.000000e+002	0.000000e+000	-2.000000e+002	0.000000e+000
74198860.000	-4.930117e-001	8.545786e+001	-5.895697e+001	-1.501163e+002	-2.000000e+002	0.000000e+000	-2.000000e+002	0.000000e+000
74848850.000	-4.936503e-001	8.306380e+001	-5.868998e+001	-1.527773e+002	-2.000000e+002	0.000000e+000	-2.000000e+002	0.000000e+000
75498840.000	-4.943920e-001	8.067136e+001	-5.844805e+001	-1.559795e+002	-2.000000e+002	0.000000e+000	-2.000000e+002	0.000000e+000
76148830.000	-4.945433e-001	7.828601e+001	-5.802366e+001	-1.580476e+002	-2.000000e+002	0.000000e+000	-2.000000e+002	0.000000e+000
76798820.000	-4.941060e-001	7.589898e+001	-5.772668e+001	-1.611271e+002	-2.000000e+002	0.000000e+000	-2.000000e+002	0.000000e+000
77448810.000	-4.960350e-001	7.353250e+001	-5.730427e+001	-1.640453e+002	-2.000000e+002	0.000000e+000	-2.000000e+002	0.000000e+000
78098800.000	-4.953283e-001	7.115000e+001	-5.696480e+001	-1.664683e+002	-2.000000e+002	0.000000e+000	-2.000000e+002	0.000000e+000
78748790.000	-4.945697e-001	6.877125e+001	-5.665454e+001	-1.712831e+002	-2.000000e+002	0.000000e+000	-2.000000e+002	0.000000e+000
79398780.000	-4.933570e-001	6.639924e+001	-5.642266e+001	-1.753687e+002	-2.000000e+002	0.000000e+000	-2.000000e+002	0.000000e+000
80048770.000	-4.913936e-001	6.401269e+001	-5.640113e+001	-1.792054e+002	-2.000000e+002	0.000000e+000	-2.000000e+002	0.000000e+000
80698760.000	-4.900059e-001	6.163719e+001	-5.639030e+001	1.768263e+002	-2.000000e+002	0.000000e+000	-2.000000e+002	0.000000e+000
81348750.000	-4.878732e-001	5.926420e+001	-5.637498e+001	1.737248e+002	-2.000000e+002	0.000000e+000	-2.000000e+002	0.000000e+000
81998740.000	-4.861038e-001	5.688807e+001	-5.631197e+001	1.705865e+002	-2.000000e+002	0.000000e+000	-2.000000e+002	0.000000e+000
82648730.000	-4.868472e-001	5.453575e+001	-5.632738e+001	1.696468e+002	-2.000000e+002	0.000000e+000	-2.000000e+002	0.000000e+000
83298720.000	-4.856752e-001	5.216768e+001	-5.627827e+001	1.668211e+002	-2.000000e+002	0.000000e+000	-2.000000e+002	0.000000e+000
83948710.000	-4.837281e-001	4.979557e+001	-5.624739e+001	1.640930e+002	-2.000000e+002	0.000000e+000	-2.000000e+002	0.000000e+000
84598700.000	-4.821144e-001	4.743164e+001	-5.612245e+001	1.621548e+002	-2.000000e+002	0.000000e+000	-2.000000e+002	0.000000e+000
85248690.000	-4.797951e-001	4.506696e+001	-5.598555e+001	1.595636e+002	-2.000000e+002	0.000000e+000	-2.000000e+002	0.000000e+000
85898680.000	-4.780935e-001	4.270664e+001	-5.596641e+001	1.564019e+002	-2.000000e+002	0.000000e+000	-2.000000e+002	0.000000e+000
86548670.000	-4.755110e-001	4.034922e+001	-5.590328e+001	1.544636e+002	-2.000000e+002	0.000000e+000	-2.000000e+002	0.000000e+000
87198660.000	-4.725877e-001	3.799041e+001	-5.593105e+001	1.516970e+002	-2.000000e+002	0.000000e+000	-2.000000e+002	0.000000e+000
87848650.000	-4.702864e-001	3.564131e+001	-5.598005e+001	1.493823e+002	-2.000000e+002	0.000000e+000	-2.000000e+002	0.000000e+000
88498640.000	-4.680661e-001	3.328608e+001	-5.606049e+001	1.488400e+002	-2.000000e+002	0.000000e+000	-2.000000e+002	0.000000e+000
89148630.000	-4.657329e-001	3.093683e+001	-5.591847e+001	1.469476e+002	-2.000000e+002	0.000000e+000	-2.000000e+002	0.000000e+000
89798620.000	-4.635513e-001	2.858482e+001	-5.578569e+001	1.459521e+002	-2.000000e+002	0.000000e+000	-2.000000e+002	0.000000e+000
90448610.000	-4.609768e-001	2.623349e+001	-5.560966e+001	1.447102e+002	-2.000000e+002	0.000000e+000	-2.000000e+002	0.000000e+000
91098600.000	-4.588058e-001	2.388595e+001	-5.539761e+001	1.430778e+002	-2.000000e+002	0.000000e+000	-2.000000e+002	0.000000e+000
91748590.000	-4.554969e-001	2.153519e+001	-5.535504e+001	1.398605e+002	-2.000000e+002	0.000000e+000	-2.000000e+002	0.000000e+000
92398580.000	-4.521964e-001	1.918927e+001	-5.509026e+001	1.383886e+002	-2.000000e+002	0.000000e+000	-2.000000e+002	0.000000e+000
93048570.000	-4.496829e-001	1.684111e+001	-5.494514e+001	1.377135e+002	-2.000000e+002	0.000000e+000	-2.000000e+002	0.000000e+000
93698560.000	-4.468440e-001	1.449400e+001	-5.486858e+001	1.349424e+002	-2.000000e+002	0.000000e+000	-2.000000e+002	0.000000e+000
94348550.000	-4.441762e-001	1.214771e+001	-5.482673e+001	1.332377e+002	-2.000000e+002	0.000000e+000	-2.000000e+002	0.000000e+000
94998540.000	-4.412787e-001	9.800521e+000	-5.475386e+001	1.305166e+002	-2.000000e+002	0.000000e+000	-2.000000e+002	0.000000e+000
95648530.000	-4.379591e-001	7.459232e+000	-5.460177e+001	1.291058e+002	-2.000000e+002	0.000000e+000	-2.000000e+002	0.000000e+000
96298520.000	-4.353032e-001	5.119481e+000	-5.462605e+001	1.270631e+002	-2.000000e+002	0.000000e+000	-2.000000e+002	0.000000e+000
96948510.000	-4.327180e-001	2.780643e+000	-5.447023e+001	1.269361e+002	-2.000000e+002	0.000000e+000	-2.000000e+002	0.000000e+000
97598500.000	-4.308798e-001	4.426131e-001	-5.430743e+001	1.262276e+002	-2.000000e+002	0.000000e+000	-2.000000e+002	0.000000e+000
98248490.000	-4.276088e-001	-1.895678e+000	-5.390867e+001	1.247861e+002	-2.000000e+002	0.000000e+000	-2.000000e+002	0.000000e+000
