!Keysight Technologies,E5063A,MY54503115,A.05.08
!Date: Sun Feb 04 18:35:03 2024
!Data & Calibration Information:
!Freq	S11:NONE(--)	S21:NONE(--)	S12:NONE(--)	S22:NONE(--)
# Hz S dB R 50
100000.000	4.671804e-002	-7.851847e-001	-8.743834e+001	-1.301957e+001	-2.000000e+002	0.000000e+000	-2.000000e+002	0.000000e+000
749990.000	8.602672e-003	-3.048916e+000	-8.645471e+001	-7.144199e+001	-2.000000e+002	0.000000e+000	-2.000000e+002	0.000000e+000
1399980.000	1.068366e-002	-5.359837e+000	-8.217320e+001	1.526716e+002	-2.000000e+002	0.000000e+000	-2.000000e+002	0.000000e+000
2049970.000	1.089901e-002	-7.684969e+000	-7.892407e+001	1.179611e+002	-2.000000e+002	0.000000e+000	-2.000000e+002	0.000000e+000
2699960.000	1.072831e-002	-1.001109e+001	-8.308774e+001	9.313073e+001	-2.000000e+002	0.000000e+000	-2.000000e+002	0.000000e+000
3349950.000	1.444896e-002	-1.235306e+001	-7.466833e+001	7.901348e+001	-2.000000e+002	0.000000e+000	-2.000000e+002	0.000000e+000
3999940.000	1.297051e-002	-1.468495e+001	-7.431184e+001	6.949423e+001	-2.000000e+002	0.000000e+000	-2.000000e+002	0.000000e+000
4649930.000	1.578498e-002	-1.702204e+001	-7.360984e+001	8.996504e+001	-2.000000e+002	0.000000e+000	-2.000000e+002	0.000000e+000
5299920.000	1.627765e-002	-1.935143e+001	-7.319462e+001	7.361304e+001	-2.000000e+002	0.000000e+000	-2.000000e+002	0.000000e+000
5949910.000	1.452200e-002	-2.170065e+001	-7.036837e+001	6.729863e+001	-2.000000e+002	0.000000e+000	-2.000000e+002	0.000000e+000
6599900.000	1.356113e-002	-2.404009e+001	-6.913844e+001	6.673650e+001	-2.000000e+002	0.000000e+000	-2.000000e+002	0.000000e+000
7249890.000	1.445820e-002	-2.638001e+001	-6.988544e+001	6.289329e+001	-2.000000e+002	0.000000e+000	-2.000000e+002	0.000000e+000
7899880.000	1.428424e-002	-2.872440e+001	-6.891234e+001	6.267708e+001	-2.000000e+002	0.000000e+000	-2.000000e+002	0.000000e+000
8549870.000	1.815413e-002	-3.106425e+001	-6.843654e+001	5.990750e+001	-2.000000e+002	0.000000e+000	-2.000000e+002	0.000000e+000
9199860.000	1.725315e-002	-3.340860e+001	-6.749021e+001	5.752759e+001	-2.000000e+002	0.000000e+000	-2.000000e+002	0.000000e+000
9849850.000	1.671214e-002	-3.575315e+001	-6.730395e+001	5.706427e+001	-2.000000e+002	0.000000e+000	-2.000000e+002	0.000000e+000
10499840.000	1.386890e-002	-3.809891e+001	-6.620564e+001	5.530039e+001	-2.000000e+002	0.000000e+000	-2.000000e+002	0.000000e+000
11149830.000	1.083117e-002	-4.043725e+001	-6.576211e+001	5.371364e+001	-2.000000e+002	0.000000e+000	-2.000000e+002	0.000000e+000
11799820.000	9.242677e-003	-4.278758e+001	-6.499544e+001	4.944798e+001	-2.000000e+002	0.000000e+000	-2.000000e+002	0.000000e+000
12449810.000	9.586104e-003	-4.514272e+001	-6.454807e+001	4.550678e+001	-2.000000e+002	0.000000e+000	-2.000000e+002	0.000000e+000
13099800.000	1.061741e-002	-4.748797e+001	-6.463358e+001	4.427306e+001	-2.000000e+002	0.000000e+000	-2.000000e+002	0.000000e+000
13749790.000	8.223456e-003	-4.983251e+001	-6.388367e+001	4.295697e+001	-2.000000e+002	0.000000e+000	-2.000000e+002	0.000000e+000
14399780.000	5.900267e-003	-5.219561e+001	-6.327488e+001	4.149176e+001	-2.000000e+002	0.000000e+000	-2.000000e+002	0.000000e+000
15049770.000	5.543364e-003	-5.454618e+001	-6.312935e+001	3.930579e+001	-2.000000e+002	0.000000e+000	-2.000000e+002	0.000000e+000
15699760.000	4.090934e-003	-5.689337e+001	-6.267398e+001	3.583786e+001	-2.000000e+002	0.000000e+000	-2.000000e+002	0.000000e+000
16349750.000	2.672773e-003	-5.924982e+001	-6.226602e+001	3.569663e+001	-2.000000e+002	0.000000e+000	-2.000000e+002	0.000000e+000
16999740.000	8.654850e-004	-6.161766e+001	-6.156330e+001	3.513643e+001	-2.000000e+002	0.000000e+000	-2.000000e+002	0.000000e+000
17649730.000	5.241904e-003	-6.399297e+001	-6.151207e+001	3.170401e+001	-2.000000e+002	0.000000e+000	-2.000000e+002	0.000000e+000
18299720.000	6.202531e-003	-6.636768e+001	-6.068601e+001	2.880542e+001	-2.000000e+002	0.000000e+000	-2.000000e+002	0.000000e+000
18949710.000	3.793917e-003	-6.874469e+001	-6.035218e+001	2.628262e+001	-2.000000e+002	0.000000e+000	-2.000000e+002	0.000000e+000
19599700.000	-4.425251e-003	-7.111642e+001	-5.982493e+001	2.135673e+001	-2.000000e+002	0.000000e+000	-2.000000e+002	0.000000e+000
20249690.000	-1.058206e-002	-7.349796e+001	-5.969182e+001	1.884730e+001	-2.000000e+002	0.000000e+000	-2.000000e+002	0.000000e+000
20899680.000	-1.508242e-002	-7.590381e+001	-5.944722e+001	1.633375e+001	-2.000000e+002	0.000000e+000	-2.000000e+002	0.000000e+000
21549670.000	-1.920463e-002	-7.829683e+001	-5.930240e+001	1.473274e+001	-2.000000e+002	0.000000e+000	-2.000000e+002	0.000000e+000
22199660.000	-2.400729e-002	-8.067334e+001	-5.883170e+001	1.337274e+001	-2.000000e+002	0.000000e+000	-2.000000e+002	0.000000e+000
22849650.000	-2.889021e-002	-8.303477e+001	-5.870313e+001	1.133065e+001	-2.000000e+002	0.000000e+000	-2.000000e+002	0.000000e+000
23499640.000	-3.508227e-002	-8.542503e+001	-5.865955e+001	9.389961e+000	-2.000000e+002	0.000000e+000	-2.000000e+002	0.000000e+000
24149630.000	-4.181574e-002	-8.781993e+001	-5.806854e+001	8.527880e+000	-2.000000e+002	0.000000e+000	-2.000000e+002	0.000000e+000
24799620.000	-4.727432e-002	-9.021062e+001	-5.741722e+001	7.180585e+000	-2.000000e+002	0.000000e+000	-2.000000e+002	0.000000e+000
25449610.000	-5.207987e-002	-9.259691e+001	-5.704992e+001	5.732758e+000	-2.000000e+002	0.000000e+000	-2.000000e+002	0.000000e+000
26099600.000	-5.832910e-002	-9.498685e+001	-5.658755e+001	2.561058e+000	-2.000000e+002	0.000000e+000	-2.000000e+002	0.000000e+000
26749590.000	-6.493164e-002	-9.738707e+001	-5.634781e+001	-1.217875e+000	-2.000000e+002	0.000000e+000	-2.000000e+002	0.000000e+000
27399580.000	-7.165276e-002	-9.978787e+001	-5.574973e+001	-3.405813e+000	-2.000000e+002	0.000000e+000	-2.000000e+002	0.000000e+000
28049570.000	-7.747769e-002	-1.021921e+002	-5.552449e+001	-5.982747e+000	-2.000000e+002	0.000000e+000	-2.000000e+002	0.000000e+000
28699560.000	-8.442309e-002	-1.045924e+002	-5.523870e+001	-8.932151e+000	-2.000000e+002	0.000000e+000	-2.000000e+002	0.000000e+000
29349550.000	-9.104243e-002	-1.069989e+002	-5.489653e+001	-1.086208e+001	-2.000000e+002	0.000000e+000	-2.000000e+002	0.000000e+000
29999540.000	-9.843165e-002	-1.094136e+002	-5.463032e+001	-1.544110e+001	-2.000000e+002	0.000000e+000	-2.000000e+002	0.000000e+000
30649530.000	-1.049393e-001	-1.118288e+002	-5.442083e+001	-1.696756e+001	-2.000000e+002	0.000000e+000	-2.000000e+002	0.000000e+000
31299520.000	-1.121610e-001	-1.142491e+002	-5.418301e+001	-1.886927e+001	-2.000000e+002	0.000000e+000	-2.000000e+002	0.000000e+000
31949510.000	-1.196282e-001	-1.166744e+002	-5.418179e+001	-2.083471e+001	-2.000000e+002	0.000000e+000	-2.000000e+002	0.000000e+000
32599500.000	-1.284456e-001	-1.191041e+002	-5.397471e+001	-2.181584e+001	-2.000000e+002	0.000000e+000	-2.000000e+002	0.000000e+000
33249490.000	-1.365423e-001	-1.215327e+002	-5.392042e+001	-2.107474e+001	-2.000000e+002	0.000000e+000	-2.000000e+002	0.000000e+000
33899480.000	-1.470001e-001	-1.239678e+002	-5.355575e+001	-1.746360e+001	-2.000000e+002	0.000000e+000	-2.000000e+002	0.000000e+000
34549470.000	-1.585719e-001	-1.263934e+002	-5.250062e+001	-1.233845e+001	-2.000000e+002	0.000000e+000	-2.000000e+002	0.000000e+000
35199460.000	-1.702457e-001	-1.288042e+002	-5.035225e+001	-1.218347e+001	-2.000000e+002	0.000000e+000	-2.000000e+002	0.000000e+000
35849450.000	-1.775238e-001	-1.312087e+002	-4.869161e+001	-2.106299e+001	-2.000000e+002	0.000000e+000	-2.000000e+002	0.000000e+000
36499440.000	-1.828308e-001	-1.336367e+002	-4.790445e+001	-2.980455e+001	-2.000000e+002	0.000000e+000	-2.000000e+002	0.000000e+000
37149430.000	-1.886693e-001	-1.360808e+002	-4.741691e+001	-3.653040e+001	-2.000000e+002	0.000000e+000	-2.000000e+002	0.000000e+000
37799420.000	-1.954693e-001	-1.385362e+002	-4.702152e+001	-4.250996e+001	-2.000000e+002	0.000000e+000	-2.000000e+002	0.000000e+000
38449410.000	-2.029728e-001	-1.409938e+002	-4.658578e+001	-4.717963e+001	-2.000000e+002	0.000000e+000	-2.000000e+002	0.000000e+000
39099400.000	-2.109642e-001	-1.434575e+002	-4.611901e+001	-5.130358e+001	-2.000000e+002	0.000000e+000	-2.000000e+002	0.000000e+000
39749390.000	-2.196232e-001	-1.459273e+002	-4.556786e+001	-5.511496e+001	-2.000000e+002	0.000000e+000	-2.000000e+002	0.000000e+000
40399380.000	-2.284328e-001	-1.484062e+002	-4.493000e+001	-5.815128e+001	-2.000000e+002	0.000000e+000	-2.000000e+002	0.000000e+000
41049370.000	-2.379129e-001	-1.508931e+002	-4.406412e+001	-6.139332e+001	-2.000000e+002	0.000000e+000	-2.000000e+002	0.000000e+000
41699360.000	-2.477176e-001	-1.533942e+002	-4.303977e+001	-6.466728e+001	-2.000000e+002	0.000000e+000	-2.000000e+002	0.000000e+000
42349350.000	-2.589145e-001	-1.559123e+002	-4.184759e+001	-6.832675e+001	-2.000000e+002	0.000000e+000	-2.000000e+002	0.000000e+000
42999340.000	-2.723544e-001	-1.584580e+002	-4.033198e+001	-7.241650e+001	-2.000000e+002	0.000000e+000	-2.000000e+002	0.000000e+000
43649330.000	-2.890809e-001	-1.610562e+002	-3.843150e+001	-7.768675e+001	-2.000000e+002	0.000000e+000	-2.000000e+002	0.000000e+000
44299320.000	-3.157777e-001	-1.637408e+002	-3.592994e+001	-8.523171e+001	-2.000000e+002	0.000000e+000	-2.000000e+002	0.000000e+000
44949310.000	-3.756766e-001	-1.666081e+002	-3.252398e+001	-9.791905e+001	-2.000000e+002	0.000000e+000	-2.000000e+002	0.000000e+000
45599300.000	-5.892907e-001	-1.695046e+002	-2.795617e+001	-1.262452e+002	-2.000000e+002	0.000000e+000	-2.000000e+002	0.000000e+000
46249290.000	-7.913536e-001	-1.691589e+002	-2.652653e+001	1.708689e+002	-2.000000e+002	0.000000e+000	-2.000000e+002	0.000000e+000
46899280.000	-4.863458e-001	-1.709490e+002	-3.156134e+001	1.296002e+002	-2.000000e+002	0.000000e+000	-2.000000e+002	0.000000e+000
47549270.000	-3.920320e-001	-1.738181e+002	-3.589657e+001	1.127806e+002	-2.000000e+002	0.000000e+000	-2.000000e+002	0.000000e+000
48199260.000	-3.647591e-001	-1.765450e+002	-3.917879e+001	1.034214e+002	-2.000000e+002	0.000000e+000	-2.000000e+002	0.000000e+000
48849250.000	-3.566480e-001	-1.791673e+002	-4.178132e+001	9.653708e+001	-2.000000e+002	0.000000e+000	-2.000000e+002	0.000000e+000
49499240.000	-3.553010e-001	1.782688e+002	-4.401974e+001	9.091317e+001	-2.000000e+002	0.000000e+000	-2.000000e+002	0.000000e+000
50149230.000	-3.570866e-001	1.757391e+002	-4.598609e+001	8.613987e+001	-2.000000e+002	0.000000e+000	-2.000000e+002	0.000000e+000
50799220.000	-3.603571e-001	1.732334e+002	-4.778535e+001	8.229368e+001	-2.000000e+002	0.000000e+000	-2.000000e+002	0.000000e+000
51449210.000	-3.645048e-001	1.707322e+002	-4.936051e+001	7.804340e+001	-2.000000e+002	0.000000e+000	-2.000000e+002	0.000000e+000
52099200.000	-3.691737e-001	1.682473e+002	-5.078803e+001	7.351634e+001	-2.000000e+002	0.000000e+000	-2.000000e+002	0.000000e+000
52749190.000	-3.737758e-001	1.657721e+002	-5.229325e+001	6.916326e+001	-2.000000e+002	0.000000e+000	-2.000000e+002	0.000000e+000
53399180.000	-3.787761e-001	1.632978e+002	-5.377460e+001	6.501285e+001	-2.000000e+002	0.000000e+000	-2.000000e+002	0.000000e+000
54049170.000	-3.839732e-001	1.608246e+002	-5.514885e+001	6.000942e+001	-2.000000e+002	0.000000e+000	-2.000000e+002	0.000000e+000
54699160.000	-3.893142e-001	1.583576e+002	-5.645690e+001	5.665671e+001	-2.000000e+002	0.000000e+000	-2.000000e+002	0.000000e+000
55349150.000	-3.945631e-001	1.558943e+002	-5.774977e+001	5.246533e+001	-2.000000e+002	0.000000e+000	-2.000000e+002	0.000000e+000
55999140.000	-3.998783e-001	1.534351e+002	-5.884374e+001	4.664155e+001	-2.000000e+002	0.000000e+000	-2.000000e+002	0.000000e+000
56649130.000	-4.059542e-001	1.509781e+002	-6.017152e+001	4.137481e+001	-2.000000e+002	0.000000e+000	-2.000000e+002	0.000000e+000
57299120.000	-4.108993e-001	1.485237e+002	-6.121717e+001	3.523657e+001	-2.000000e+002	0.000000e+000	-2.000000e+002	0.000000e+000
57949110.000	-4.157839e-001	1.460698e+002	-6.180843e+001	2.637360e+001	-2.000000e+002	0.000000e+000	-2.000000e+002	0.000000e+000
58599100.000	-4.208766e-001	1.436193e+002	-6.199140e+001	1.851226e+001	-2.000000e+002	0.000000e+000	-2.000000e+002	0.000000e+000
59249090.000	-4.261728e-001	1.411744e+002	-6.173472e+001	7.255644e+000	-2.000000e+002	0.000000e+000	-2.000000e+002	0.000000e+000
59899080.000	-4.315535e-001	1.387284e+002	-6.121421e+001	-8.812247e+000	-2.000000e+002	0.000000e+000	-2.000000e+002	0.000000e+000
60549070.000	-4.373859e-001	1.362947e+002	-6.003895e+001	-2.644475e+001	-2.000000e+002	0.000000e+000	-2.000000e+002	0.000000e+000
61199060.000	-4.429432e-001	1.338700e+002	-5.942557e+001	-4.950625e+001	-2.000000e+002	0.000000e+000	-2.000000e+002	0.000000e+000
61849050.000	-4.464865e-001	1.314458e+002	-5.905330e+001	-6.869744e+001	-2.000000e+002	0.000000e+000	-2.000000e+002	0.000000e+000
62499040.000	-4.497343e-001	1.290159e+002	-5.939815e+001	-8.841560e+001	-2.000000e+002	0.000000e+000	-2.000000e+002	0.000000e+000
63149030.000	-4.519395e-001	1.265846e+002	-5.961599e+001	-1.006585e+002	-2.000000e+002	0.000000e+000	-2.000000e+002	0.000000e+000
63799020.000	-4.546457e-001	1.241566e+002	-5.983107e+001	-1.092975e+002	-2.000000e+002	0.000000e+000	-2.000000e+002	0.000000e+000
64449010.000	-4.582397e-001	1.217309e+002	-5.967837e+001	-1.163030e+002	-2.000000e+002	0.000000e+000	-2.000000e+002	0.000000e+000
65099000.000	-4.608143e-001	1.193034e+002	-5.967447e+001	-1.238652e+002	-2.000000e+002	0.000000e+000	-2.000000e+002	0.000000e+000
65748990.000	-4.628939e-001	1.168755e+002	-5.972297e+001	-1.297980e+002	-2.000000e+002	0.000000e+000	-2.000000e+002	0.000000e+000
66398980.000	-4.655037e-001	1.144533e+002	-5.958706e+001	-1.346738e+002	-2.000000e+002	0.000000e+000	-2.000000e+002	0.000000e+000
67048970.000	-4.678433e-001	1.120313e+002	-5.950571e+001	-1.373248e+002	-2.000000e+002	0.000000e+000	-2.000000e+002	0.000000e+000
67698960.000	-4.706076e-001	1.096143e+002	-5.918931e+001	-1.407810e+002	-2.000000e+002	0.000000e+000	-2.000000e+002	0.000000e+000
68348950.000	-4.728706e-001	1.071986e+002	-5.919109e+001	-1.440080e+002	-2.000000e+002	0.000000e+000	-2.000000e+002	0.000000e+000
68998940.000	-4.752522e-001	1.047858e+002	-5.889413e+001	-1.465593e+002	-2.000000e+002	0.000000e+000	-2.000000e+002	0.000000e+000
69648930.000	-4.767611e-001	1.023739e+002	-5.879541e+001	-1.497444e+002	-2.000000e+002	0.000000e+000	-2.000000e+002	0.000000e+000
70298920.000	-4.773380e-001	9.995875e+001	-5.848252e+001	-1.514830e+002	-2.000000e+002	0.000000e+000	-2.000000e+002	0.000000e+000
70948910.000	-4.795276e-001	9.754897e+001	-5.828752e+001	-1.538980e+002	-2.000000e+002	0.000000e+000	-2.000000e+002	0.000000e+000
71598900.000	-4.807516e-001	9.514418e+001	-5.808696e+001	-1.561008e+002	-2.000000e+002	0.000000e+000	-2.000000e+002	0.000000e+000
72248890.000	-4.826492e-001	9.274265e+001	-5.789367e+001	-1.589689e+002	-2.000000e+002	0.000000e+000	-2.000000e+002	0.000000e+000
72898880.000	-4.835501e-001	9.033712e+001	-5.759812e+001	-1.607164e+002	-2.000000e+002	0.000000e+000	-2.000000e+002	0.000000e+000
73548870.000	-4.849826e-001	8.794422e+001	-5.720863e+001	-1.622078e+002	-2.000000e+002	0.000000e+000	-2.000000e+002	0.000000e+000
74198860.000	-4.859596e-001	8.555045e+001	-5.705909e+001	-1.648237e+002	-2.000000e+002	0.000000e+000	-2.000000e+002	0.000000e+000
74848850.000	-4.869201e-001	8.315750e+001	-5.679401e+001	-1.664573e+002	-2.000000e+002	0.000000e+000	-2.000000e+002	0.000000e+000
75498840.000	-4.872249e-001	8.076401e+001	-5.639684e+001	-1.692360e+002	-2.000000e+002	0.000000e+000	-2.000000e+002	0.000000e+000
76148830.000	-4.874422e-001	7.837923e+001	-5.614513e+001	-1.719036e+002	-2.000000e+002	0.000000e+000	-2.000000e+002	0.000000e+000
76798820.000	-4.867631e-001	7.598716e+001	-5.583208e+001	-1.744374e+002	-2.000000e+002	0.000000e+000	-2.000000e+002	0.000000e+000
77448810.000	-4.882323e-001	7.362007e+001	-5.560656e+001	-1.767795e+002	-2.000000e+002	0.000000e+000	-2.000000e+002	0.000000e+000
78098800.000	-4.880764e-001	7.123889e+001	-5.535343e+001	-1.796980e+002	-2.000000e+002	0.000000e+000	-2.000000e+002	0.000000e+000
78748790.000	-4.871331e-001	6.886066e+001	-5.501589e+001	1.772039e+002	-2.000000e+002	0.000000e+000	-2.000000e+002	0.000000e+000
79398780.000	-4.858923e-001	6.648627e+001	-5.482918e+001	1.731787e+002	-2.000000e+002	0.000000e+000	-2.000000e+002	0.000000e+000
80048770.000	-4.837538e-001	6.410072e+001	-5.467566e+001	1.698985e+002	-2.000000e+002	0.000000e+000	-2.000000e+002	0.000000e+000
80698760.000	-4.827889e-001	6.172571e+001	-5.459671e+001	1.671004e+002	-2.000000e+002	0.000000e+000	-2.000000e+002	0.000000e+000
81348750.000	-4.808566e-001	5.935115e+001	-5.456440e+001	1.639646e+002	-2.000000e+002	0.000000e+000	-2.000000e+002	0.000000e+000
81998740.000	-4.799292e-001	5.697918e+001	-5.450055e+001	1.616180e+002	-2.000000e+002	0.000000e+000	-2.000000e+002	0.000000e+000
82648730.000	-4.798586e-001	5.462452e+001	-5.443407e+001	1.589526e+002	-2.000000e+002	0.000000e+000	-2.000000e+002	0.000000e+000
83298720.000	-4.784526e-001	5.225084e+001	-5.436489e+001	1.565412e+002	-2.000000e+002	0.000000e+000	-2.000000e+002	0.000000e+000
83948710.000	-4.764768e-001	4.988126e+001	-5.432556e+001	1.542100e+002	-2.000000e+002	0.000000e+000	-2.000000e+002	0.000000e+000
84598700.000	-4.749373e-001	4.751680e+001	-5.430322e+001	1.522999e+002	-2.000000e+002	0.000000e+000	-2.000000e+002	0.000000e+000
85248690.000	-4.731606e-001	4.515355e+001	-5.422025e+001	1.503432e+002	-2.000000e+002	0.000000e+000	-2.000000e+002	0.000000e+000
85898680.000	-4.714705e-001	4.279181e+001	-5.419487e+001	1.483992e+002	-2.000000e+002	0.000000e+000	-2.000000e+002	0.000000e+000
86548670.000	-4.692285e-001	4.043313e+001	-5.402095e+001	1.462913e+002	-2.000000e+002	0.000000e+000	-2.000000e+002	0.000000e+000
87198660.000	-4.666020e-001	3.807480e+001	-5.397064e+001	1.439130e+002	-2.000000e+002	0.000000e+000	-2.000000e+002	0.000000e+000
87848650.000	-4.644326e-001	3.572561e+001	-5.390129e+001	1.422143e+002	-2.000000e+002	0.000000e+000	-2.000000e+002	0.000000e+000
88498640.000	-4.620113e-001	3.337248e+001	-5.398449e+001	1.407028e+002	-2.000000e+002	0.000000e+000	-2.000000e+002	0.000000e+000
89148630.000	-4.602215e-001	3.102669e+001	-5.382828e+001	1.387232e+002	-2.000000e+002	0.000000e+000	-2.000000e+002	0.000000e+000
89798620.000	-4.573307e-001	2.867419e+001	-5.378958e+001	1.373789e+002	-2.000000e+002	0.000000e+000	-2.000000e+002	0.000000e+000
90448610.000	-4.550952e-001	2.632383e+001	-5.361611e+001	1.362041e+002	-2.000000e+002	0.000000e+000	-2.000000e+002	0.000000e+000
91098600.000	-4.527843e-001	2.397122e+001	-5.347652e+001	1.349452e+002	-2.000000e+002	0.000000e+000	-2.000000e+002	0.000000e+000
91748590.000	-4.494464e-001	2.162072e+001	-5.332279e+001	1.325896e+002	-2.000000e+002	0.000000e+000	-2.000000e+002	0.000000e+000
92398580.000	-4.463860e-001	1.926981e+001	-5.321072e+001	1.312870e+002	-2.000000e+002	0.000000e+000	-2.000000e+002	0.000000e+000
93048570.000	-4.438276e-001	1.692527e+001	-5.331451e+001	1.312577e+002	-2.000000e+002	0.000000e+000	-2.000000e+002	0.000000e+000
93698560.000	-4.414459e-001	1.457132e+001	-5.289190e+001	1.281033e+002	-2.000000e+002	0.000000e+000	-2.000000e+002	0.000000e+000
94348550.000	-4.386898e-001	1.222734e+001	-5.276882e+001	1.261471e+002	-2.000000e+002	0.000000e+000	-2.000000e+002	0.000000e+000
94998540.000	-4.360066e-001	9.883819e+000	-5.267683e+001	1.251788e+002	-2.000000e+002	0.000000e+000	-2.000000e+002	0.000000e+000
95648530.000	-4.333229e-001	7.539034e+000	-5.254086e+001	1.235673e+002	-2.000000e+002	0.000000e+000	-2.000000e+002	0.000000e+000
96298520.000	-4.306605e-001	5.203282e+000	-5.240937e+001	1.220826e+002	-2.000000e+002	0.000000e+000	-2.000000e+002	0.000000e+000
96948510.000	-4.284584e-001	2.862883e+000	-5.230863e+001	1.217778e+002	-2.000000e+002	0.000000e+000	-2.000000e+002	0.000000e+000
97598500.000	-4.266784e-001	5.231632e-001	-5.195479e+001	1.215239e+002	-2.000000e+002	0.000000e+000	-2.000000e+002	0.000000e+000
98248490.000	-4.238723e-001	-1.810234e+000	-5.154877e+001	1.210925e+002	-2.000000e+002	0.000000e+000	-2.000000e+002	0.000000e+000
