!Keysight Technologies,E5063A,MY54503115,A.05.08
!Date: Sun Feb 04 18:21:10 2024
!Data & Calibration Information:
!Freq	S11:NONE(--)	S21:NONE(--)	S12:NONE(--)	S22:NONE(--)
# Hz S dB R 50
100000.000	4.581701e-002	-7.662335e-001	-7.730635e+001	3.361415e+001	-2.000000e+002	0.000000e+000	-2.000000e+002	0.000000e+000
749990.000	8.560771e-003	-3.039101e+000	-9.221260e+001	-4.573779e+001	-2.000000e+002	0.000000e+000	-2.000000e+002	0.000000e+000
1399980.000	1.144761e-002	-5.355183e+000	-8.288226e+001	1.585686e+002	-2.000000e+002	0.000000e+000	-2.000000e+002	0.000000e+000
2049970.000	9.844259e-003	-7.684160e+000	-7.725417e+001	1.127439e+002	-2.000000e+002	0.000000e+000	-2.000000e+002	0.000000e+000
2699960.000	1.256235e-002	-1.000615e+001	-7.882444e+001	1.134697e+002	-2.000000e+002	0.000000e+000	-2.000000e+002	0.000000e+000
3349950.000	1.582817e-002	-1.235040e+001	-7.619783e+001	1.122704e+002	-2.000000e+002	0.000000e+000	-2.000000e+002	0.000000e+000
3999940.000	1.484849e-002	-1.467868e+001	-7.382362e+001	6.785485e+001	-2.000000e+002	0.000000e+000	-2.000000e+002	0.000000e+000
4649930.000	1.692577e-002	-1.700579e+001	-7.460106e+001	8.402790e+001	-2.000000e+002	0.000000e+000	-2.000000e+002	0.000000e+000
5299920.000	1.433668e-002	-1.935062e+001	-7.200624e+001	8.226555e+001	-2.000000e+002	0.000000e+000	-2.000000e+002	0.000000e+000
5949910.000	1.425244e-002	-2.169868e+001	-7.158537e+001	6.831292e+001	-2.000000e+002	0.000000e+000	-2.000000e+002	0.000000e+000
6599900.000	1.466267e-002	-2.403478e+001	-7.155602e+001	6.612035e+001	-2.000000e+002	0.000000e+000	-2.000000e+002	0.000000e+000
7249890.000	1.487785e-002	-2.636603e+001	-6.876162e+001	7.007705e+001	-2.000000e+002	0.000000e+000	-2.000000e+002	0.000000e+000
7899880.000	1.514081e-002	-2.871955e+001	-7.010736e+001	6.312734e+001	-2.000000e+002	0.000000e+000	-2.000000e+002	0.000000e+000
8549870.000	1.889631e-002	-3.106436e+001	-6.815058e+001	6.061169e+001	-2.000000e+002	0.000000e+000	-2.000000e+002	0.000000e+000
9199860.000	1.816990e-002	-3.340467e+001	-6.691316e+001	5.785631e+001	-2.000000e+002	0.000000e+000	-2.000000e+002	0.000000e+000
9849850.000	1.694144e-002	-3.575203e+001	-6.669063e+001	5.185246e+001	-2.000000e+002	0.000000e+000	-2.000000e+002	0.000000e+000
10499840.000	1.436375e-002	-3.809710e+001	-6.642783e+001	5.433040e+001	-2.000000e+002	0.000000e+000	-2.000000e+002	0.000000e+000
11149830.000	1.125332e-002	-4.043975e+001	-6.592465e+001	4.974371e+001	-2.000000e+002	0.000000e+000	-2.000000e+002	0.000000e+000
11799820.000	9.687209e-003	-4.278346e+001	-6.521600e+001	4.854620e+001	-2.000000e+002	0.000000e+000	-2.000000e+002	0.000000e+000
12449810.000	9.644061e-003	-4.513774e+001	-6.452457e+001	4.735936e+001	-2.000000e+002	0.000000e+000	-2.000000e+002	0.000000e+000
13099800.000	1.094413e-002	-4.748139e+001	-6.414322e+001	4.635574e+001	-2.000000e+002	0.000000e+000	-2.000000e+002	0.000000e+000
13749790.000	8.422261e-003	-4.982893e+001	-6.381172e+001	4.107378e+001	-2.000000e+002	0.000000e+000	-2.000000e+002	0.000000e+000
14399780.000	5.796336e-003	-5.219222e+001	-6.324671e+001	4.075478e+001	-2.000000e+002	0.000000e+000	-2.000000e+002	0.000000e+000
15049770.000	5.542816e-003	-5.454323e+001	-6.272137e+001	3.904107e+001	-2.000000e+002	0.000000e+000	-2.000000e+002	0.000000e+000
15699760.000	4.985503e-003	-5.689269e+001	-6.255774e+001	3.685871e+001	-2.000000e+002	0.000000e+000	-2.000000e+002	0.000000e+000
16349750.000	3.681094e-003	-5.924828e+001	-6.210581e+001	3.434807e+001	-2.000000e+002	0.000000e+000	-2.000000e+002	0.000000e+000
16999740.000	1.028624e-003	-6.162112e+001	-6.158169e+001	3.502867e+001	-2.000000e+002	0.000000e+000	-2.000000e+002	0.000000e+000
17649730.000	5.503203e-003	-6.399366e+001	-6.144347e+001	3.271582e+001	-2.000000e+002	0.000000e+000	-2.000000e+002	0.000000e+000
18299720.000	6.573212e-003	-6.637141e+001	-6.056837e+001	2.885520e+001	-2.000000e+002	0.000000e+000	-2.000000e+002	0.000000e+000
18949710.000	3.644509e-003	-6.874839e+001	-6.017158e+001	2.448217e+001	-2.000000e+002	0.000000e+000	-2.000000e+002	0.000000e+000
19599700.000	-4.550002e-003	-7.112180e+001	-5.969565e+001	2.204013e+001	-2.000000e+002	0.000000e+000	-2.000000e+002	0.000000e+000
20249690.000	-1.104300e-002	-7.350370e+001	-5.953205e+001	1.837868e+001	-2.000000e+002	0.000000e+000	-2.000000e+002	0.000000e+000
20899680.000	-1.535951e-002	-7.591414e+001	-5.929623e+001	1.656141e+001	-2.000000e+002	0.000000e+000	-2.000000e+002	0.000000e+000
21549670.000	-1.995853e-002	-7.830234e+001	-5.900098e+001	1.387349e+001	-2.000000e+002	0.000000e+000	-2.000000e+002	0.000000e+000
22199660.000	-2.493742e-002	-8.068244e+001	-5.879232e+001	1.122443e+001	-2.000000e+002	0.000000e+000	-2.000000e+002	0.000000e+000
22849650.000	-2.936600e-002	-8.304819e+001	-5.867192e+001	9.843551e+000	-2.000000e+002	0.000000e+000	-2.000000e+002	0.000000e+000
23499640.000	-3.574711e-002	-8.543669e+001	-5.849950e+001	8.686774e+000	-2.000000e+002	0.000000e+000	-2.000000e+002	0.000000e+000
24149630.000	-4.308255e-002	-8.783723e+001	-5.806859e+001	8.519593e+000	-2.000000e+002	0.000000e+000	-2.000000e+002	0.000000e+000
24799620.000	-4.889632e-002	-9.022672e+001	-5.751071e+001	6.954845e+000	-2.000000e+002	0.000000e+000	-2.000000e+002	0.000000e+000
25449610.000	-5.354711e-002	-9.261332e+001	-5.711698e+001	4.109603e+000	-2.000000e+002	0.000000e+000	-2.000000e+002	0.000000e+000
26099600.000	-6.024126e-002	-9.500438e+001	-5.664200e+001	1.856904e+000	-2.000000e+002	0.000000e+000	-2.000000e+002	0.000000e+000
26749590.000	-6.724201e-002	-9.740549e+001	-5.620319e+001	-4.710958e-001	-2.000000e+002	0.000000e+000	-2.000000e+002	0.000000e+000
27399580.000	-7.386548e-002	-9.980585e+001	-5.592774e+001	-3.088555e+000	-2.000000e+002	0.000000e+000	-2.000000e+002	0.000000e+000
28049570.000	-8.036071e-002	-1.022097e+002	-5.567230e+001	-5.949719e+000	-2.000000e+002	0.000000e+000	-2.000000e+002	0.000000e+000
28699560.000	-8.711407e-002	-1.046095e+002	-5.518848e+001	-8.211358e+000	-2.000000e+002	0.000000e+000	-2.000000e+002	0.000000e+000
29349550.000	-9.397156e-002	-1.070199e+002	-5.504042e+001	-1.063681e+001	-2.000000e+002	0.000000e+000	-2.000000e+002	0.000000e+000
29999540.000	-1.010276e-001	-1.094326e+002	-5.463169e+001	-1.536459e+001	-2.000000e+002	0.000000e+000	-2.000000e+002	0.000000e+000
30649530.000	-1.085004e-001	-1.118532e+002	-5.453302e+001	-1.653565e+001	-2.000000e+002	0.000000e+000	-2.000000e+002	0.000000e+000
31299520.000	-1.152025e-001	-1.142716e+002	-5.441510e+001	-1.895017e+001	-2.000000e+002	0.000000e+000	-2.000000e+002	0.000000e+000
31949510.000	-1.233344e-001	-1.166969e+002	-5.419187e+001	-1.994787e+001	-2.000000e+002	0.000000e+000	-2.000000e+002	0.000000e+000
32599500.000	-1.321454e-001	-1.191285e+002	-5.402780e+001	-2.096996e+001	-2.000000e+002	0.000000e+000	-2.000000e+002	0.000000e+000
33249490.000	-1.408912e-001	-1.215582e+002	-5.391807e+001	-1.969533e+001	-2.000000e+002	0.000000e+000	-2.000000e+002	0.000000e+000
33899480.000	-1.510379e-001	-1.239909e+002	-5.362890e+001	-1.766210e+001	-2.000000e+002	0.000000e+000	-2.000000e+002	0.000000e+000
34549470.000	-1.616830e-001	-1.264165e+002	-5.269436e+001	-1.465831e+001	-2.000000e+002	0.000000e+000	-2.000000e+002	0.000000e+000
35199460.000	-1.734346e-001	-1.288364e+002	-5.111896e+001	-1.366293e+001	-2.000000e+002	0.000000e+000	-2.000000e+002	0.000000e+000
35849450.000	-1.822077e-001	-1.312511e+002	-4.971347e+001	-1.864903e+001	-2.000000e+002	0.000000e+000	-2.000000e+002	0.000000e+000
36499440.000	-1.892249e-001	-1.336724e+002	-4.870722e+001	-2.480164e+001	-2.000000e+002	0.000000e+000	-2.000000e+002	0.000000e+000
37149430.000	-1.962633e-001	-1.361048e+002	-4.782419e+001	-3.058090e+001	-2.000000e+002	0.000000e+000	-2.000000e+002	0.000000e+000
37799420.000	-2.022972e-001	-1.385476e+002	-4.723862e+001	-3.783607e+001	-2.000000e+002	0.000000e+000	-2.000000e+002	0.000000e+000
38449410.000	-2.090111e-001	-1.410027e+002	-4.685904e+001	-4.426842e+001	-2.000000e+002	0.000000e+000	-2.000000e+002	0.000000e+000
39099400.000	-2.165858e-001	-1.434658e+002	-4.658361e+001	-4.837676e+001	-2.000000e+002	0.000000e+000	-2.000000e+002	0.000000e+000
39749390.000	-2.251343e-001	-1.459359e+002	-4.613984e+001	-5.233845e+001	-2.000000e+002	0.000000e+000	-2.000000e+002	0.000000e+000
40399380.000	-2.339954e-001	-1.484092e+002	-4.565466e+001	-5.545397e+001	-2.000000e+002	0.000000e+000	-2.000000e+002	0.000000e+000
41049370.000	-2.433331e-001	-1.508877e+002	-4.504367e+001	-5.825905e+001	-2.000000e+002	0.000000e+000	-2.000000e+002	0.000000e+000
41699360.000	-2.533399e-001	-1.533728e+002	-4.438046e+001	-6.098630e+001	-2.000000e+002	0.000000e+000	-2.000000e+002	0.000000e+000
42349350.000	-2.638599e-001	-1.558714e+002	-4.353723e+001	-6.365664e+001	-2.000000e+002	0.000000e+000	-2.000000e+002	0.000000e+000
42999340.000	-2.757861e-001	-1.583765e+002	-4.241955e+001	-6.637316e+001	-2.000000e+002	0.000000e+000	-2.000000e+002	0.000000e+000
43649330.000	-2.895720e-001	-1.609050e+002	-4.111636e+001	-6.938749e+001	-2.000000e+002	0.000000e+000	-2.000000e+002	0.000000e+000
44299320.000	-3.057550e-001	-1.634516e+002	-3.949275e+001	-7.325704e+001	-2.000000e+002	0.000000e+000	-2.000000e+002	0.000000e+000
44949310.000	-3.260518e-001	-1.660392e+002	-3.745281e+001	-7.847148e+001	-2.000000e+002	0.000000e+000	-2.000000e+002	0.000000e+000
45599300.000	-3.568615e-001	-1.687055e+002	-3.485707e+001	-8.622168e+001	-2.000000e+002	0.000000e+000	-2.000000e+002	0.000000e+000
46249290.000	-4.196210e-001	-1.715334e+002	-3.146108e+001	-9.905335e+001	-2.000000e+002	0.000000e+000	-2.000000e+002	0.000000e+000
46899280.000	-6.322033e-001	-1.744189e+002	-2.681425e+001	-1.258660e+002	-2.000000e+002	0.000000e+000	-2.000000e+002	0.000000e+000
47549270.000	-8.519923e-001	-1.737999e+002	-2.478804e+001	1.698013e+002	-2.000000e+002	0.000000e+000	-2.000000e+002	0.000000e+000
48199260.000	-4.919095e-001	-1.756984e+002	-3.008755e+001	1.260535e+002	-2.000000e+002	0.000000e+000	-2.000000e+002	0.000000e+000
48849250.000	-3.990171e-001	-1.786921e+002	-3.459533e+001	1.095668e+002	-2.000000e+002	0.000000e+000	-2.000000e+002	0.000000e+000
49499240.000	-3.757128e-001	1.785360e+002	-3.792264e+001	1.006261e+002	-2.000000e+002	0.000000e+000	-2.000000e+002	0.000000e+000
50149230.000	-3.695584e-001	1.758946e+002	-4.052385e+001	9.440852e+001	-2.000000e+002	0.000000e+000	-2.000000e+002	0.000000e+000
50799220.000	-3.704261e-001	1.733198e+002	-4.265924e+001	8.957339e+001	-2.000000e+002	0.000000e+000	-2.000000e+002	0.000000e+000
51449210.000	-3.729018e-001	1.707738e+002	-4.452073e+001	8.527906e+001	-2.000000e+002	0.000000e+000	-2.000000e+002	0.000000e+000
52099200.000	-3.767498e-001	1.682613e+002	-4.621975e+001	8.133512e+001	-2.000000e+002	0.000000e+000	-2.000000e+002	0.000000e+000
52749190.000	-3.817276e-001	1.657629e+002	-4.764413e+001	7.759364e+001	-2.000000e+002	0.000000e+000	-2.000000e+002	0.000000e+000
53399180.000	-3.866697e-001	1.632723e+002	-4.909445e+001	7.356524e+001	-2.000000e+002	0.000000e+000	-2.000000e+002	0.000000e+000
54049170.000	-3.920340e-001	1.607886e+002	-5.031454e+001	6.989531e+001	-2.000000e+002	0.000000e+000	-2.000000e+002	0.000000e+000
54699160.000	-3.976247e-001	1.583096e+002	-5.137769e+001	6.634793e+001	-2.000000e+002	0.000000e+000	-2.000000e+002	0.000000e+000
55349150.000	-4.036545e-001	1.558409e+002	-5.278597e+001	6.247814e+001	-2.000000e+002	0.000000e+000	-2.000000e+002	0.000000e+000
55999140.000	-4.092289e-001	1.533722e+002	-5.367773e+001	5.703043e+001	-2.000000e+002	0.000000e+000	-2.000000e+002	0.000000e+000
56649130.000	-4.155075e-001	1.509119e+002	-5.482529e+001	5.144685e+001	-2.000000e+002	0.000000e+000	-2.000000e+002	0.000000e+000
57299120.000	-4.205887e-001	1.484535e+002	-5.568577e+001	4.617165e+001	-2.000000e+002	0.000000e+000	-2.000000e+002	0.000000e+000
57949110.000	-4.262791e-001	1.459957e+002	-5.634969e+001	3.939889e+001	-2.000000e+002	0.000000e+000	-2.000000e+002	0.000000e+000
58599100.000	-4.314763e-001	1.435449e+002	-5.718234e+001	2.911851e+001	-2.000000e+002	0.000000e+000	-2.000000e+002	0.000000e+000
59249090.000	-4.373162e-001	1.410984e+002	-5.792250e+001	1.779008e+001	-2.000000e+002	0.000000e+000	-2.000000e+002	0.000000e+000
59899080.000	-4.424657e-001	1.386531e+002	-5.862506e+001	1.159450e+000	-2.000000e+002	0.000000e+000	-2.000000e+002	0.000000e+000
60549070.000	-4.474153e-001	1.362183e+002	-6.011152e+001	-1.863030e+001	-2.000000e+002	0.000000e+000	-2.000000e+002	0.000000e+000
61199060.000	-4.512911e-001	1.337882e+002	-6.201245e+001	-4.061154e+001	-2.000000e+002	0.000000e+000	-2.000000e+002	0.000000e+000
61849050.000	-4.546289e-001	1.313493e+002	-6.370220e+001	-5.710547e+001	-2.000000e+002	0.000000e+000	-2.000000e+002	0.000000e+000
62499040.000	-4.581908e-001	1.289159e+002	-6.548239e+001	-7.472903e+001	-2.000000e+002	0.000000e+000	-2.000000e+002	0.000000e+000
63149030.000	-4.613801e-001	1.264764e+002	-6.680178e+001	-8.540933e+001	-2.000000e+002	0.000000e+000	-2.000000e+002	0.000000e+000
63799020.000	-4.652600e-001	1.240428e+002	-6.715879e+001	-9.493479e+001	-2.000000e+002	0.000000e+000	-2.000000e+002	0.000000e+000
64449010.000	-4.688341e-001	1.216168e+002	-6.668770e+001	-1.030966e+002	-2.000000e+002	0.000000e+000	-2.000000e+002	0.000000e+000
65099000.000	-4.715249e-001	1.191853e+002	-6.588176e+001	-1.141924e+002	-2.000000e+002	0.000000e+000	-2.000000e+002	0.000000e+000
65748990.000	-4.739762e-001	1.167548e+002	-6.604979e+001	-1.191766e+002	-2.000000e+002	0.000000e+000	-2.000000e+002	0.000000e+000
66398980.000	-4.768075e-001	1.143314e+002	-6.578013e+001	-1.248819e+002	-2.000000e+002	0.000000e+000	-2.000000e+002	0.000000e+000
67048970.000	-4.794955e-001	1.119016e+002	-6.555324e+001	-1.285809e+002	-2.000000e+002	0.000000e+000	-2.000000e+002	0.000000e+000
67698960.000	-4.830944e-001	1.094855e+002	-6.545544e+001	-1.310257e+002	-2.000000e+002	0.000000e+000	-2.000000e+002	0.000000e+000
68348950.000	-4.841317e-001	1.070689e+002	-6.467589e+001	-1.337089e+002	-2.000000e+002	0.000000e+000	-2.000000e+002	0.000000e+000
68998940.000	-4.877997e-001	1.046495e+002	-6.454752e+001	-1.358698e+002	-2.000000e+002	0.000000e+000	-2.000000e+002	0.000000e+000
69648930.000	-4.890569e-001	1.022340e+002	-6.372477e+001	-1.347635e+002	-2.000000e+002	0.000000e+000	-2.000000e+002	0.000000e+000
70298920.000	-4.905685e-001	9.981518e+001	-6.294909e+001	-1.342444e+002	-2.000000e+002	0.000000e+000	-2.000000e+002	0.000000e+000
70948910.000	-4.932618e-001	9.740737e+001	-6.239456e+001	-1.374919e+002	-2.000000e+002	0.000000e+000	-2.000000e+002	0.000000e+000
71598900.000	-4.944036e-001	9.500124e+001	-6.195831e+001	-1.407853e+002	-2.000000e+002	0.000000e+000	-2.000000e+002	0.000000e+000
72248890.000	-4.970126e-001	9.259344e+001	-6.122723e+001	-1.391192e+002	-2.000000e+002	0.000000e+000	-2.000000e+002	0.000000e+000
72898880.000	-4.988258e-001	9.019375e+001	-6.074150e+001	-1.421862e+002	-2.000000e+002	0.000000e+000	-2.000000e+002	0.000000e+000
73548870.000	-5.002345e-001	8.779399e+001	-6.001225e+001	-1.455565e+002	-2.000000e+002	0.000000e+000	-2.000000e+002	0.000000e+000
74198860.000	-5.016304e-001	8.540004e+001	-5.944221e+001	-1.476227e+002	-2.000000e+002	0.000000e+000	-2.000000e+002	0.000000e+000
74848850.000	-5.025642e-001	8.301182e+001	-5.879494e+001	-1.511092e+002	-2.000000e+002	0.000000e+000	-2.000000e+002	0.000000e+000
75498840.000	-5.031181e-001	8.061908e+001	-5.808623e+001	-1.544842e+002	-2.000000e+002	0.000000e+000	-2.000000e+002	0.000000e+000
76148830.000	-5.030645e-001	7.823450e+001	-5.779996e+001	-1.582527e+002	-2.000000e+002	0.000000e+000	-2.000000e+002	0.000000e+000
76798820.000	-5.024807e-001	7.584894e+001	-5.745191e+001	-1.621787e+002	-2.000000e+002	0.000000e+000	-2.000000e+002	0.000000e+000
77448810.000	-5.039223e-001	7.347299e+001	-5.733543e+001	-1.665248e+002	-2.000000e+002	0.000000e+000	-2.000000e+002	0.000000e+000
78098800.000	-5.036971e-001	7.109046e+001	-5.717434e+001	-1.696119e+002	-2.000000e+002	0.000000e+000	-2.000000e+002	0.000000e+000
78748790.000	-5.029290e-001	6.870891e+001	-5.679614e+001	-1.725488e+002	-2.000000e+002	0.000000e+000	-2.000000e+002	0.000000e+000
79398780.000	-5.011801e-001	6.633064e+001	-5.686648e+001	-1.760713e+002	-2.000000e+002	0.000000e+000	-2.000000e+002	0.000000e+000
80048770.000	-4.993347e-001	6.394836e+001	-5.673137e+001	-1.789045e+002	-2.000000e+002	0.000000e+000	-2.000000e+002	0.000000e+000
80698760.000	-4.978997e-001	6.156750e+001	-5.680642e+001	1.783373e+002	-2.000000e+002	0.000000e+000	-2.000000e+002	0.000000e+000
81348750.000	-4.970490e-001	5.918980e+001	-5.664227e+001	1.770055e+002	-2.000000e+002	0.000000e+000	-2.000000e+002	0.000000e+000
81998740.000	-4.962850e-001	5.681563e+001	-5.658750e+001	1.753412e+002	-2.000000e+002	0.000000e+000	-2.000000e+002	0.000000e+000
82648730.000	-4.967182e-001	5.445287e+001	-5.644222e+001	1.738888e+002	-2.000000e+002	0.000000e+000	-2.000000e+002	0.000000e+000
83298720.000	-4.961984e-001	5.208465e+001	-5.646496e+001	1.724822e+002	-2.000000e+002	0.000000e+000	-2.000000e+002	0.000000e+000
83948710.000	-4.944564e-001	4.971507e+001	-5.627313e+001	1.720249e+002	-2.000000e+002	0.000000e+000	-2.000000e+002	0.000000e+000
84598700.000	-4.931275e-001	4.734824e+001	-5.608485e+001	1.710952e+002	-2.000000e+002	0.000000e+000	-2.000000e+002	0.000000e+000
85248690.000	-4.923194e-001	4.498336e+001	-5.568954e+001	1.705925e+002	-2.000000e+002	0.000000e+000	-2.000000e+002	0.000000e+000
85898680.000	-4.908140e-001	4.262366e+001	-5.552259e+001	1.687786e+002	-2.000000e+002	0.000000e+000	-2.000000e+002	0.000000e+000
86548670.000	-4.887095e-001	4.026865e+001	-5.506913e+001	1.664557e+002	-2.000000e+002	0.000000e+000	-2.000000e+002	0.000000e+000
87198660.000	-4.868542e-001	3.791409e+001	-5.478724e+001	1.641241e+002	-2.000000e+002	0.000000e+000	-2.000000e+002	0.000000e+000
87848650.000	-4.845864e-001	3.556479e+001	-5.452437e+001	1.617621e+002	-2.000000e+002	0.000000e+000	-2.000000e+002	0.000000e+000
88498640.000	-4.817542e-001	3.321172e+001	-5.440119e+001	1.584877e+002	-2.000000e+002	0.000000e+000	-2.000000e+002	0.000000e+000
89148630.000	-4.794709e-001	3.086426e+001	-5.442536e+001	1.560352e+002	-2.000000e+002	0.000000e+000	-2.000000e+002	0.000000e+000
89798620.000	-4.761856e-001	2.851092e+001	-5.445579e+001	1.537950e+002	-2.000000e+002	0.000000e+000	-2.000000e+002	0.000000e+000
90448610.000	-4.738755e-001	2.615908e+001	-5.446477e+001	1.539441e+002	-2.000000e+002	0.000000e+000	-2.000000e+002	0.000000e+000
91098600.000	-4.718923e-001	2.379816e+001	-5.436410e+001	1.533477e+002	-2.000000e+002	0.000000e+000	-2.000000e+002	0.000000e+000
91748590.000	-4.699320e-001	2.144805e+001	-5.434315e+001	1.538008e+002	-2.000000e+002	0.000000e+000	-2.000000e+002	0.000000e+000
92398580.000	-4.666394e-001	1.909782e+001	-5.392945e+001	1.538920e+002	-2.000000e+002	0.000000e+000	-2.000000e+002	0.000000e+000
93048570.000	-4.654918e-001	1.673871e+001	-5.358234e+001	1.537871e+002	-2.000000e+002	0.000000e+000	-2.000000e+002	0.000000e+000
93698560.000	-4.629519e-001	1.439535e+001	-5.330663e+001	1.539999e+002	-2.000000e+002	0.000000e+000	-2.000000e+002	0.000000e+000
94348550.000	-4.610854e-001	1.204720e+001	-5.287667e+001	1.537930e+002	-2.000000e+002	0.000000e+000	-2.000000e+002	0.000000e+000
94998540.000	-4.598555e-001	9.703556e+000	-5.214993e+001	1.539183e+002	-2.000000e+002	0.000000e+000	-2.000000e+002	0.000000e+000
95648530.000	-4.579395e-001	7.363670e+000	-5.186491e+001	1.530545e+002	-2.000000e+002	0.000000e+000	-2.000000e+002	0.000000e+000
96298520.000	-4.565942e-001	5.020639e+000	-5.113309e+001	1.524156e+002	-2.000000e+002	0.000000e+000	-2.000000e+002	0.000000e+000
96948510.000	-4.561673e-001	2.692206e+000	-5.028844e+001	1.507761e+002	-2.000000e+002	0.000000e+000	-2.000000e+002	0.000000e+000
97598500.000	-4.557869e-001	3.654295e-001	-4.939837e+001	1.474629e+002	-2.000000e+002	0.000000e+000	-2.000000e+002	0.000000e+000
98248490.000	-4.539041e-001	-1.953348e+000	-4.865377e+001	1.427686e+002	-2.000000e+002	0.000000e+000	-2.000000e+002	0.000000e+000
