!Keysight Technologies,E5063A,MY54503115,A.05.08
!Date: Sun Feb 04 18:57:26 2024
!Data & Calibration Information:
!Freq	S11:NONE(--)	S21:NONE(--)	S12:NONE(--)	S22:NONE(--)
# Hz S dB R 50
100000.000	4.828621e-002	-8.194081e-001	-8.577932e+001	1.059269e+002	-2.000000e+002	0.000000e+000	-2.000000e+002	0.000000e+000
749990.000	8.341282e-003	-3.056541e+000	-9.081522e+001	1.340361e+002	-2.000000e+002	0.000000e+000	-2.000000e+002	0.000000e+000
1399980.000	1.090434e-002	-5.375338e+000	-9.526903e+001	-1.131940e+002	-2.000000e+002	0.000000e+000	-2.000000e+002	0.000000e+000
2049970.000	1.044143e-002	-7.696226e+000	-7.639004e+001	1.146639e+002	-2.000000e+002	0.000000e+000	-2.000000e+002	0.000000e+000
2699960.000	1.123485e-002	-1.002672e+001	-8.098028e+001	9.685197e+001	-2.000000e+002	0.000000e+000	-2.000000e+002	0.000000e+000
3349950.000	1.465184e-002	-1.236908e+001	-7.981432e+001	9.287705e+001	-2.000000e+002	0.000000e+000	-2.000000e+002	0.000000e+000
3999940.000	1.386465e-002	-1.470213e+001	-7.672730e+001	8.416503e+001	-2.000000e+002	0.000000e+000	-2.000000e+002	0.000000e+000
4649930.000	1.672548e-002	-1.703547e+001	-7.281879e+001	7.268185e+001	-2.000000e+002	0.000000e+000	-2.000000e+002	0.000000e+000
5299920.000	1.418678e-002	-1.937816e+001	-7.496186e+001	9.204410e+001	-2.000000e+002	0.000000e+000	-2.000000e+002	0.000000e+000
5949910.000	1.345764e-002	-2.172121e+001	-7.435418e+001	8.942718e+001	-2.000000e+002	0.000000e+000	-2.000000e+002	0.000000e+000
6599900.000	1.362024e-002	-2.405394e+001	-7.337614e+001	5.999591e+001	-2.000000e+002	0.000000e+000	-2.000000e+002	0.000000e+000
7249890.000	1.384888e-002	-2.639951e+001	-7.014888e+001	6.073362e+001	-2.000000e+002	0.000000e+000	-2.000000e+002	0.000000e+000
7899880.000	1.370254e-002	-2.874052e+001	-7.156908e+001	6.665595e+001	-2.000000e+002	0.000000e+000	-2.000000e+002	0.000000e+000
8549870.000	1.827883e-002	-3.109216e+001	-6.964622e+001	6.813755e+001	-2.000000e+002	0.000000e+000	-2.000000e+002	0.000000e+000
9199860.000	1.709087e-002	-3.343556e+001	-6.919963e+001	6.365969e+001	-2.000000e+002	0.000000e+000	-2.000000e+002	0.000000e+000
9849850.000	1.614892e-002	-3.578324e+001	-6.883507e+001	6.326777e+001	-2.000000e+002	0.000000e+000	-2.000000e+002	0.000000e+000
10499840.000	1.298138e-002	-3.812196e+001	-6.830947e+001	5.869032e+001	-2.000000e+002	0.000000e+000	-2.000000e+002	0.000000e+000
11149830.000	1.039260e-002	-4.047059e+001	-6.837478e+001	5.823788e+001	-2.000000e+002	0.000000e+000	-2.000000e+002	0.000000e+000
11799820.000	8.676172e-003	-4.281297e+001	-6.725185e+001	5.697587e+001	-2.000000e+002	0.000000e+000	-2.000000e+002	0.000000e+000
12449810.000	9.047163e-003	-4.516910e+001	-6.689668e+001	5.803464e+001	-2.000000e+002	0.000000e+000	-2.000000e+002	0.000000e+000
13099800.000	9.572894e-003	-4.752305e+001	-6.621275e+001	5.022505e+001	-2.000000e+002	0.000000e+000	-2.000000e+002	0.000000e+000
13749790.000	7.282962e-003	-4.986824e+001	-6.554933e+001	4.533064e+001	-2.000000e+002	0.000000e+000	-2.000000e+002	0.000000e+000
14399780.000	4.479018e-003	-5.222834e+001	-6.505339e+001	4.508741e+001	-2.000000e+002	0.000000e+000	-2.000000e+002	0.000000e+000
15049770.000	4.304668e-003	-5.458410e+001	-6.454650e+001	4.540177e+001	-2.000000e+002	0.000000e+000	-2.000000e+002	0.000000e+000
15699760.000	2.820181e-003	-5.693041e+001	-6.455221e+001	4.276016e+001	-2.000000e+002	0.000000e+000	-2.000000e+002	0.000000e+000
16349750.000	2.016115e-003	-5.928468e+001	-6.383315e+001	4.296746e+001	-2.000000e+002	0.000000e+000	-2.000000e+002	0.000000e+000
16999740.000	-8.545523e-004	-6.166122e+001	-6.319946e+001	4.151986e+001	-2.000000e+002	0.000000e+000	-2.000000e+002	0.000000e+000
17649730.000	3.139067e-003	-6.403287e+001	-6.263186e+001	4.021379e+001	-2.000000e+002	0.000000e+000	-2.000000e+002	0.000000e+000
18299720.000	4.208719e-003	-6.641151e+001	-6.174805e+001	3.830514e+001	-2.000000e+002	0.000000e+000	-2.000000e+002	0.000000e+000
18949710.000	1.349581e-003	-6.878512e+001	-6.139653e+001	3.119041e+001	-2.000000e+002	0.000000e+000	-2.000000e+002	0.000000e+000
19599700.000	-6.703111e-003	-7.116037e+001	-6.112384e+001	2.767193e+001	-2.000000e+002	0.000000e+000	-2.000000e+002	0.000000e+000
20249690.000	-1.361200e-002	-7.354239e+001	-6.086159e+001	2.482267e+001	-2.000000e+002	0.000000e+000	-2.000000e+002	0.000000e+000
20899680.000	-1.739618e-002	-7.594744e+001	-6.062287e+001	2.068032e+001	-2.000000e+002	0.000000e+000	-2.000000e+002	0.000000e+000
21549670.000	-2.174455e-002	-7.834054e+001	-6.041190e+001	1.965543e+001	-2.000000e+002	0.000000e+000	-2.000000e+002	0.000000e+000
22199660.000	-2.700057e-002	-8.071895e+001	-6.022989e+001	1.847592e+001	-2.000000e+002	0.000000e+000	-2.000000e+002	0.000000e+000
22849650.000	-3.154186e-002	-8.308327e+001	-6.026049e+001	1.738360e+001	-2.000000e+002	0.000000e+000	-2.000000e+002	0.000000e+000
23499640.000	-3.772847e-002	-8.547287e+001	-5.976024e+001	1.622598e+001	-2.000000e+002	0.000000e+000	-2.000000e+002	0.000000e+000
24149630.000	-4.477493e-002	-8.787376e+001	-5.914937e+001	1.581178e+001	-2.000000e+002	0.000000e+000	-2.000000e+002	0.000000e+000
24799620.000	-5.088208e-002	-9.026365e+001	-5.855250e+001	1.384667e+001	-2.000000e+002	0.000000e+000	-2.000000e+002	0.000000e+000
25449610.000	-5.530308e-002	-9.264810e+001	-5.804553e+001	1.109622e+001	-2.000000e+002	0.000000e+000	-2.000000e+002	0.000000e+000
26099600.000	-6.179838e-002	-9.504043e+001	-5.744676e+001	7.278557e+000	-2.000000e+002	0.000000e+000	-2.000000e+002	0.000000e+000
26749590.000	-6.793463e-002	-9.744381e+001	-5.702497e+001	4.742234e+000	-2.000000e+002	0.000000e+000	-2.000000e+002	0.000000e+000
27399580.000	-7.519134e-002	-9.984502e+001	-5.660864e+001	2.976834e+000	-2.000000e+002	0.000000e+000	-2.000000e+002	0.000000e+000
28049570.000	-8.110102e-002	-1.022496e+002	-5.624382e+001	-8.759551e-001	-2.000000e+002	0.000000e+000	-2.000000e+002	0.000000e+000
28699560.000	-8.812264e-002	-1.046533e+002	-5.572501e+001	-3.660235e+000	-2.000000e+002	0.000000e+000	-2.000000e+002	0.000000e+000
29349550.000	-9.520850e-002	-1.070605e+002	-5.583893e+001	-6.879531e+000	-2.000000e+002	0.000000e+000	-2.000000e+002	0.000000e+000
29999540.000	-1.020306e-001	-1.094741e+002	-5.538504e+001	-9.781014e+000	-2.000000e+002	0.000000e+000	-2.000000e+002	0.000000e+000
30649530.000	-1.097600e-001	-1.118970e+002	-5.505876e+001	-1.234808e+001	-2.000000e+002	0.000000e+000	-2.000000e+002	0.000000e+000
31299520.000	-1.164143e-001	-1.143191e+002	-5.487363e+001	-1.422674e+001	-2.000000e+002	0.000000e+000	-2.000000e+002	0.000000e+000
31949510.000	-1.246269e-001	-1.167476e+002	-5.471755e+001	-1.616616e+001	-2.000000e+002	0.000000e+000	-2.000000e+002	0.000000e+000
32599500.000	-1.336549e-001	-1.191811e+002	-5.453512e+001	-1.622363e+001	-2.000000e+002	0.000000e+000	-2.000000e+002	0.000000e+000
33249490.000	-1.426780e-001	-1.216117e+002	-5.421415e+001	-1.379104e+001	-2.000000e+002	0.000000e+000	-2.000000e+002	0.000000e+000
33899480.000	-1.536325e-001	-1.240454e+002	-5.338910e+001	-1.077965e+001	-2.000000e+002	0.000000e+000	-2.000000e+002	0.000000e+000
34549470.000	-1.650035e-001	-1.264715e+002	-5.207128e+001	-8.438417e+000	-2.000000e+002	0.000000e+000	-2.000000e+002	0.000000e+000
35199460.000	-1.771318e-001	-1.288820e+002	-5.007448e+001	-9.411132e+000	-2.000000e+002	0.000000e+000	-2.000000e+002	0.000000e+000
35849450.000	-1.848078e-001	-1.312894e+002	-4.843528e+001	-1.863410e+001	-2.000000e+002	0.000000e+000	-2.000000e+002	0.000000e+000
36499440.000	-1.898321e-001	-1.337151e+002	-4.747588e+001	-2.815570e+001	-2.000000e+002	0.000000e+000	-2.000000e+002	0.000000e+000
37149430.000	-1.955118e-001	-1.361629e+002	-4.696062e+001	-3.617978e+001	-2.000000e+002	0.000000e+000	-2.000000e+002	0.000000e+000
37799420.000	-2.021750e-001	-1.386249e+002	-4.650151e+001	-4.247550e+001	-2.000000e+002	0.000000e+000	-2.000000e+002	0.000000e+000
38449410.000	-2.098700e-001	-1.410924e+002	-4.594450e+001	-4.739096e+001	-2.000000e+002	0.000000e+000	-2.000000e+002	0.000000e+000
39099400.000	-2.188424e-001	-1.435677e+002	-4.542980e+001	-5.189213e+001	-2.000000e+002	0.000000e+000	-2.000000e+002	0.000000e+000
39749390.000	-2.282857e-001	-1.460547e+002	-4.465880e+001	-5.558657e+001	-2.000000e+002	0.000000e+000	-2.000000e+002	0.000000e+000
40399380.000	-2.384947e-001	-1.485480e+002	-4.375048e+001	-5.928883e+001	-2.000000e+002	0.000000e+000	-2.000000e+002	0.000000e+000
41049370.000	-2.502457e-001	-1.510607e+002	-4.263282e+001	-6.327801e+001	-2.000000e+002	0.000000e+000	-2.000000e+002	0.000000e+000
41699360.000	-2.642068e-001	-1.535963e+002	-4.125143e+001	-6.814322e+001	-2.000000e+002	0.000000e+000	-2.000000e+002	0.000000e+000
42349350.000	-2.819634e-001	-1.561704e+002	-3.950143e+001	-7.350165e+001	-2.000000e+002	0.000000e+000	-2.000000e+002	0.000000e+000
42999340.000	-3.085498e-001	-1.588051e+002	-3.724907e+001	-8.036532e+001	-2.000000e+002	0.000000e+000	-2.000000e+002	0.000000e+000
43649330.000	-3.600839e-001	-1.615580e+002	-3.418141e+001	-9.120083e+001	-2.000000e+002	0.000000e+000	-2.000000e+002	0.000000e+000
44299320.000	-5.057049e-001	-1.643724e+002	-2.999303e+001	-1.129082e+002	-2.000000e+002	0.000000e+000	-2.000000e+002	0.000000e+000
44949310.000	-7.756336e-001	-1.651347e+002	-2.664102e+001	-1.654604e+002	-2.000000e+002	0.000000e+000	-2.000000e+002	0.000000e+000
45599300.000	-5.025523e-001	-1.660977e+002	-3.031847e+001	1.421540e+002	-2.000000e+002	0.000000e+000	-2.000000e+002	0.000000e+000
46249290.000	-3.819993e-001	-1.689698e+002	-3.486680e+001	1.196623e+002	-2.000000e+002	0.000000e+000	-2.000000e+002	0.000000e+000
46899280.000	-3.511917e-001	-1.717281e+002	-3.831522e+001	1.077988e+002	-2.000000e+002	0.000000e+000	-2.000000e+002	0.000000e+000
47549270.000	-3.433094e-001	-1.743667e+002	-4.103470e+001	9.972524e+001	-2.000000e+002	0.000000e+000	-2.000000e+002	0.000000e+000
48199260.000	-3.424865e-001	-1.769378e+002	-4.330181e+001	9.345654e+001	-2.000000e+002	0.000000e+000	-2.000000e+002	0.000000e+000
48849250.000	-3.454912e-001	-1.794710e+002	-4.522988e+001	8.794390e+001	-2.000000e+002	0.000000e+000	-2.000000e+002	0.000000e+000
49499240.000	-3.498696e-001	1.780149e+002	-4.695695e+001	8.265537e+001	-2.000000e+002	0.000000e+000	-2.000000e+002	0.000000e+000
50149230.000	-3.547242e-001	1.755182e+002	-4.858273e+001	7.835760e+001	-2.000000e+002	0.000000e+000	-2.000000e+002	0.000000e+000
50799220.000	-3.601725e-001	1.730307e+002	-4.997884e+001	7.423610e+001	-2.000000e+002	0.000000e+000	-2.000000e+002	0.000000e+000
51449210.000	-3.661127e-001	1.705467e+002	-5.116694e+001	6.986982e+001	-2.000000e+002	0.000000e+000	-2.000000e+002	0.000000e+000
52099200.000	-3.717469e-001	1.680730e+002	-5.225677e+001	6.552926e+001	-2.000000e+002	0.000000e+000	-2.000000e+002	0.000000e+000
52749190.000	-3.775406e-001	1.656043e+002	-5.342840e+001	5.973064e+001	-2.000000e+002	0.000000e+000	-2.000000e+002	0.000000e+000
53399180.000	-3.830957e-001	1.631380e+002	-5.449062e+001	5.377070e+001	-2.000000e+002	0.000000e+000	-2.000000e+002	0.000000e+000
54049170.000	-3.891463e-001	1.606733e+002	-5.554735e+001	4.944431e+001	-2.000000e+002	0.000000e+000	-2.000000e+002	0.000000e+000
54699160.000	-3.944322e-001	1.582088e+002	-5.643965e+001	4.425089e+001	-2.000000e+002	0.000000e+000	-2.000000e+002	0.000000e+000
55349150.000	-4.002732e-001	1.557487e+002	-5.749201e+001	3.962588e+001	-2.000000e+002	0.000000e+000	-2.000000e+002	0.000000e+000
55999140.000	-4.062477e-001	1.532894e+002	-5.797811e+001	3.202903e+001	-2.000000e+002	0.000000e+000	-2.000000e+002	0.000000e+000
56649130.000	-4.118947e-001	1.508356e+002	-5.892180e+001	2.845175e+001	-2.000000e+002	0.000000e+000	-2.000000e+002	0.000000e+000
57299120.000	-4.174496e-001	1.483813e+002	-5.948422e+001	2.099758e+001	-2.000000e+002	0.000000e+000	-2.000000e+002	0.000000e+000
57949110.000	-4.229010e-001	1.459310e+002	-5.941674e+001	1.426563e+001	-2.000000e+002	0.000000e+000	-2.000000e+002	0.000000e+000
58599100.000	-4.279680e-001	1.434810e+002	-5.934432e+001	5.694118e+000	-2.000000e+002	0.000000e+000	-2.000000e+002	0.000000e+000
59249090.000	-4.340387e-001	1.410398e+002	-5.861065e+001	-4.965931e+000	-2.000000e+002	0.000000e+000	-2.000000e+002	0.000000e+000
59899080.000	-4.392746e-001	1.385952e+002	-5.799133e+001	-1.741386e+001	-2.000000e+002	0.000000e+000	-2.000000e+002	0.000000e+000
60549070.000	-4.452238e-001	1.361645e+002	-5.745635e+001	-3.459483e+001	-2.000000e+002	0.000000e+000	-2.000000e+002	0.000000e+000
61199060.000	-4.494113e-001	1.337413e+002	-5.759003e+001	-5.322291e+001	-2.000000e+002	0.000000e+000	-2.000000e+002	0.000000e+000
61849050.000	-4.523812e-001	1.313104e+002	-5.837104e+001	-6.870678e+001	-2.000000e+002	0.000000e+000	-2.000000e+002	0.000000e+000
62499040.000	-4.552969e-001	1.288803e+002	-5.936519e+001	-8.137002e+001	-2.000000e+002	0.000000e+000	-2.000000e+002	0.000000e+000
63149030.000	-4.583063e-001	1.264455e+002	-5.967448e+001	-8.996420e+001	-2.000000e+002	0.000000e+000	-2.000000e+002	0.000000e+000
63799020.000	-4.615775e-001	1.240140e+002	-6.065803e+001	-9.601529e+001	-2.000000e+002	0.000000e+000	-2.000000e+002	0.000000e+000
64449010.000	-4.652232e-001	1.215856e+002	-6.103960e+001	-1.014260e+002	-2.000000e+002	0.000000e+000	-2.000000e+002	0.000000e+000
65099000.000	-4.677696e-001	1.191569e+002	-6.126020e+001	-1.078618e+002	-2.000000e+002	0.000000e+000	-2.000000e+002	0.000000e+000
65748990.000	-4.704593e-001	1.167251e+002	-6.127659e+001	-1.125423e+002	-2.000000e+002	0.000000e+000	-2.000000e+002	0.000000e+000
66398980.000	-4.732131e-001	1.143029e+002	-6.152249e+001	-1.120010e+002	-2.000000e+002	0.000000e+000	-2.000000e+002	0.000000e+000
67048970.000	-4.761065e-001	1.118796e+002	-6.151409e+001	-1.171831e+002	-2.000000e+002	0.000000e+000	-2.000000e+002	0.000000e+000
67698960.000	-4.788978e-001	1.094608e+002	-6.160145e+001	-1.172185e+002	-2.000000e+002	0.000000e+000	-2.000000e+002	0.000000e+000
68348950.000	-4.803265e-001	1.070454e+002	-6.128082e+001	-1.199720e+002	-2.000000e+002	0.000000e+000	-2.000000e+002	0.000000e+000
68998940.000	-4.834486e-001	1.046292e+002	-6.105973e+001	-1.228936e+002	-2.000000e+002	0.000000e+000	-2.000000e+002	0.000000e+000
69648930.000	-4.859475e-001	1.022146e+002	-6.086819e+001	-1.223535e+002	-2.000000e+002	0.000000e+000	-2.000000e+002	0.000000e+000
70298920.000	-4.868827e-001	9.979406e+001	-6.036744e+001	-1.255304e+002	-2.000000e+002	0.000000e+000	-2.000000e+002	0.000000e+000
70948910.000	-4.893946e-001	9.738600e+001	-6.024974e+001	-1.264554e+002	-2.000000e+002	0.000000e+000	-2.000000e+002	0.000000e+000
71598900.000	-4.910518e-001	9.497727e+001	-5.993401e+001	-1.276557e+002	-2.000000e+002	0.000000e+000	-2.000000e+002	0.000000e+000
72248890.000	-4.934553e-001	9.257579e+001	-5.932709e+001	-1.304568e+002	-2.000000e+002	0.000000e+000	-2.000000e+002	0.000000e+000
72898880.000	-4.945733e-001	9.017443e+001	-5.904425e+001	-1.322928e+002	-2.000000e+002	0.000000e+000	-2.000000e+002	0.000000e+000
73548870.000	-4.967134e-001	8.777815e+001	-5.852225e+001	-1.350574e+002	-2.000000e+002	0.000000e+000	-2.000000e+002	0.000000e+000
74198860.000	-4.971320e-001	8.538346e+001	-5.815742e+001	-1.388197e+002	-2.000000e+002	0.000000e+000	-2.000000e+002	0.000000e+000
74848850.000	-4.986030e-001	8.299841e+001	-5.783067e+001	-1.413885e+002	-2.000000e+002	0.000000e+000	-2.000000e+002	0.000000e+000
75498840.000	-4.988713e-001	8.060669e+001	-5.736905e+001	-1.454259e+002	-2.000000e+002	0.000000e+000	-2.000000e+002	0.000000e+000
76148830.000	-4.993064e-001	7.821987e+001	-5.702620e+001	-1.487780e+002	-2.000000e+002	0.000000e+000	-2.000000e+002	0.000000e+000
76798820.000	-4.977438e-001	7.583159e+001	-5.677510e+001	-1.528553e+002	-2.000000e+002	0.000000e+000	-2.000000e+002	0.000000e+000
77448810.000	-4.997069e-001	7.345976e+001	-5.650541e+001	-1.555599e+002	-2.000000e+002	0.000000e+000	-2.000000e+002	0.000000e+000
78098800.000	-4.998038e-001	7.107952e+001	-5.624256e+001	-1.594188e+002	-2.000000e+002	0.000000e+000	-2.000000e+002	0.000000e+000
78748790.000	-4.984436e-001	6.870426e+001	-5.592437e+001	-1.632454e+002	-2.000000e+002	0.000000e+000	-2.000000e+002	0.000000e+000
79398780.000	-4.965840e-001	6.632274e+001	-5.588560e+001	-1.673636e+002	-2.000000e+002	0.000000e+000	-2.000000e+002	0.000000e+000
80048770.000	-4.946939e-001	6.393700e+001	-5.595305e+001	-1.711015e+002	-2.000000e+002	0.000000e+000	-2.000000e+002	0.000000e+000
80698760.000	-4.935588e-001	6.156226e+001	-5.583800e+001	-1.737805e+002	-2.000000e+002	0.000000e+000	-2.000000e+002	0.000000e+000
81348750.000	-4.923294e-001	5.918525e+001	-5.582726e+001	-1.764194e+002	-2.000000e+002	0.000000e+000	-2.000000e+002	0.000000e+000
81998740.000	-4.910848e-001	5.681036e+001	-5.589054e+001	-1.792141e+002	-2.000000e+002	0.000000e+000	-2.000000e+002	0.000000e+000
82648730.000	-4.909758e-001	5.445617e+001	-5.576446e+001	1.788001e+002	-2.000000e+002	0.000000e+000	-2.000000e+002	0.000000e+000
83298720.000	-4.892599e-001	5.208792e+001	-5.569436e+001	1.768011e+002	-2.000000e+002	0.000000e+000	-2.000000e+002	0.000000e+000
83948710.000	-4.876812e-001	4.971666e+001	-5.568326e+001	1.750708e+002	-2.000000e+002	0.000000e+000	-2.000000e+002	0.000000e+000
84598700.000	-4.859747e-001	4.734716e+001	-5.555563e+001	1.736193e+002	-2.000000e+002	0.000000e+000	-2.000000e+002	0.000000e+000
85248690.000	-4.845936e-001	4.498171e+001	-5.548411e+001	1.713049e+002	-2.000000e+002	0.000000e+000	-2.000000e+002	0.000000e+000
85898680.000	-4.823277e-001	4.262276e+001	-5.542555e+001	1.692825e+002	-2.000000e+002	0.000000e+000	-2.000000e+002	0.000000e+000
86548670.000	-4.804714e-001	4.026127e+001	-5.522600e+001	1.684705e+002	-2.000000e+002	0.000000e+000	-2.000000e+002	0.000000e+000
87198660.000	-4.782358e-001	3.790751e+001	-5.512338e+001	1.667628e+002	-2.000000e+002	0.000000e+000	-2.000000e+002	0.000000e+000
87848650.000	-4.760734e-001	3.555335e+001	-5.498489e+001	1.648737e+002	-2.000000e+002	0.000000e+000	-2.000000e+002	0.000000e+000
88498640.000	-4.737414e-001	3.320329e+001	-5.489972e+001	1.638174e+002	-2.000000e+002	0.000000e+000	-2.000000e+002	0.000000e+000
89148630.000	-4.727023e-001	3.085079e+001	-5.469621e+001	1.630649e+002	-2.000000e+002	0.000000e+000	-2.000000e+002	0.000000e+000
89798620.000	-4.699970e-001	2.849598e+001	-5.450460e+001	1.619778e+002	-2.000000e+002	0.000000e+000	-2.000000e+002	0.000000e+000
90448610.000	-4.677012e-001	2.614546e+001	-5.413371e+001	1.605444e+002	-2.000000e+002	0.000000e+000	-2.000000e+002	0.000000e+000
91098600.000	-4.659650e-001	2.379922e+001	-5.377211e+001	1.584008e+002	-2.000000e+002	0.000000e+000	-2.000000e+002	0.000000e+000
91748590.000	-4.632698e-001	2.144640e+001	-5.341737e+001	1.560722e+002	-2.000000e+002	0.000000e+000	-2.000000e+002	0.000000e+000
92398580.000	-4.609888e-001	1.910056e+001	-5.314500e+001	1.538487e+002	-2.000000e+002	0.000000e+000	-2.000000e+002	0.000000e+000
93048570.000	-4.578982e-001	1.675183e+001	-5.302013e+001	1.513689e+002	-2.000000e+002	0.000000e+000	-2.000000e+002	0.000000e+000
93698560.000	-4.555891e-001	1.440532e+001	-5.267039e+001	1.492217e+002	-2.000000e+002	0.000000e+000	-2.000000e+002	0.000000e+000
94348550.000	-4.530681e-001	1.206358e+001	-5.244115e+001	1.468307e+002	-2.000000e+002	0.000000e+000	-2.000000e+002	0.000000e+000
94998540.000	-4.515178e-001	9.721432e+000	-5.213127e+001	1.450084e+002	-2.000000e+002	0.000000e+000	-2.000000e+002	0.000000e+000
95648530.000	-4.484105e-001	7.379175e+000	-5.205339e+001	1.422996e+002	-2.000000e+002	0.000000e+000	-2.000000e+002	0.000000e+000
96298520.000	-4.459469e-001	5.042959e+000	-5.185118e+001	1.405244e+002	-2.000000e+002	0.000000e+000	-2.000000e+002	0.000000e+000
96948510.000	-4.446775e-001	2.702990e+000	-5.153436e+001	1.387924e+002	-2.000000e+002	0.000000e+000	-2.000000e+002	0.000000e+000
97598500.000	-4.425233e-001	3.731820e-001	-5.105631e+001	1.365790e+002	-2.000000e+002	0.000000e+000	-2.000000e+002	0.000000e+000
98248490.000	-4.390506e-001	-1.958616e+000	-5.070945e+001	1.330546e+002	-2.000000e+002	0.000000e+000	-2.000000e+002	0.000000e+000
