!Keysight Technologies,E5063A,MY54503115,A.05.08
!Date: Sun Feb 04 18:45:52 2024
!Data & Calibration Information:
!Freq	S11:NONE(--)	S21:NONE(--)	S12:NONE(--)	S22:NONE(--)
# Hz S dB R 50
100000.000	4.595271e-002	-8.066670e-001	-9.239331e+001	-1.141721e+002	-2.000000e+002	0.000000e+000	-2.000000e+002	0.000000e+000
749990.000	9.679668e-003	-3.055307e+000	-9.657334e+001	-7.097538e+001	-2.000000e+002	0.000000e+000	-2.000000e+002	0.000000e+000
1399980.000	1.081819e-002	-5.371721e+000	-8.762182e+001	1.177066e+002	-2.000000e+002	0.000000e+000	-2.000000e+002	0.000000e+000
2049970.000	1.075139e-002	-7.684722e+000	-7.512755e+001	1.134178e+002	-2.000000e+002	0.000000e+000	-2.000000e+002	0.000000e+000
2699960.000	1.143653e-002	-1.001709e+001	-7.972695e+001	4.686374e+001	-2.000000e+002	0.000000e+000	-2.000000e+002	0.000000e+000
3349950.000	1.521786e-002	-1.235417e+001	-7.995276e+001	8.488473e+001	-2.000000e+002	0.000000e+000	-2.000000e+002	0.000000e+000
3999940.000	1.415342e-002	-1.468729e+001	-7.514561e+001	7.163718e+001	-2.000000e+002	0.000000e+000	-2.000000e+002	0.000000e+000
4649930.000	1.643558e-002	-1.702772e+001	-7.464696e+001	7.024626e+001	-2.000000e+002	0.000000e+000	-2.000000e+002	0.000000e+000
5299920.000	1.482785e-002	-1.936268e+001	-7.450477e+001	7.227263e+001	-2.000000e+002	0.000000e+000	-2.000000e+002	0.000000e+000
5949910.000	1.425942e-002	-2.170969e+001	-7.182970e+001	7.039034e+001	-2.000000e+002	0.000000e+000	-2.000000e+002	0.000000e+000
6599900.000	1.412009e-002	-2.403916e+001	-7.013987e+001	7.184795e+001	-2.000000e+002	0.000000e+000	-2.000000e+002	0.000000e+000
7249890.000	1.480476e-002	-2.637776e+001	-6.985568e+001	7.714166e+001	-2.000000e+002	0.000000e+000	-2.000000e+002	0.000000e+000
7899880.000	1.379698e-002	-2.872455e+001	-7.127773e+001	5.410996e+001	-2.000000e+002	0.000000e+000	-2.000000e+002	0.000000e+000
8549870.000	1.872740e-002	-3.107371e+001	-6.852397e+001	6.052364e+001	-2.000000e+002	0.000000e+000	-2.000000e+002	0.000000e+000
9199860.000	1.689071e-002	-3.341584e+001	-6.807463e+001	6.050437e+001	-2.000000e+002	0.000000e+000	-2.000000e+002	0.000000e+000
9849850.000	1.644395e-002	-3.575966e+001	-6.767639e+001	5.295964e+001	-2.000000e+002	0.000000e+000	-2.000000e+002	0.000000e+000
10499840.000	1.396790e-002	-3.810523e+001	-6.711844e+001	5.434333e+001	-2.000000e+002	0.000000e+000	-2.000000e+002	0.000000e+000
11149830.000	1.062261e-002	-4.044910e+001	-6.629374e+001	5.191534e+001	-2.000000e+002	0.000000e+000	-2.000000e+002	0.000000e+000
11799820.000	9.598605e-003	-4.279254e+001	-6.626459e+001	4.879056e+001	-2.000000e+002	0.000000e+000	-2.000000e+002	0.000000e+000
12449810.000	9.520091e-003	-4.514732e+001	-6.578130e+001	4.916170e+001	-2.000000e+002	0.000000e+000	-2.000000e+002	0.000000e+000
13099800.000	1.082681e-002	-4.749076e+001	-6.493515e+001	4.749978e+001	-2.000000e+002	0.000000e+000	-2.000000e+002	0.000000e+000
13749790.000	8.042931e-003	-4.983647e+001	-6.435700e+001	4.297501e+001	-2.000000e+002	0.000000e+000	-2.000000e+002	0.000000e+000
14399780.000	5.446077e-003	-5.220562e+001	-6.393903e+001	4.148206e+001	-2.000000e+002	0.000000e+000	-2.000000e+002	0.000000e+000
15049770.000	4.919005e-003	-5.455490e+001	-6.335924e+001	3.996746e+001	-2.000000e+002	0.000000e+000	-2.000000e+002	0.000000e+000
15699760.000	4.001724e-003	-5.690111e+001	-6.318507e+001	3.957112e+001	-2.000000e+002	0.000000e+000	-2.000000e+002	0.000000e+000
16349750.000	2.477013e-003	-5.925855e+001	-6.305435e+001	3.645990e+001	-2.000000e+002	0.000000e+000	-2.000000e+002	0.000000e+000
16999740.000	8.512022e-004	-6.162883e+001	-6.260558e+001	3.676938e+001	-2.000000e+002	0.000000e+000	-2.000000e+002	0.000000e+000
17649730.000	5.294153e-003	-6.400047e+001	-6.163455e+001	3.425072e+001	-2.000000e+002	0.000000e+000	-2.000000e+002	0.000000e+000
18299720.000	5.888096e-003	-6.637638e+001	-6.106774e+001	3.144780e+001	-2.000000e+002	0.000000e+000	-2.000000e+002	0.000000e+000
18949710.000	2.938353e-003	-6.874876e+001	-6.056469e+001	2.593332e+001	-2.000000e+002	0.000000e+000	-2.000000e+002	0.000000e+000
19599700.000	-5.317963e-003	-7.112556e+001	-6.020643e+001	2.274346e+001	-2.000000e+002	0.000000e+000	-2.000000e+002	0.000000e+000
20249690.000	-1.142826e-002	-7.350429e+001	-6.008373e+001	2.004453e+001	-2.000000e+002	0.000000e+000	-2.000000e+002	0.000000e+000
20899680.000	-1.563159e-002	-7.591116e+001	-5.960364e+001	1.762830e+001	-2.000000e+002	0.000000e+000	-2.000000e+002	0.000000e+000
21549670.000	-2.002275e-002	-7.830430e+001	-5.962739e+001	1.497316e+001	-2.000000e+002	0.000000e+000	-2.000000e+002	0.000000e+000
22199660.000	-2.472291e-002	-8.068105e+001	-5.935364e+001	1.372672e+001	-2.000000e+002	0.000000e+000	-2.000000e+002	0.000000e+000
22849650.000	-2.914872e-002	-8.304322e+001	-5.935600e+001	1.253627e+001	-2.000000e+002	0.000000e+000	-2.000000e+002	0.000000e+000
23499640.000	-3.587378e-002	-8.543386e+001	-5.898176e+001	1.079209e+001	-2.000000e+002	0.000000e+000	-2.000000e+002	0.000000e+000
24149630.000	-4.244001e-002	-8.783123e+001	-5.849401e+001	1.105697e+001	-2.000000e+002	0.000000e+000	-2.000000e+002	0.000000e+000
24799620.000	-4.802233e-002	-9.022127e+001	-5.789011e+001	8.719052e+000	-2.000000e+002	0.000000e+000	-2.000000e+002	0.000000e+000
25449610.000	-5.276753e-002	-9.260651e+001	-5.744960e+001	5.988378e+000	-2.000000e+002	0.000000e+000	-2.000000e+002	0.000000e+000
26099600.000	-5.873579e-002	-9.499926e+001	-5.687694e+001	3.851880e+000	-2.000000e+002	0.000000e+000	-2.000000e+002	0.000000e+000
26749590.000	-6.592965e-002	-9.739655e+001	-5.651052e+001	6.978712e-001	-2.000000e+002	0.000000e+000	-2.000000e+002	0.000000e+000
27399580.000	-7.283249e-002	-9.979923e+001	-5.614410e+001	-2.310360e+000	-2.000000e+002	0.000000e+000	-2.000000e+002	0.000000e+000
28049570.000	-7.850734e-002	-1.022006e+002	-5.587646e+001	-5.336689e+000	-2.000000e+002	0.000000e+000	-2.000000e+002	0.000000e+000
28699560.000	-8.534412e-002	-1.046014e+002	-5.554595e+001	-7.146238e+000	-2.000000e+002	0.000000e+000	-2.000000e+002	0.000000e+000
29349550.000	-9.223226e-002	-1.070089e+002	-5.507648e+001	-1.061813e+001	-2.000000e+002	0.000000e+000	-2.000000e+002	0.000000e+000
29999540.000	-9.897450e-002	-1.094216e+002	-5.485657e+001	-1.291434e+001	-2.000000e+002	0.000000e+000	-2.000000e+002	0.000000e+000
30649530.000	-1.063253e-001	-1.118402e+002	-5.459151e+001	-1.569049e+001	-2.000000e+002	0.000000e+000	-2.000000e+002	0.000000e+000
31299520.000	-1.130723e-001	-1.142601e+002	-5.446261e+001	-1.762060e+001	-2.000000e+002	0.000000e+000	-2.000000e+002	0.000000e+000
31949510.000	-1.210941e-001	-1.166869e+002	-5.418202e+001	-1.945699e+001	-2.000000e+002	0.000000e+000	-2.000000e+002	0.000000e+000
32599500.000	-1.294207e-001	-1.191156e+002	-5.404067e+001	-2.032291e+001	-2.000000e+002	0.000000e+000	-2.000000e+002	0.000000e+000
33249490.000	-1.381445e-001	-1.215454e+002	-5.383470e+001	-1.965761e+001	-2.000000e+002	0.000000e+000	-2.000000e+002	0.000000e+000
33899480.000	-1.476837e-001	-1.239785e+002	-5.325562e+001	-1.788792e+001	-2.000000e+002	0.000000e+000	-2.000000e+002	0.000000e+000
34549470.000	-1.584410e-001	-1.264048e+002	-5.239130e+001	-1.498632e+001	-2.000000e+002	0.000000e+000	-2.000000e+002	0.000000e+000
35199460.000	-1.696198e-001	-1.288261e+002	-5.076653e+001	-1.316169e+001	-2.000000e+002	0.000000e+000	-2.000000e+002	0.000000e+000
35849450.000	-1.784169e-001	-1.312347e+002	-4.886201e+001	-1.937854e+001	-2.000000e+002	0.000000e+000	-2.000000e+002	0.000000e+000
36499440.000	-1.843437e-001	-1.336588e+002	-4.772351e+001	-2.832148e+001	-2.000000e+002	0.000000e+000	-2.000000e+002	0.000000e+000
37149430.000	-1.898353e-001	-1.361043e+002	-4.719952e+001	-3.669035e+001	-2.000000e+002	0.000000e+000	-2.000000e+002	0.000000e+000
37799420.000	-1.965126e-001	-1.385619e+002	-4.678335e+001	-4.268234e+001	-2.000000e+002	0.000000e+000	-2.000000e+002	0.000000e+000
38449410.000	-2.041946e-001	-1.410194e+002	-4.639902e+001	-4.736669e+001	-2.000000e+002	0.000000e+000	-2.000000e+002	0.000000e+000
39099400.000	-2.127394e-001	-1.434884e+002	-4.581527e+001	-5.136100e+001	-2.000000e+002	0.000000e+000	-2.000000e+002	0.000000e+000
39749390.000	-2.212642e-001	-1.459630e+002	-4.518741e+001	-5.539832e+001	-2.000000e+002	0.000000e+000	-2.000000e+002	0.000000e+000
40399380.000	-2.301163e-001	-1.484501e+002	-4.437570e+001	-5.937507e+001	-2.000000e+002	0.000000e+000	-2.000000e+002	0.000000e+000
41049370.000	-2.402677e-001	-1.509455e+002	-4.344389e+001	-6.269401e+001	-2.000000e+002	0.000000e+000	-2.000000e+002	0.000000e+000
41699360.000	-2.512271e-001	-1.534559e+002	-4.224202e+001	-6.627446e+001	-2.000000e+002	0.000000e+000	-2.000000e+002	0.000000e+000
42349350.000	-2.635284e-001	-1.559986e+002	-4.084730e+001	-7.054905e+001	-2.000000e+002	0.000000e+000	-2.000000e+002	0.000000e+000
42999340.000	-2.794105e-001	-1.585782e+002	-3.899495e+001	-7.586423e+001	-2.000000e+002	0.000000e+000	-2.000000e+002	0.000000e+000
43649330.000	-3.040707e-001	-1.612441e+002	-3.661495e+001	-8.324325e+001	-2.000000e+002	0.000000e+000	-2.000000e+002	0.000000e+000
44299320.000	-3.568865e-001	-1.640625e+002	-3.339327e+001	-9.546489e+001	-2.000000e+002	0.000000e+000	-2.000000e+002	0.000000e+000
44949310.000	-5.285403e-001	-1.669454e+002	-2.906988e+001	-1.212478e+002	-2.000000e+002	0.000000e+000	-2.000000e+002	0.000000e+000
45599300.000	-7.706111e-001	-1.673141e+002	-2.697489e+001	-1.789758e+002	-2.000000e+002	0.000000e+000	-2.000000e+002	0.000000e+000
46249290.000	-5.088833e-001	-1.686451e+002	-3.136794e+001	1.360389e+002	-2.000000e+002	0.000000e+000	-2.000000e+002	0.000000e+000
46899280.000	-4.009714e-001	-1.714091e+002	-3.575531e+001	1.168537e+002	-2.000000e+002	0.000000e+000	-2.000000e+002	0.000000e+000
47549270.000	-3.671002e-001	-1.741191e+002	-3.910346e+001	1.063049e+002	-2.000000e+002	0.000000e+000	-2.000000e+002	0.000000e+000
48199260.000	-3.557102e-001	-1.767386e+002	-4.178151e+001	9.903122e+001	-2.000000e+002	0.000000e+000	-2.000000e+002	0.000000e+000
48849250.000	-3.526046e-001	-1.793020e+002	-4.398503e+001	9.309970e+001	-2.000000e+002	0.000000e+000	-2.000000e+002	0.000000e+000
49499240.000	-3.539873e-001	1.781656e+002	-4.599454e+001	8.797192e+001	-2.000000e+002	0.000000e+000	-2.000000e+002	0.000000e+000
50149230.000	-3.571600e-001	1.756560e+002	-4.774695e+001	8.358976e+001	-2.000000e+002	0.000000e+000	-2.000000e+002	0.000000e+000
50799220.000	-3.609896e-001	1.731614e+002	-4.939560e+001	7.954812e+001	-2.000000e+002	0.000000e+000	-2.000000e+002	0.000000e+000
51449210.000	-3.655860e-001	1.706692e+002	-5.089974e+001	7.532270e+001	-2.000000e+002	0.000000e+000	-2.000000e+002	0.000000e+000
52099200.000	-3.709064e-001	1.681913e+002	-5.213937e+001	7.093974e+001	-2.000000e+002	0.000000e+000	-2.000000e+002	0.000000e+000
52749190.000	-3.756455e-001	1.657202e+002	-5.342504e+001	6.609949e+001	-2.000000e+002	0.000000e+000	-2.000000e+002	0.000000e+000
53399180.000	-3.808339e-001	1.632488e+002	-5.481844e+001	6.140931e+001	-2.000000e+002	0.000000e+000	-2.000000e+002	0.000000e+000
54049170.000	-3.855896e-001	1.607810e+002	-5.616160e+001	5.698256e+001	-2.000000e+002	0.000000e+000	-2.000000e+002	0.000000e+000
54699160.000	-3.915994e-001	1.583149e+002	-5.751694e+001	5.221306e+001	-2.000000e+002	0.000000e+000	-2.000000e+002	0.000000e+000
55349150.000	-3.967275e-001	1.558512e+002	-5.856206e+001	4.714653e+001	-2.000000e+002	0.000000e+000	-2.000000e+002	0.000000e+000
55999140.000	-4.019313e-001	1.533936e+002	-5.943941e+001	4.147107e+001	-2.000000e+002	0.000000e+000	-2.000000e+002	0.000000e+000
56649130.000	-4.073909e-001	1.509369e+002	-6.065654e+001	3.616962e+001	-2.000000e+002	0.000000e+000	-2.000000e+002	0.000000e+000
57299120.000	-4.135028e-001	1.484853e+002	-6.108594e+001	2.567793e+001	-2.000000e+002	0.000000e+000	-2.000000e+002	0.000000e+000
57949110.000	-4.181647e-001	1.460306e+002	-6.131780e+001	2.066789e+001	-2.000000e+002	0.000000e+000	-2.000000e+002	0.000000e+000
58599100.000	-4.237945e-001	1.435784e+002	-6.137908e+001	1.121058e+001	-2.000000e+002	0.000000e+000	-2.000000e+002	0.000000e+000
59249090.000	-4.295895e-001	1.411374e+002	-6.063215e+001	-1.183075e+000	-2.000000e+002	0.000000e+000	-2.000000e+002	0.000000e+000
59899080.000	-4.351426e-001	1.386924e+002	-5.971678e+001	-1.512017e+001	-2.000000e+002	0.000000e+000	-2.000000e+002	0.000000e+000
60549070.000	-4.408567e-001	1.362613e+002	-5.880360e+001	-3.426696e+001	-2.000000e+002	0.000000e+000	-2.000000e+002	0.000000e+000
61199060.000	-4.459253e-001	1.338396e+002	-5.825325e+001	-5.677672e+001	-2.000000e+002	0.000000e+000	-2.000000e+002	0.000000e+000
61849050.000	-4.487354e-001	1.314164e+002	-5.838431e+001	-7.726833e+001	-2.000000e+002	0.000000e+000	-2.000000e+002	0.000000e+000
62499040.000	-4.513868e-001	1.289856e+002	-5.905198e+001	-9.235463e+001	-2.000000e+002	0.000000e+000	-2.000000e+002	0.000000e+000
63149030.000	-4.537864e-001	1.265552e+002	-5.967488e+001	-1.023527e+002	-2.000000e+002	0.000000e+000	-2.000000e+002	0.000000e+000
63799020.000	-4.569039e-001	1.241223e+002	-6.001740e+001	-1.105127e+002	-2.000000e+002	0.000000e+000	-2.000000e+002	0.000000e+000
64449010.000	-4.601358e-001	1.216959e+002	-6.022766e+001	-1.163994e+002	-2.000000e+002	0.000000e+000	-2.000000e+002	0.000000e+000
65099000.000	-4.624600e-001	1.192661e+002	-6.004873e+001	-1.228772e+002	-2.000000e+002	0.000000e+000	-2.000000e+002	0.000000e+000
65748990.000	-4.647025e-001	1.168385e+002	-6.039489e+001	-1.273570e+002	-2.000000e+002	0.000000e+000	-2.000000e+002	0.000000e+000
66398980.000	-4.677167e-001	1.144151e+002	-6.008827e+001	-1.332630e+002	-2.000000e+002	0.000000e+000	-2.000000e+002	0.000000e+000
67048970.000	-4.705672e-001	1.119914e+002	-6.041858e+001	-1.352478e+002	-2.000000e+002	0.000000e+000	-2.000000e+002	0.000000e+000
67698960.000	-4.729226e-001	1.095742e+002	-6.032230e+001	-1.368011e+002	-2.000000e+002	0.000000e+000	-2.000000e+002	0.000000e+000
68348950.000	-4.745272e-001	1.071584e+002	-6.009261e+001	-1.399427e+002	-2.000000e+002	0.000000e+000	-2.000000e+002	0.000000e+000
68998940.000	-4.773729e-001	1.047430e+002	-5.988625e+001	-1.403598e+002	-2.000000e+002	0.000000e+000	-2.000000e+002	0.000000e+000
69648930.000	-4.793346e-001	1.023294e+002	-5.972139e+001	-1.422760e+002	-2.000000e+002	0.000000e+000	-2.000000e+002	0.000000e+000
70298920.000	-4.808384e-001	9.991199e+001	-5.964313e+001	-1.447058e+002	-2.000000e+002	0.000000e+000	-2.000000e+002	0.000000e+000
70948910.000	-4.832581e-001	9.750349e+001	-5.927401e+001	-1.460028e+002	-2.000000e+002	0.000000e+000	-2.000000e+002	0.000000e+000
71598900.000	-4.841659e-001	9.509771e+001	-5.889024e+001	-1.480399e+002	-2.000000e+002	0.000000e+000	-2.000000e+002	0.000000e+000
72248890.000	-4.861952e-001	9.269601e+001	-5.857713e+001	-1.500057e+002	-2.000000e+002	0.000000e+000	-2.000000e+002	0.000000e+000
72898880.000	-4.874604e-001	9.029322e+001	-5.830609e+001	-1.509850e+002	-2.000000e+002	0.000000e+000	-2.000000e+002	0.000000e+000
73548870.000	-4.892055e-001	8.790321e+001	-5.777989e+001	-1.523187e+002	-2.000000e+002	0.000000e+000	-2.000000e+002	0.000000e+000
74198860.000	-4.900120e-001	8.550594e+001	-5.739304e+001	-1.555352e+002	-2.000000e+002	0.000000e+000	-2.000000e+002	0.000000e+000
74848850.000	-4.914530e-001	8.311732e+001	-5.704249e+001	-1.587264e+002	-2.000000e+002	0.000000e+000	-2.000000e+002	0.000000e+000
75498840.000	-4.914220e-001	8.072801e+001	-5.675565e+001	-1.612569e+002	-2.000000e+002	0.000000e+000	-2.000000e+002	0.000000e+000
76148830.000	-4.921442e-001	7.834226e+001	-5.640940e+001	-1.635702e+002	-2.000000e+002	0.000000e+000	-2.000000e+002	0.000000e+000
76798820.000	-4.906367e-001	7.595729e+001	-5.616790e+001	-1.673074e+002	-2.000000e+002	0.000000e+000	-2.000000e+002	0.000000e+000
77448810.000	-4.927171e-001	7.358682e+001	-5.589741e+001	-1.702712e+002	-2.000000e+002	0.000000e+000	-2.000000e+002	0.000000e+000
78098800.000	-4.920933e-001	7.120341e+001	-5.568945e+001	-1.728683e+002	-2.000000e+002	0.000000e+000	-2.000000e+002	0.000000e+000
78748790.000	-4.909831e-001	6.882821e+001	-5.540155e+001	-1.771985e+002	-2.000000e+002	0.000000e+000	-2.000000e+002	0.000000e+000
79398780.000	-4.892209e-001	6.644985e+001	-5.519729e+001	1.796544e+002	-2.000000e+002	0.000000e+000	-2.000000e+002	0.000000e+000
80048770.000	-4.873600e-001	6.406161e+001	-5.517485e+001	1.766693e+002	-2.000000e+002	0.000000e+000	-2.000000e+002	0.000000e+000
80698760.000	-4.860847e-001	6.168895e+001	-5.506937e+001	1.737334e+002	-2.000000e+002	0.000000e+000	-2.000000e+002	0.000000e+000
81348750.000	-4.841762e-001	5.931389e+001	-5.512653e+001	1.709808e+002	-2.000000e+002	0.000000e+000	-2.000000e+002	0.000000e+000
81998740.000	-4.827607e-001	5.694166e+001	-5.500144e+001	1.688427e+002	-2.000000e+002	0.000000e+000	-2.000000e+002	0.000000e+000
82648730.000	-4.835733e-001	5.458442e+001	-5.491177e+001	1.664070e+002	-2.000000e+002	0.000000e+000	-2.000000e+002	0.000000e+000
83298720.000	-4.817462e-001	5.221699e+001	-5.490464e+001	1.645184e+002	-2.000000e+002	0.000000e+000	-2.000000e+002	0.000000e+000
83948710.000	-4.798739e-001	4.984720e+001	-5.486537e+001	1.617964e+002	-2.000000e+002	0.000000e+000	-2.000000e+002	0.000000e+000
84598700.000	-4.783866e-001	4.748168e+001	-5.479797e+001	1.600510e+002	-2.000000e+002	0.000000e+000	-2.000000e+002	0.000000e+000
85248690.000	-4.766162e-001	4.511566e+001	-5.479149e+001	1.580806e+002	-2.000000e+002	0.000000e+000	-2.000000e+002	0.000000e+000
85898680.000	-4.747607e-001	4.275468e+001	-5.464848e+001	1.565936e+002	-2.000000e+002	0.000000e+000	-2.000000e+002	0.000000e+000
86548670.000	-4.726550e-001	4.039731e+001	-5.456159e+001	1.551102e+002	-2.000000e+002	0.000000e+000	-2.000000e+002	0.000000e+000
87198660.000	-4.702205e-001	3.804233e+001	-5.450486e+001	1.532163e+002	-2.000000e+002	0.000000e+000	-2.000000e+002	0.000000e+000
87848650.000	-4.681350e-001	3.568891e+001	-5.436063e+001	1.518384e+002	-2.000000e+002	0.000000e+000	-2.000000e+002	0.000000e+000
88498640.000	-4.656898e-001	3.333874e+001	-5.420537e+001	1.497805e+002	-2.000000e+002	0.000000e+000	-2.000000e+002	0.000000e+000
89148630.000	-4.637449e-001	3.098823e+001	-5.414681e+001	1.492470e+002	-2.000000e+002	0.000000e+000	-2.000000e+002	0.000000e+000
89798620.000	-4.618086e-001	2.863611e+001	-5.387460e+001	1.478848e+002	-2.000000e+002	0.000000e+000	-2.000000e+002	0.000000e+000
90448610.000	-4.594015e-001	2.628749e+001	-5.371023e+001	1.466153e+002	-2.000000e+002	0.000000e+000	-2.000000e+002	0.000000e+000
91098600.000	-4.572802e-001	2.393253e+001	-5.338396e+001	1.452750e+002	-2.000000e+002	0.000000e+000	-2.000000e+002	0.000000e+000
91748590.000	-4.542459e-001	2.158433e+001	-5.315882e+001	1.428069e+002	-2.000000e+002	0.000000e+000	-2.000000e+002	0.000000e+000
92398580.000	-4.515981e-001	1.923543e+001	-5.291354e+001	1.410602e+002	-2.000000e+002	0.000000e+000	-2.000000e+002	0.000000e+000
93048570.000	-4.494520e-001	1.689270e+001	-5.267262e+001	1.385080e+002	-2.000000e+002	0.000000e+000	-2.000000e+002	0.000000e+000
93698560.000	-4.469043e-001	1.454227e+001	-5.254535e+001	1.372426e+002	-2.000000e+002	0.000000e+000	-2.000000e+002	0.000000e+000
94348550.000	-4.440144e-001	1.219918e+001	-5.235811e+001	1.355880e+002	-2.000000e+002	0.000000e+000	-2.000000e+002	0.000000e+000
94998540.000	-4.417451e-001	9.860033e+000	-5.202603e+001	1.331877e+002	-2.000000e+002	0.000000e+000	-2.000000e+002	0.000000e+000
95648530.000	-4.395408e-001	7.519564e+000	-5.189113e+001	1.315075e+002	-2.000000e+002	0.000000e+000	-2.000000e+002	0.000000e+000
96298520.000	-4.364271e-001	5.179069e+000	-5.173686e+001	1.302383e+002	-2.000000e+002	0.000000e+000	-2.000000e+002	0.000000e+000
96948510.000	-4.348678e-001	2.838358e+000	-5.141636e+001	1.286818e+002	-2.000000e+002	0.000000e+000	-2.000000e+002	0.000000e+000
97598500.000	-4.332674e-001	5.085859e-001	-5.101548e+001	1.275020e+002	-2.000000e+002	0.000000e+000	-2.000000e+002	0.000000e+000
98248490.000	-4.293611e-001	-1.820589e+000	-5.050645e+001	1.251895e+002	-2.000000e+002	0.000000e+000	-2.000000e+002	0.000000e+000
