!Keysight Technologies,E5063A,MY54503115,A.05.08
!Date: Sun Feb 04 18:24:11 2024
!Data & Calibration Information:
!Freq	S11:NONE(--)	S21:NONE(--)	S12:NONE(--)	S22:NONE(--)
# Hz S dB R 50
100000.000	4.687369e-002	-7.689297e-001	-8.958060e+001	6.079063e+001	-2.000000e+002	0.000000e+000	-2.000000e+002	0.000000e+000
749990.000	1.023511e-002	-3.045454e+000	-8.868892e+001	9.773599e+001	-2.000000e+002	0.000000e+000	-2.000000e+002	0.000000e+000
1399980.000	1.210671e-002	-5.355871e+000	-8.206702e+001	1.751637e+002	-2.000000e+002	0.000000e+000	-2.000000e+002	0.000000e+000
2049970.000	1.225191e-002	-7.676090e+000	-7.817800e+001	1.161299e+002	-2.000000e+002	0.000000e+000	-2.000000e+002	0.000000e+000
2699960.000	1.188124e-002	-1.000896e+001	-7.593903e+001	7.673354e+001	-2.000000e+002	0.000000e+000	-2.000000e+002	0.000000e+000
3349950.000	1.639726e-002	-1.234574e+001	-7.537395e+001	8.535441e+001	-2.000000e+002	0.000000e+000	-2.000000e+002	0.000000e+000
3999940.000	1.505767e-002	-1.468198e+001	-7.681470e+001	7.735770e+001	-2.000000e+002	0.000000e+000	-2.000000e+002	0.000000e+000
4649930.000	1.895967e-002	-1.701666e+001	-7.238884e+001	8.371267e+001	-2.000000e+002	0.000000e+000	-2.000000e+002	0.000000e+000
5299920.000	1.605000e-002	-1.935815e+001	-7.129630e+001	6.459963e+001	-2.000000e+002	0.000000e+000	-2.000000e+002	0.000000e+000
5949910.000	1.393597e-002	-2.169077e+001	-7.186041e+001	7.140202e+001	-2.000000e+002	0.000000e+000	-2.000000e+002	0.000000e+000
6599900.000	1.521976e-002	-2.403467e+001	-7.036205e+001	6.695936e+001	-2.000000e+002	0.000000e+000	-2.000000e+002	0.000000e+000
7249890.000	1.596351e-002	-2.636997e+001	-6.927640e+001	5.633183e+001	-2.000000e+002	0.000000e+000	-2.000000e+002	0.000000e+000
7899880.000	1.545766e-002	-2.871375e+001	-6.892397e+001	6.430676e+001	-2.000000e+002	0.000000e+000	-2.000000e+002	0.000000e+000
8549870.000	1.958699e-002	-3.106210e+001	-6.826693e+001	6.172421e+001	-2.000000e+002	0.000000e+000	-2.000000e+002	0.000000e+000
9199860.000	1.857307e-002	-3.340572e+001	-6.777800e+001	5.961473e+001	-2.000000e+002	0.000000e+000	-2.000000e+002	0.000000e+000
9849850.000	1.793768e-002	-3.574916e+001	-6.675955e+001	5.549312e+001	-2.000000e+002	0.000000e+000	-2.000000e+002	0.000000e+000
10499840.000	1.516200e-002	-3.809489e+001	-6.584759e+001	5.530021e+001	-2.000000e+002	0.000000e+000	-2.000000e+002	0.000000e+000
11149830.000	1.203894e-002	-4.043714e+001	-6.570550e+001	4.999508e+001	-2.000000e+002	0.000000e+000	-2.000000e+002	0.000000e+000
11799820.000	1.039532e-002	-4.278242e+001	-6.473887e+001	4.935650e+001	-2.000000e+002	0.000000e+000	-2.000000e+002	0.000000e+000
12449810.000	1.054311e-002	-4.513569e+001	-6.477471e+001	4.775495e+001	-2.000000e+002	0.000000e+000	-2.000000e+002	0.000000e+000
13099800.000	1.147909e-002	-4.747949e+001	-6.431037e+001	4.382178e+001	-2.000000e+002	0.000000e+000	-2.000000e+002	0.000000e+000
13749790.000	9.080125e-003	-4.982760e+001	-6.397393e+001	4.100639e+001	-2.000000e+002	0.000000e+000	-2.000000e+002	0.000000e+000
14399780.000	6.321110e-003	-5.218903e+001	-6.320555e+001	4.012912e+001	-2.000000e+002	0.000000e+000	-2.000000e+002	0.000000e+000
15049770.000	6.336241e-003	-5.454096e+001	-6.319147e+001	3.859195e+001	-2.000000e+002	0.000000e+000	-2.000000e+002	0.000000e+000
15699760.000	5.663636e-003	-5.689139e+001	-6.259185e+001	3.695176e+001	-2.000000e+002	0.000000e+000	-2.000000e+002	0.000000e+000
16349750.000	4.165868e-003	-5.924578e+001	-6.234116e+001	3.503116e+001	-2.000000e+002	0.000000e+000	-2.000000e+002	0.000000e+000
16999740.000	1.817394e-003	-6.161530e+001	-6.188253e+001	3.230020e+001	-2.000000e+002	0.000000e+000	-2.000000e+002	0.000000e+000
17649730.000	5.332278e-003	-6.399408e+001	-6.123816e+001	3.216105e+001	-2.000000e+002	0.000000e+000	-2.000000e+002	0.000000e+000
18299720.000	6.977033e-003	-6.636838e+001	-6.050167e+001	2.976172e+001	-2.000000e+002	0.000000e+000	-2.000000e+002	0.000000e+000
18949710.000	4.360167e-003	-6.874270e+001	-6.012568e+001	2.577319e+001	-2.000000e+002	0.000000e+000	-2.000000e+002	0.000000e+000
19599700.000	-3.838094e-003	-7.111919e+001	-5.983777e+001	2.172001e+001	-2.000000e+002	0.000000e+000	-2.000000e+002	0.000000e+000
20249690.000	-1.016135e-002	-7.350282e+001	-5.970142e+001	1.813824e+001	-2.000000e+002	0.000000e+000	-2.000000e+002	0.000000e+000
20899680.000	-1.453737e-002	-7.590674e+001	-5.946045e+001	1.632511e+001	-2.000000e+002	0.000000e+000	-2.000000e+002	0.000000e+000
21549670.000	-1.934204e-002	-7.830213e+001	-5.935520e+001	1.515547e+001	-2.000000e+002	0.000000e+000	-2.000000e+002	0.000000e+000
22199660.000	-2.452742e-002	-8.067678e+001	-5.901676e+001	1.154558e+001	-2.000000e+002	0.000000e+000	-2.000000e+002	0.000000e+000
22849650.000	-2.902304e-002	-8.304099e+001	-5.876965e+001	9.906287e+000	-2.000000e+002	0.000000e+000	-2.000000e+002	0.000000e+000
23499640.000	-3.542466e-002	-8.542932e+001	-5.866103e+001	9.534357e+000	-2.000000e+002	0.000000e+000	-2.000000e+002	0.000000e+000
24149630.000	-4.239690e-002	-8.782894e+001	-5.827619e+001	8.617497e+000	-2.000000e+002	0.000000e+000	-2.000000e+002	0.000000e+000
24799620.000	-4.837995e-002	-9.021776e+001	-5.770817e+001	7.759869e+000	-2.000000e+002	0.000000e+000	-2.000000e+002	0.000000e+000
25449610.000	-5.290736e-002	-9.260469e+001	-5.717110e+001	4.370761e+000	-2.000000e+002	0.000000e+000	-2.000000e+002	0.000000e+000
26099600.000	-5.913865e-002	-9.499656e+001	-5.670094e+001	1.943863e+000	-2.000000e+002	0.000000e+000	-2.000000e+002	0.000000e+000
26749590.000	-6.661908e-002	-9.739574e+001	-5.644199e+001	5.010845e-001	-2.000000e+002	0.000000e+000	-2.000000e+002	0.000000e+000
27399580.000	-7.277799e-002	-9.980027e+001	-5.606988e+001	-2.361290e+000	-2.000000e+002	0.000000e+000	-2.000000e+002	0.000000e+000
28049570.000	-7.925378e-002	-1.022012e+002	-5.565317e+001	-4.859725e+000	-2.000000e+002	0.000000e+000	-2.000000e+002	0.000000e+000
28699560.000	-8.633849e-002	-1.046030e+002	-5.539066e+001	-6.798462e+000	-2.000000e+002	0.000000e+000	-2.000000e+002	0.000000e+000
29349550.000	-9.329978e-002	-1.070034e+002	-5.507799e+001	-7.770542e+000	-2.000000e+002	0.000000e+000	-2.000000e+002	0.000000e+000
29999540.000	-1.004056e-001	-1.094223e+002	-5.478074e+001	-1.245456e+001	-2.000000e+002	0.000000e+000	-2.000000e+002	0.000000e+000
30649530.000	-1.074079e-001	-1.118378e+002	-5.450563e+001	-1.475376e+001	-2.000000e+002	0.000000e+000	-2.000000e+002	0.000000e+000
31299520.000	-1.142231e-001	-1.142582e+002	-5.426840e+001	-1.788624e+001	-2.000000e+002	0.000000e+000	-2.000000e+002	0.000000e+000
31949510.000	-1.218435e-001	-1.166835e+002	-5.414586e+001	-1.985162e+001	-2.000000e+002	0.000000e+000	-2.000000e+002	0.000000e+000
32599500.000	-1.305746e-001	-1.191117e+002	-5.414630e+001	-2.109111e+001	-2.000000e+002	0.000000e+000	-2.000000e+002	0.000000e+000
33249490.000	-1.391605e-001	-1.215411e+002	-5.403942e+001	-2.020159e+001	-2.000000e+002	0.000000e+000	-2.000000e+002	0.000000e+000
33899480.000	-1.487406e-001	-1.239756e+002	-5.358130e+001	-1.765386e+001	-2.000000e+002	0.000000e+000	-2.000000e+002	0.000000e+000
34549470.000	-1.597384e-001	-1.264017e+002	-5.281578e+001	-1.509031e+001	-2.000000e+002	0.000000e+000	-2.000000e+002	0.000000e+000
35199460.000	-1.708313e-001	-1.288238e+002	-5.140037e+001	-1.333102e+001	-2.000000e+002	0.000000e+000	-2.000000e+002	0.000000e+000
35849450.000	-1.800792e-001	-1.312376e+002	-4.981296e+001	-1.710602e+001	-2.000000e+002	0.000000e+000	-2.000000e+002	0.000000e+000
36499440.000	-1.874770e-001	-1.336559e+002	-4.851910e+001	-2.409120e+001	-2.000000e+002	0.000000e+000	-2.000000e+002	0.000000e+000
37149430.000	-1.932961e-001	-1.360889e+002	-4.777173e+001	-3.238679e+001	-2.000000e+002	0.000000e+000	-2.000000e+002	0.000000e+000
37799420.000	-1.993173e-001	-1.385379e+002	-4.740279e+001	-3.941133e+001	-2.000000e+002	0.000000e+000	-2.000000e+002	0.000000e+000
38449410.000	-2.064993e-001	-1.409903e+002	-4.708217e+001	-4.448765e+001	-2.000000e+002	0.000000e+000	-2.000000e+002	0.000000e+000
39099400.000	-2.141934e-001	-1.434534e+002	-4.674675e+001	-4.878126e+001	-2.000000e+002	0.000000e+000	-2.000000e+002	0.000000e+000
39749390.000	-2.225009e-001	-1.459188e+002	-4.636957e+001	-5.230563e+001	-2.000000e+002	0.000000e+000	-2.000000e+002	0.000000e+000
40399380.000	-2.312788e-001	-1.483899e+002	-4.584251e+001	-5.532284e+001	-2.000000e+002	0.000000e+000	-2.000000e+002	0.000000e+000
41049370.000	-2.401336e-001	-1.508660e+002	-4.524675e+001	-5.822221e+001	-2.000000e+002	0.000000e+000	-2.000000e+002	0.000000e+000
41699360.000	-2.500265e-001	-1.533517e+002	-4.448798e+001	-6.148898e+001	-2.000000e+002	0.000000e+000	-2.000000e+002	0.000000e+000
42349350.000	-2.598793e-001	-1.558464e+002	-4.362117e+001	-6.432283e+001	-2.000000e+002	0.000000e+000	-2.000000e+002	0.000000e+000
42999340.000	-2.713630e-001	-1.583519e+002	-4.265173e+001	-6.689276e+001	-2.000000e+002	0.000000e+000	-2.000000e+002	0.000000e+000
43649330.000	-2.836261e-001	-1.608757e+002	-4.137186e+001	-6.989528e+001	-2.000000e+002	0.000000e+000	-2.000000e+002	0.000000e+000
44299320.000	-2.982374e-001	-1.634223e+002	-3.976977e+001	-7.374922e+001	-2.000000e+002	0.000000e+000	-2.000000e+002	0.000000e+000
44949310.000	-3.160755e-001	-1.660187e+002	-3.780263e+001	-7.886230e+001	-2.000000e+002	0.000000e+000	-2.000000e+002	0.000000e+000
45599300.000	-3.434163e-001	-1.686961e+002	-3.531602e+001	-8.617492e+001	-2.000000e+002	0.000000e+000	-2.000000e+002	0.000000e+000
46249290.000	-4.010964e-001	-1.715548e+002	-3.198974e+001	-9.805279e+001	-2.000000e+002	0.000000e+000	-2.000000e+002	0.000000e+000
46899280.000	-5.996767e-001	-1.745817e+002	-2.736544e+001	-1.228680e+002	-2.000000e+002	0.000000e+000	-2.000000e+002	0.000000e+000
47549270.000	-9.096558e-001	-1.741297e+002	-2.471155e+001	1.743385e+002	-2.000000e+002	0.000000e+000	-2.000000e+002	0.000000e+000
48199260.000	-5.172113e-001	-1.755742e+002	-2.989425e+001	1.272982e+002	-2.000000e+002	0.000000e+000	-2.000000e+002	0.000000e+000
48849250.000	-4.062958e-001	-1.785937e+002	-3.449873e+001	1.098569e+002	-2.000000e+002	0.000000e+000	-2.000000e+002	0.000000e+000
49499240.000	-3.774620e-001	1.786136e+002	-3.788802e+001	1.004291e+002	-2.000000e+002	0.000000e+000	-2.000000e+002	0.000000e+000
50149230.000	-3.696432e-001	1.759565e+002	-4.054950e+001	9.418868e+001	-2.000000e+002	0.000000e+000	-2.000000e+002	0.000000e+000
50799220.000	-3.687445e-001	1.733736e+002	-4.276272e+001	8.880979e+001	-2.000000e+002	0.000000e+000	-2.000000e+002	0.000000e+000
51449210.000	-3.709310e-001	1.708278e+002	-4.460027e+001	8.471653e+001	-2.000000e+002	0.000000e+000	-2.000000e+002	0.000000e+000
52099200.000	-3.748033e-001	1.683087e+002	-4.627491e+001	8.000139e+001	-2.000000e+002	0.000000e+000	-2.000000e+002	0.000000e+000
52749190.000	-3.789379e-001	1.658068e+002	-4.785729e+001	7.564585e+001	-2.000000e+002	0.000000e+000	-2.000000e+002	0.000000e+000
53399180.000	-3.833430e-001	1.633160e+002	-4.932269e+001	7.178448e+001	-2.000000e+002	0.000000e+000	-2.000000e+002	0.000000e+000
54049170.000	-3.884153e-001	1.608335e+002	-5.073769e+001	6.831855e+001	-2.000000e+002	0.000000e+000	-2.000000e+002	0.000000e+000
54699160.000	-3.942179e-001	1.583536e+002	-5.196761e+001	6.467584e+001	-2.000000e+002	0.000000e+000	-2.000000e+002	0.000000e+000
55349150.000	-3.993096e-001	1.558822e+002	-5.306563e+001	6.053034e+001	-2.000000e+002	0.000000e+000	-2.000000e+002	0.000000e+000
55999140.000	-4.049306e-001	1.534158e+002	-5.434104e+001	5.653282e+001	-2.000000e+002	0.000000e+000	-2.000000e+002	0.000000e+000
56649130.000	-4.105668e-001	1.509533e+002	-5.507050e+001	5.278061e+001	-2.000000e+002	0.000000e+000	-2.000000e+002	0.000000e+000
57299120.000	-4.158111e-001	1.484964e+002	-5.609542e+001	4.662322e+001	-2.000000e+002	0.000000e+000	-2.000000e+002	0.000000e+000
57949110.000	-4.209827e-001	1.460388e+002	-5.669551e+001	4.013272e+001	-2.000000e+002	0.000000e+000	-2.000000e+002	0.000000e+000
58599100.000	-4.263117e-001	1.435834e+002	-5.729002e+001	3.032796e+001	-2.000000e+002	0.000000e+000	-2.000000e+002	0.000000e+000
59249090.000	-4.321318e-001	1.411350e+002	-5.786416e+001	1.948691e+001	-2.000000e+002	0.000000e+000	-2.000000e+002	0.000000e+000
59899080.000	-4.372404e-001	1.386891e+002	-5.848469e+001	1.947250e+000	-2.000000e+002	0.000000e+000	-2.000000e+002	0.000000e+000
60549070.000	-4.425792e-001	1.362591e+002	-5.937163e+001	-1.984150e+001	-2.000000e+002	0.000000e+000	-2.000000e+002	0.000000e+000
61199060.000	-4.466810e-001	1.338259e+002	-6.057815e+001	-4.145007e+001	-2.000000e+002	0.000000e+000	-2.000000e+002	0.000000e+000
61849050.000	-4.498159e-001	1.313932e+002	-6.206281e+001	-6.198363e+001	-2.000000e+002	0.000000e+000	-2.000000e+002	0.000000e+000
62499040.000	-4.527571e-001	1.289582e+002	-6.358281e+001	-7.803546e+001	-2.000000e+002	0.000000e+000	-2.000000e+002	0.000000e+000
63149030.000	-4.560392e-001	1.265193e+002	-6.449791e+001	-8.749695e+001	-2.000000e+002	0.000000e+000	-2.000000e+002	0.000000e+000
63799020.000	-4.599550e-001	1.240862e+002	-6.493042e+001	-9.784054e+001	-2.000000e+002	0.000000e+000	-2.000000e+002	0.000000e+000
64449010.000	-4.634447e-001	1.216620e+002	-6.483276e+001	-1.066624e+002	-2.000000e+002	0.000000e+000	-2.000000e+002	0.000000e+000
65099000.000	-4.658950e-001	1.192312e+002	-6.429738e+001	-1.165363e+002	-2.000000e+002	0.000000e+000	-2.000000e+002	0.000000e+000
65748990.000	-4.682858e-001	1.167993e+002	-6.448581e+001	-1.227774e+002	-2.000000e+002	0.000000e+000	-2.000000e+002	0.000000e+000
66398980.000	-4.710855e-001	1.143728e+002	-6.427131e+001	-1.256871e+002	-2.000000e+002	0.000000e+000	-2.000000e+002	0.000000e+000
67048970.000	-4.735880e-001	1.119504e+002	-6.385434e+001	-1.256025e+002	-2.000000e+002	0.000000e+000	-2.000000e+002	0.000000e+000
67698960.000	-4.775222e-001	1.095336e+002	-6.358535e+001	-1.319544e+002	-2.000000e+002	0.000000e+000	-2.000000e+002	0.000000e+000
68348950.000	-4.786866e-001	1.071153e+002	-6.327557e+001	-1.339510e+002	-2.000000e+002	0.000000e+000	-2.000000e+002	0.000000e+000
68998940.000	-4.818784e-001	1.046997e+002	-6.272942e+001	-1.341872e+002	-2.000000e+002	0.000000e+000	-2.000000e+002	0.000000e+000
69648930.000	-4.834767e-001	1.022833e+002	-6.220159e+001	-1.357928e+002	-2.000000e+002	0.000000e+000	-2.000000e+002	0.000000e+000
70298920.000	-4.850587e-001	9.986497e+001	-6.178815e+001	-1.391799e+002	-2.000000e+002	0.000000e+000	-2.000000e+002	0.000000e+000
70948910.000	-4.871140e-001	9.745615e+001	-6.122261e+001	-1.394582e+002	-2.000000e+002	0.000000e+000	-2.000000e+002	0.000000e+000
71598900.000	-4.888178e-001	9.504864e+001	-6.061943e+001	-1.423639e+002	-2.000000e+002	0.000000e+000	-2.000000e+002	0.000000e+000
72248890.000	-4.912973e-001	9.264615e+001	-6.031092e+001	-1.423876e+002	-2.000000e+002	0.000000e+000	-2.000000e+002	0.000000e+000
72898880.000	-4.925571e-001	9.024737e+001	-5.951415e+001	-1.452785e+002	-2.000000e+002	0.000000e+000	-2.000000e+002	0.000000e+000
73548870.000	-4.942398e-001	8.785553e+001	-5.893262e+001	-1.472329e+002	-2.000000e+002	0.000000e+000	-2.000000e+002	0.000000e+000
74198860.000	-4.954994e-001	8.545811e+001	-5.837325e+001	-1.504105e+002	-2.000000e+002	0.000000e+000	-2.000000e+002	0.000000e+000
74848850.000	-4.965839e-001	8.306779e+001	-5.790292e+001	-1.528505e+002	-2.000000e+002	0.000000e+000	-2.000000e+002	0.000000e+000
75498840.000	-4.963518e-001	8.067782e+001	-5.741887e+001	-1.562866e+002	-2.000000e+002	0.000000e+000	-2.000000e+002	0.000000e+000
76148830.000	-4.967536e-001	7.829307e+001	-5.698681e+001	-1.605587e+002	-2.000000e+002	0.000000e+000	-2.000000e+002	0.000000e+000
76798820.000	-4.961309e-001	7.590852e+001	-5.671888e+001	-1.650708e+002	-2.000000e+002	0.000000e+000	-2.000000e+002	0.000000e+000
77448810.000	-4.965368e-001	7.353532e+001	-5.648185e+001	-1.683422e+002	-2.000000e+002	0.000000e+000	-2.000000e+002	0.000000e+000
78098800.000	-4.964911e-001	7.115040e+001	-5.635565e+001	-1.706473e+002	-2.000000e+002	0.000000e+000	-2.000000e+002	0.000000e+000
78748790.000	-4.960408e-001	6.877026e+001	-5.623597e+001	-1.743609e+002	-2.000000e+002	0.000000e+000	-2.000000e+002	0.000000e+000
79398780.000	-4.941011e-001	6.639159e+001	-5.603154e+001	-1.775694e+002	-2.000000e+002	0.000000e+000	-2.000000e+002	0.000000e+000
80048770.000	-4.925432e-001	6.400261e+001	-5.589876e+001	-1.797284e+002	-2.000000e+002	0.000000e+000	-2.000000e+002	0.000000e+000
80698760.000	-4.912156e-001	6.162810e+001	-5.583414e+001	1.777843e+002	-2.000000e+002	0.000000e+000	-2.000000e+002	0.000000e+000
81348750.000	-4.895257e-001	5.925087e+001	-5.578381e+001	1.757151e+002	-2.000000e+002	0.000000e+000	-2.000000e+002	0.000000e+000
81998740.000	-4.885407e-001	5.687997e+001	-5.566440e+001	1.737736e+002	-2.000000e+002	0.000000e+000	-2.000000e+002	0.000000e+000
82648730.000	-4.893915e-001	5.451987e+001	-5.545528e+001	1.723222e+002	-2.000000e+002	0.000000e+000	-2.000000e+002	0.000000e+000
83298720.000	-4.887603e-001	5.214909e+001	-5.527797e+001	1.707227e+002	-2.000000e+002	0.000000e+000	-2.000000e+002	0.000000e+000
83948710.000	-4.869574e-001	4.978145e+001	-5.518603e+001	1.685803e+002	-2.000000e+002	0.000000e+000	-2.000000e+002	0.000000e+000
84598700.000	-4.856196e-001	4.741429e+001	-5.505157e+001	1.674326e+002	-2.000000e+002	0.000000e+000	-2.000000e+002	0.000000e+000
85248690.000	-4.842754e-001	4.505008e+001	-5.481262e+001	1.665385e+002	-2.000000e+002	0.000000e+000	-2.000000e+002	0.000000e+000
85898680.000	-4.829377e-001	4.268691e+001	-5.454071e+001	1.649409e+002	-2.000000e+002	0.000000e+000	-2.000000e+002	0.000000e+000
86548670.000	-4.813399e-001	4.033120e+001	-5.421896e+001	1.631174e+002	-2.000000e+002	0.000000e+000	-2.000000e+002	0.000000e+000
87198660.000	-4.787286e-001	3.797561e+001	-5.398908e+001	1.611681e+002	-2.000000e+002	0.000000e+000	-2.000000e+002	0.000000e+000
87848650.000	-4.765841e-001	3.562651e+001	-5.378171e+001	1.591180e+002	-2.000000e+002	0.000000e+000	-2.000000e+002	0.000000e+000
88498640.000	-4.740822e-001	3.327722e+001	-5.348361e+001	1.569122e+002	-2.000000e+002	0.000000e+000	-2.000000e+002	0.000000e+000
89148630.000	-4.726636e-001	3.092462e+001	-5.330682e+001	1.548130e+002	-2.000000e+002	0.000000e+000	-2.000000e+002	0.000000e+000
89798620.000	-4.695242e-001	2.857682e+001	-5.318000e+001	1.531797e+002	-2.000000e+002	0.000000e+000	-2.000000e+002	0.000000e+000
90448610.000	-4.673625e-001	2.622635e+001	-5.293182e+001	1.515843e+002	-2.000000e+002	0.000000e+000	-2.000000e+002	0.000000e+000
91098600.000	-4.650808e-001	2.387439e+001	-5.267080e+001	1.504300e+002	-2.000000e+002	0.000000e+000	-2.000000e+002	0.000000e+000
91748590.000	-4.620146e-001	2.152162e+001	-5.242533e+001	1.483521e+002	-2.000000e+002	0.000000e+000	-2.000000e+002	0.000000e+000
92398580.000	-4.589721e-001	1.917377e+001	-5.216598e+001	1.464420e+002	-2.000000e+002	0.000000e+000	-2.000000e+002	0.000000e+000
93048570.000	-4.567491e-001	1.681746e+001	-5.168308e+001	1.466492e+002	-2.000000e+002	0.000000e+000	-2.000000e+002	0.000000e+000
93698560.000	-4.550251e-001	1.447471e+001	-5.162954e+001	1.437752e+002	-2.000000e+002	0.000000e+000	-2.000000e+002	0.000000e+000
94348550.000	-4.528198e-001	1.212983e+001	-5.133439e+001	1.422294e+002	-2.000000e+002	0.000000e+000	-2.000000e+002	0.000000e+000
94998540.000	-4.513157e-001	9.781239e+000	-5.085264e+001	1.404449e+002	-2.000000e+002	0.000000e+000	-2.000000e+002	0.000000e+000
95648530.000	-4.490902e-001	7.449450e+000	-5.063190e+001	1.390089e+002	-2.000000e+002	0.000000e+000	-2.000000e+002	0.000000e+000
96298520.000	-4.468453e-001	5.113652e+000	-5.023103e+001	1.375329e+002	-2.000000e+002	0.000000e+000	-2.000000e+002	0.000000e+000
96948510.000	-4.457076e-001	2.776005e+000	-4.971664e+001	1.360983e+002	-2.000000e+002	0.000000e+000	-2.000000e+002	0.000000e+000
97598500.000	-4.441388e-001	4.466278e-001	-4.910592e+001	1.331409e+002	-2.000000e+002	0.000000e+000	-2.000000e+002	0.000000e+000
98248490.000	-4.415313e-001	-1.876517e+000	-4.864635e+001	1.304860e+002	-2.000000e+002	0.000000e+000	-2.000000e+002	0.000000e+000
