!Keysight Technologies,E5063A,MY54503115,A.05.08
!Date: Sun Feb 04 18:44:04 2024
!Data & Calibration Information:
!Freq	S11:NONE(--)	S21:NONE(--)	S12:NONE(--)	S22:NONE(--)
# Hz S dB R 50
100000.000	4.788730e-002	-8.113554e-001	-8.407340e+001	1.441052e+001	-2.000000e+002	0.000000e+000	-2.000000e+002	0.000000e+000
749990.000	9.597548e-003	-3.053023e+000	-8.900386e+001	-2.360342e+001	-2.000000e+002	0.000000e+000	-2.000000e+002	0.000000e+000
1399980.000	1.052744e-002	-5.364925e+000	-9.020412e+001	1.248946e+002	-2.000000e+002	0.000000e+000	-2.000000e+002	0.000000e+000
2049970.000	9.935493e-003	-7.691416e+000	-7.612491e+001	1.116999e+002	-2.000000e+002	0.000000e+000	-2.000000e+002	0.000000e+000
2699960.000	1.138110e-002	-1.002472e+001	-8.040009e+001	1.315720e+002	-2.000000e+002	0.000000e+000	-2.000000e+002	0.000000e+000
3349950.000	1.611106e-002	-1.236666e+001	-7.933574e+001	4.784836e+001	-2.000000e+002	0.000000e+000	-2.000000e+002	0.000000e+000
3999940.000	1.265003e-002	-1.469340e+001	-7.064492e+001	8.602190e+001	-2.000000e+002	0.000000e+000	-2.000000e+002	0.000000e+000
4649930.000	1.679005e-002	-1.702812e+001	-7.566426e+001	8.397059e+001	-2.000000e+002	0.000000e+000	-2.000000e+002	0.000000e+000
5299920.000	1.495379e-002	-1.935847e+001	-7.220368e+001	9.263058e+001	-2.000000e+002	0.000000e+000	-2.000000e+002	0.000000e+000
5949910.000	1.509089e-002	-2.170418e+001	-7.314347e+001	6.859447e+001	-2.000000e+002	0.000000e+000	-2.000000e+002	0.000000e+000
6599900.000	1.399980e-002	-2.404991e+001	-7.290800e+001	6.682121e+001	-2.000000e+002	0.000000e+000	-2.000000e+002	0.000000e+000
7249890.000	1.566883e-002	-2.638502e+001	-7.151798e+001	6.736213e+001	-2.000000e+002	0.000000e+000	-2.000000e+002	0.000000e+000
7899880.000	1.568872e-002	-2.873191e+001	-7.082676e+001	6.286232e+001	-2.000000e+002	0.000000e+000	-2.000000e+002	0.000000e+000
8549870.000	1.823274e-002	-3.107403e+001	-6.855631e+001	6.186050e+001	-2.000000e+002	0.000000e+000	-2.000000e+002	0.000000e+000
9199860.000	1.685600e-002	-3.342147e+001	-6.815775e+001	6.162876e+001	-2.000000e+002	0.000000e+000	-2.000000e+002	0.000000e+000
9849850.000	1.667888e-002	-3.575991e+001	-6.751920e+001	5.896334e+001	-2.000000e+002	0.000000e+000	-2.000000e+002	0.000000e+000
10499840.000	1.401867e-002	-3.810729e+001	-6.685922e+001	5.474514e+001	-2.000000e+002	0.000000e+000	-2.000000e+002	0.000000e+000
11149830.000	1.128466e-002	-4.045150e+001	-6.636931e+001	4.890116e+001	-2.000000e+002	0.000000e+000	-2.000000e+002	0.000000e+000
11799820.000	9.509698e-003	-4.279501e+001	-6.579937e+001	5.309385e+001	-2.000000e+002	0.000000e+000	-2.000000e+002	0.000000e+000
12449810.000	9.279672e-003	-4.515051e+001	-6.492894e+001	5.046544e+001	-2.000000e+002	0.000000e+000	-2.000000e+002	0.000000e+000
13099800.000	1.058062e-002	-4.749627e+001	-6.518481e+001	4.761952e+001	-2.000000e+002	0.000000e+000	-2.000000e+002	0.000000e+000
13749790.000	8.178683e-003	-4.983880e+001	-6.436581e+001	4.052159e+001	-2.000000e+002	0.000000e+000	-2.000000e+002	0.000000e+000
14399780.000	5.818037e-003	-5.220330e+001	-6.413362e+001	4.212450e+001	-2.000000e+002	0.000000e+000	-2.000000e+002	0.000000e+000
15049770.000	5.119090e-003	-5.456062e+001	-6.365834e+001	3.984662e+001	-2.000000e+002	0.000000e+000	-2.000000e+002	0.000000e+000
15699760.000	4.530056e-003	-5.690475e+001	-6.324671e+001	4.074394e+001	-2.000000e+002	0.000000e+000	-2.000000e+002	0.000000e+000
16349750.000	2.390788e-003	-5.926243e+001	-6.282713e+001	3.628816e+001	-2.000000e+002	0.000000e+000	-2.000000e+002	0.000000e+000
16999740.000	3.236810e-004	-6.162875e+001	-6.240004e+001	3.628376e+001	-2.000000e+002	0.000000e+000	-2.000000e+002	0.000000e+000
17649730.000	4.416807e-003	-6.400643e+001	-6.142995e+001	3.497734e+001	-2.000000e+002	0.000000e+000	-2.000000e+002	0.000000e+000
18299720.000	5.605945e-003	-6.638154e+001	-6.114649e+001	3.078168e+001	-2.000000e+002	0.000000e+000	-2.000000e+002	0.000000e+000
18949710.000	2.830350e-003	-6.875552e+001	-6.044201e+001	2.713649e+001	-2.000000e+002	0.000000e+000	-2.000000e+002	0.000000e+000
19599700.000	-4.997114e-003	-7.113139e+001	-6.022143e+001	2.491227e+001	-2.000000e+002	0.000000e+000	-2.000000e+002	0.000000e+000
20249690.000	-1.171607e-002	-7.351076e+001	-5.996104e+001	2.018340e+001	-2.000000e+002	0.000000e+000	-2.000000e+002	0.000000e+000
20899680.000	-1.543426e-002	-7.591675e+001	-5.970348e+001	1.749548e+001	-2.000000e+002	0.000000e+000	-2.000000e+002	0.000000e+000
21549670.000	-2.016285e-002	-7.830730e+001	-5.958745e+001	1.575640e+001	-2.000000e+002	0.000000e+000	-2.000000e+002	0.000000e+000
22199660.000	-2.508559e-002	-8.068616e+001	-5.932310e+001	1.362199e+001	-2.000000e+002	0.000000e+000	-2.000000e+002	0.000000e+000
22849650.000	-2.960035e-002	-8.305168e+001	-5.922546e+001	1.231044e+001	-2.000000e+002	0.000000e+000	-2.000000e+002	0.000000e+000
23499640.000	-3.599659e-002	-8.543996e+001	-5.898287e+001	1.196695e+001	-2.000000e+002	0.000000e+000	-2.000000e+002	0.000000e+000
24149630.000	-4.297835e-002	-8.783967e+001	-5.835152e+001	1.043948e+001	-2.000000e+002	0.000000e+000	-2.000000e+002	0.000000e+000
24799620.000	-4.865946e-002	-9.022826e+001	-5.796592e+001	9.449770e+000	-2.000000e+002	0.000000e+000	-2.000000e+002	0.000000e+000
25449610.000	-5.312628e-002	-9.261262e+001	-5.740509e+001	6.324781e+000	-2.000000e+002	0.000000e+000	-2.000000e+002	0.000000e+000
26099600.000	-5.954725e-002	-9.500640e+001	-5.694483e+001	2.763806e+000	-2.000000e+002	0.000000e+000	-2.000000e+002	0.000000e+000
26749590.000	-6.605187e-002	-9.740119e+001	-5.659391e+001	4.856263e-001	-2.000000e+002	0.000000e+000	-2.000000e+002	0.000000e+000
27399580.000	-7.301818e-002	-9.980821e+001	-5.624738e+001	-5.832172e-001	-2.000000e+002	0.000000e+000	-2.000000e+002	0.000000e+000
28049570.000	-7.879709e-002	-1.022088e+002	-5.570837e+001	-4.777681e+000	-2.000000e+002	0.000000e+000	-2.000000e+002	0.000000e+000
28699560.000	-8.635445e-002	-1.046103e+002	-5.546845e+001	-6.849208e+000	-2.000000e+002	0.000000e+000	-2.000000e+002	0.000000e+000
29349550.000	-9.221079e-002	-1.070220e+002	-5.533423e+001	-1.145543e+001	-2.000000e+002	0.000000e+000	-2.000000e+002	0.000000e+000
29999540.000	-9.975361e-002	-1.094290e+002	-5.470389e+001	-1.266877e+001	-2.000000e+002	0.000000e+000	-2.000000e+002	0.000000e+000
30649530.000	-1.069373e-001	-1.118482e+002	-5.457475e+001	-1.474139e+001	-2.000000e+002	0.000000e+000	-2.000000e+002	0.000000e+000
31299520.000	-1.141649e-001	-1.142716e+002	-5.439677e+001	-1.733079e+001	-2.000000e+002	0.000000e+000	-2.000000e+002	0.000000e+000
31949510.000	-1.220068e-001	-1.166929e+002	-5.413280e+001	-2.004918e+001	-2.000000e+002	0.000000e+000	-2.000000e+002	0.000000e+000
32599500.000	-1.304028e-001	-1.191259e+002	-5.410453e+001	-2.097968e+001	-2.000000e+002	0.000000e+000	-2.000000e+002	0.000000e+000
33249490.000	-1.389551e-001	-1.215551e+002	-5.383308e+001	-1.998684e+001	-2.000000e+002	0.000000e+000	-2.000000e+002	0.000000e+000
33899480.000	-1.487009e-001	-1.239863e+002	-5.342296e+001	-1.791319e+001	-2.000000e+002	0.000000e+000	-2.000000e+002	0.000000e+000
34549470.000	-1.589523e-001	-1.264156e+002	-5.253118e+001	-1.525982e+001	-2.000000e+002	0.000000e+000	-2.000000e+002	0.000000e+000
35199460.000	-1.706812e-001	-1.288389e+002	-5.093193e+001	-1.285419e+001	-2.000000e+002	0.000000e+000	-2.000000e+002	0.000000e+000
35849450.000	-1.797620e-001	-1.312487e+002	-4.899177e+001	-1.844762e+001	-2.000000e+002	0.000000e+000	-2.000000e+002	0.000000e+000
36499440.000	-1.855339e-001	-1.336717e+002	-4.780592e+001	-2.765580e+001	-2.000000e+002	0.000000e+000	-2.000000e+002	0.000000e+000
37149430.000	-1.910580e-001	-1.361145e+002	-4.723025e+001	-3.632909e+001	-2.000000e+002	0.000000e+000	-2.000000e+002	0.000000e+000
37799420.000	-1.976172e-001	-1.385712e+002	-4.682300e+001	-4.242770e+001	-2.000000e+002	0.000000e+000	-2.000000e+002	0.000000e+000
38449410.000	-2.053632e-001	-1.410312e+002	-4.640785e+001	-4.713805e+001	-2.000000e+002	0.000000e+000	-2.000000e+002	0.000000e+000
39099400.000	-2.134205e-001	-1.435012e+002	-4.589656e+001	-5.165200e+001	-2.000000e+002	0.000000e+000	-2.000000e+002	0.000000e+000
39749390.000	-2.221916e-001	-1.459749e+002	-4.521644e+001	-5.498387e+001	-2.000000e+002	0.000000e+000	-2.000000e+002	0.000000e+000
40399380.000	-2.315554e-001	-1.484623e+002	-4.439454e+001	-5.896056e+001	-2.000000e+002	0.000000e+000	-2.000000e+002	0.000000e+000
41049370.000	-2.412671e-001	-1.509542e+002	-4.350788e+001	-6.214466e+001	-2.000000e+002	0.000000e+000	-2.000000e+002	0.000000e+000
41699360.000	-2.525294e-001	-1.534665e+002	-4.240084e+001	-6.578440e+001	-2.000000e+002	0.000000e+000	-2.000000e+002	0.000000e+000
42349350.000	-2.642026e-001	-1.560051e+002	-4.100417e+001	-6.998675e+001	-2.000000e+002	0.000000e+000	-2.000000e+002	0.000000e+000
42999340.000	-2.796289e-001	-1.585792e+002	-3.917640e+001	-7.513903e+001	-2.000000e+002	0.000000e+000	-2.000000e+002	0.000000e+000
43649330.000	-3.031203e-001	-1.612350e+002	-3.686786e+001	-8.199349e+001	-2.000000e+002	0.000000e+000	-2.000000e+002	0.000000e+000
44299320.000	-3.499722e-001	-1.640331e+002	-3.372676e+001	-9.306289e+001	-2.000000e+002	0.000000e+000	-2.000000e+002	0.000000e+000
44949310.000	-4.987348e-001	-1.669908e+002	-2.942524e+001	-1.160888e+002	-2.000000e+002	0.000000e+000	-2.000000e+002	0.000000e+000
45599300.000	-7.996920e-001	-1.677066e+002	-2.645172e+001	-1.715521e+002	-2.000000e+002	0.000000e+000	-2.000000e+002	0.000000e+000
46249290.000	-5.327442e-001	-1.685954e+002	-3.060860e+001	1.383677e+002	-2.000000e+002	0.000000e+000	-2.000000e+002	0.000000e+000
46899280.000	-4.080123e-001	-1.713753e+002	-3.516889e+001	1.177731e+002	-2.000000e+002	0.000000e+000	-2.000000e+002	0.000000e+000
47549270.000	-3.705435e-001	-1.741061e+002	-3.862902e+001	1.068076e+002	-2.000000e+002	0.000000e+000	-2.000000e+002	0.000000e+000
48199260.000	-3.581331e-001	-1.767414e+002	-4.134926e+001	9.940762e+001	-2.000000e+002	0.000000e+000	-2.000000e+002	0.000000e+000
48849250.000	-3.548171e-001	-1.793127e+002	-4.359063e+001	9.334678e+001	-2.000000e+002	0.000000e+000	-2.000000e+002	0.000000e+000
49499240.000	-3.563880e-001	1.781518e+002	-4.564153e+001	8.832636e+001	-2.000000e+002	0.000000e+000	-2.000000e+002	0.000000e+000
50149230.000	-3.592301e-001	1.756407e+002	-4.741466e+001	8.361622e+001	-2.000000e+002	0.000000e+000	-2.000000e+002	0.000000e+000
50799220.000	-3.634585e-001	1.731440e+002	-4.898179e+001	7.980554e+001	-2.000000e+002	0.000000e+000	-2.000000e+002	0.000000e+000
51449210.000	-3.682852e-001	1.706525e+002	-5.035632e+001	7.613137e+001	-2.000000e+002	0.000000e+000	-2.000000e+002	0.000000e+000
52099200.000	-3.732449e-001	1.681729e+002	-5.162750e+001	7.147270e+001	-2.000000e+002	0.000000e+000	-2.000000e+002	0.000000e+000
52749190.000	-3.780631e-001	1.656981e+002	-5.302493e+001	6.639096e+001	-2.000000e+002	0.000000e+000	-2.000000e+002	0.000000e+000
53399180.000	-3.831270e-001	1.632292e+002	-5.422903e+001	6.114325e+001	-2.000000e+002	0.000000e+000	-2.000000e+002	0.000000e+000
54049170.000	-3.883143e-001	1.607601e+002	-5.567875e+001	5.701865e+001	-2.000000e+002	0.000000e+000	-2.000000e+002	0.000000e+000
54699160.000	-3.936539e-001	1.582935e+002	-5.683114e+001	5.359994e+001	-2.000000e+002	0.000000e+000	-2.000000e+002	0.000000e+000
55349150.000	-3.990110e-001	1.558304e+002	-5.770313e+001	4.791401e+001	-2.000000e+002	0.000000e+000	-2.000000e+002	0.000000e+000
55999140.000	-4.046628e-001	1.533685e+002	-5.907514e+001	4.113301e+001	-2.000000e+002	0.000000e+000	-2.000000e+002	0.000000e+000
56649130.000	-4.102980e-001	1.509143e+002	-5.960123e+001	3.661753e+001	-2.000000e+002	0.000000e+000	-2.000000e+002	0.000000e+000
57299120.000	-4.155740e-001	1.484567e+002	-6.039328e+001	2.990859e+001	-2.000000e+002	0.000000e+000	-2.000000e+002	0.000000e+000
57949110.000	-4.209106e-001	1.460042e+002	-6.065830e+001	2.254669e+001	-2.000000e+002	0.000000e+000	-2.000000e+002	0.000000e+000
58599100.000	-4.264142e-001	1.435530e+002	-6.056758e+001	1.285437e+001	-2.000000e+002	0.000000e+000	-2.000000e+002	0.000000e+000
59249090.000	-4.324607e-001	1.411058e+002	-5.999813e+001	2.686617e+000	-2.000000e+002	0.000000e+000	-2.000000e+002	0.000000e+000
59899080.000	-4.384649e-001	1.386635e+002	-5.910021e+001	-1.492008e+001	-2.000000e+002	0.000000e+000	-2.000000e+002	0.000000e+000
60549070.000	-4.438700e-001	1.362340e+002	-5.845099e+001	-3.300197e+001	-2.000000e+002	0.000000e+000	-2.000000e+002	0.000000e+000
61199060.000	-4.490430e-001	1.338128e+002	-5.817256e+001	-5.539318e+001	-2.000000e+002	0.000000e+000	-2.000000e+002	0.000000e+000
61849050.000	-4.520550e-001	1.313862e+002	-5.858107e+001	-7.550270e+001	-2.000000e+002	0.000000e+000	-2.000000e+002	0.000000e+000
62499040.000	-4.541224e-001	1.289567e+002	-5.911258e+001	-8.985415e+001	-2.000000e+002	0.000000e+000	-2.000000e+002	0.000000e+000
63149030.000	-4.570942e-001	1.265244e+002	-5.954956e+001	-9.973628e+001	-2.000000e+002	0.000000e+000	-2.000000e+002	0.000000e+000
63799020.000	-4.600328e-001	1.240916e+002	-5.986762e+001	-1.083290e+002	-2.000000e+002	0.000000e+000	-2.000000e+002	0.000000e+000
64449010.000	-4.631578e-001	1.216622e+002	-6.036166e+001	-1.142745e+002	-2.000000e+002	0.000000e+000	-2.000000e+002	0.000000e+000
65099000.000	-4.658799e-001	1.192328e+002	-6.054001e+001	-1.209571e+002	-2.000000e+002	0.000000e+000	-2.000000e+002	0.000000e+000
65748990.000	-4.680747e-001	1.168007e+002	-6.080319e+001	-1.259604e+002	-2.000000e+002	0.000000e+000	-2.000000e+002	0.000000e+000
66398980.000	-4.711666e-001	1.143799e+002	-6.057561e+001	-1.297097e+002	-2.000000e+002	0.000000e+000	-2.000000e+002	0.000000e+000
67048970.000	-4.734360e-001	1.119558e+002	-6.065301e+001	-1.327136e+002	-2.000000e+002	0.000000e+000	-2.000000e+002	0.000000e+000
67698960.000	-4.764076e-001	1.095394e+002	-6.084393e+001	-1.333310e+002	-2.000000e+002	0.000000e+000	-2.000000e+002	0.000000e+000
68348950.000	-4.784002e-001	1.071188e+002	-6.040921e+001	-1.352548e+002	-2.000000e+002	0.000000e+000	-2.000000e+002	0.000000e+000
68998940.000	-4.817899e-001	1.047057e+002	-6.044701e+001	-1.374510e+002	-2.000000e+002	0.000000e+000	-2.000000e+002	0.000000e+000
69648930.000	-4.831962e-001	1.022903e+002	-6.008549e+001	-1.372676e+002	-2.000000e+002	0.000000e+000	-2.000000e+002	0.000000e+000
70298920.000	-4.850382e-001	9.987273e+001	-5.986473e+001	-1.390952e+002	-2.000000e+002	0.000000e+000	-2.000000e+002	0.000000e+000
70948910.000	-4.869610e-001	9.746623e+001	-5.956357e+001	-1.406368e+002	-2.000000e+002	0.000000e+000	-2.000000e+002	0.000000e+000
71598900.000	-4.888624e-001	9.505975e+001	-5.906443e+001	-1.428122e+002	-2.000000e+002	0.000000e+000	-2.000000e+002	0.000000e+000
72248890.000	-4.910863e-001	9.265737e+001	-5.865725e+001	-1.447921e+002	-2.000000e+002	0.000000e+000	-2.000000e+002	0.000000e+000
72898880.000	-4.926830e-001	9.025715e+001	-5.806257e+001	-1.463511e+002	-2.000000e+002	0.000000e+000	-2.000000e+002	0.000000e+000
73548870.000	-4.942551e-001	8.786619e+001	-5.761451e+001	-1.492797e+002	-2.000000e+002	0.000000e+000	-2.000000e+002	0.000000e+000
74198860.000	-4.947812e-001	8.546880e+001	-5.721879e+001	-1.532228e+002	-2.000000e+002	0.000000e+000	-2.000000e+002	0.000000e+000
74848850.000	-4.959502e-001	8.308046e+001	-5.683983e+001	-1.557782e+002	-2.000000e+002	0.000000e+000	-2.000000e+002	0.000000e+000
75498840.000	-4.958216e-001	8.069260e+001	-5.646014e+001	-1.590965e+002	-2.000000e+002	0.000000e+000	-2.000000e+002	0.000000e+000
76148830.000	-4.959271e-001	7.830726e+001	-5.630977e+001	-1.623864e+002	-2.000000e+002	0.000000e+000	-2.000000e+002	0.000000e+000
76798820.000	-4.946214e-001	7.592172e+001	-5.597184e+001	-1.665422e+002	-2.000000e+002	0.000000e+000	-2.000000e+002	0.000000e+000
77448810.000	-4.963764e-001	7.354966e+001	-5.585970e+001	-1.687677e+002	-2.000000e+002	0.000000e+000	-2.000000e+002	0.000000e+000
78098800.000	-4.956351e-001	7.116563e+001	-5.572081e+001	-1.715474e+002	-2.000000e+002	0.000000e+000	-2.000000e+002	0.000000e+000
78748790.000	-4.950245e-001	6.878547e+001	-5.542444e+001	-1.746623e+002	-2.000000e+002	0.000000e+000	-2.000000e+002	0.000000e+000
79398780.000	-4.935158e-001	6.640636e+001	-5.537025e+001	-1.783181e+002	-2.000000e+002	0.000000e+000	-2.000000e+002	0.000000e+000
80048770.000	-4.915194e-001	6.402062e+001	-5.523235e+001	1.789935e+002	-2.000000e+002	0.000000e+000	-2.000000e+002	0.000000e+000
80698760.000	-4.897797e-001	6.164398e+001	-5.517297e+001	1.759652e+002	-2.000000e+002	0.000000e+000	-2.000000e+002	0.000000e+000
81348750.000	-4.890645e-001	5.927009e+001	-5.502688e+001	1.738194e+002	-2.000000e+002	0.000000e+000	-2.000000e+002	0.000000e+000
81998740.000	-4.875371e-001	5.689544e+001	-5.497502e+001	1.711800e+002	-2.000000e+002	0.000000e+000	-2.000000e+002	0.000000e+000
82648730.000	-4.878934e-001	5.453695e+001	-5.486272e+001	1.688626e+002	-2.000000e+002	0.000000e+000	-2.000000e+002	0.000000e+000
83298720.000	-4.871330e-001	5.217107e+001	-5.487389e+001	1.664693e+002	-2.000000e+002	0.000000e+000	-2.000000e+002	0.000000e+000
83948710.000	-4.850573e-001	4.979708e+001	-5.485071e+001	1.643870e+002	-2.000000e+002	0.000000e+000	-2.000000e+002	0.000000e+000
84598700.000	-4.829743e-001	4.743122e+001	-5.467993e+001	1.629190e+002	-2.000000e+002	0.000000e+000	-2.000000e+002	0.000000e+000
85248690.000	-4.818620e-001	4.506800e+001	-5.458647e+001	1.619593e+002	-2.000000e+002	0.000000e+000	-2.000000e+002	0.000000e+000
85898680.000	-4.798929e-001	4.270530e+001	-5.444215e+001	1.595953e+002	-2.000000e+002	0.000000e+000	-2.000000e+002	0.000000e+000
86548670.000	-4.785545e-001	4.034920e+001	-5.428454e+001	1.578946e+002	-2.000000e+002	0.000000e+000	-2.000000e+002	0.000000e+000
87198660.000	-4.759960e-001	3.799470e+001	-5.417373e+001	1.563514e+002	-2.000000e+002	0.000000e+000	-2.000000e+002	0.000000e+000
87848650.000	-4.734607e-001	3.564048e+001	-5.401639e+001	1.549840e+002	-2.000000e+002	0.000000e+000	-2.000000e+002	0.000000e+000
88498640.000	-4.711496e-001	3.328659e+001	-5.388977e+001	1.533075e+002	-2.000000e+002	0.000000e+000	-2.000000e+002	0.000000e+000
89148630.000	-4.696138e-001	3.093869e+001	-5.372230e+001	1.521052e+002	-2.000000e+002	0.000000e+000	-2.000000e+002	0.000000e+000
89798620.000	-4.669125e-001	2.858819e+001	-5.350731e+001	1.503434e+002	-2.000000e+002	0.000000e+000	-2.000000e+002	0.000000e+000
90448610.000	-4.645914e-001	2.623520e+001	-5.321222e+001	1.494029e+002	-2.000000e+002	0.000000e+000	-2.000000e+002	0.000000e+000
91098600.000	-4.631523e-001	2.388641e+001	-5.285988e+001	1.479933e+002	-2.000000e+002	0.000000e+000	-2.000000e+002	0.000000e+000
91748590.000	-4.606532e-001	2.153866e+001	-5.261804e+001	1.456370e+002	-2.000000e+002	0.000000e+000	-2.000000e+002	0.000000e+000
92398580.000	-4.578709e-001	1.919025e+001	-5.227809e+001	1.427654e+002	-2.000000e+002	0.000000e+000	-2.000000e+002	0.000000e+000
93048570.000	-4.555557e-001	1.683833e+001	-5.185660e+001	1.389685e+002	-2.000000e+002	0.000000e+000	-2.000000e+002	0.000000e+000
93698560.000	-4.533759e-001	1.449548e+001	-5.185546e+001	1.387374e+002	-2.000000e+002	0.000000e+000	-2.000000e+002	0.000000e+000
94348550.000	-4.511170e-001	1.215318e+001	-5.163093e+001	1.366671e+002	-2.000000e+002	0.000000e+000	-2.000000e+002	0.000000e+000
94998540.000	-4.481238e-001	9.812109e+000	-5.126810e+001	1.332373e+002	-2.000000e+002	0.000000e+000	-2.000000e+002	0.000000e+000
95648530.000	-4.457114e-001	7.473863e+000	-5.115847e+001	1.319283e+002	-2.000000e+002	0.000000e+000	-2.000000e+002	0.000000e+000
96298520.000	-4.430702e-001	5.137224e+000	-5.092357e+001	1.297306e+002	-2.000000e+002	0.000000e+000	-2.000000e+002	0.000000e+000
96948510.000	-4.411346e-001	2.798734e+000	-5.057863e+001	1.281655e+002	-2.000000e+002	0.000000e+000	-2.000000e+002	0.000000e+000
97598500.000	-4.392686e-001	4.730191e-001	-5.016594e+001	1.259073e+002	-2.000000e+002	0.000000e+000	-2.000000e+002	0.000000e+000
98248490.000	-4.356173e-001	-1.860691e+000	-4.979806e+001	1.228105e+002	-2.000000e+002	0.000000e+000	-2.000000e+002	0.000000e+000
