!Keysight Technologies,E5063A,MY54503115,A.05.08
!Date: Sun Feb 04 18:22:36 2024
!Data & Calibration Information:
!Freq	S11:NONE(--)	S21:NONE(--)	S12:NONE(--)	S22:NONE(--)
# Hz S dB R 50
100000.000	4.446802e-002	-7.687182e-001	-9.453736e+001	1.699586e+001	-2.000000e+002	0.000000e+000	-2.000000e+002	0.000000e+000
749990.000	1.058322e-002	-3.039136e+000	-8.450460e+001	-1.243229e+002	-2.000000e+002	0.000000e+000	-2.000000e+002	0.000000e+000
1399980.000	1.240084e-002	-5.357147e+000	-8.712964e+001	1.230783e+002	-2.000000e+002	0.000000e+000	-2.000000e+002	0.000000e+000
2049970.000	1.067683e-002	-7.680035e+000	-8.201011e+001	1.100621e+002	-2.000000e+002	0.000000e+000	-2.000000e+002	0.000000e+000
2699960.000	1.225798e-002	-1.000335e+001	-7.715120e+001	6.357540e+001	-2.000000e+002	0.000000e+000	-2.000000e+002	0.000000e+000
3349950.000	1.516392e-002	-1.234715e+001	-7.632575e+001	9.467297e+001	-2.000000e+002	0.000000e+000	-2.000000e+002	0.000000e+000
3999940.000	1.409458e-002	-1.468548e+001	-7.240481e+001	9.545175e+001	-2.000000e+002	0.000000e+000	-2.000000e+002	0.000000e+000
4649930.000	1.695572e-002	-1.701935e+001	-7.356829e+001	6.478082e+001	-2.000000e+002	0.000000e+000	-2.000000e+002	0.000000e+000
5299920.000	1.506261e-002	-1.935492e+001	-7.186619e+001	7.111344e+001	-2.000000e+002	0.000000e+000	-2.000000e+002	0.000000e+000
5949910.000	1.620266e-002	-2.170287e+001	-7.023121e+001	6.954287e+001	-2.000000e+002	0.000000e+000	-2.000000e+002	0.000000e+000
6599900.000	1.576623e-002	-2.402912e+001	-7.008472e+001	6.915079e+001	-2.000000e+002	0.000000e+000	-2.000000e+002	0.000000e+000
7249890.000	1.544321e-002	-2.637918e+001	-6.870615e+001	6.948249e+001	-2.000000e+002	0.000000e+000	-2.000000e+002	0.000000e+000
7899880.000	1.408610e-002	-2.872215e+001	-6.784339e+001	6.065190e+001	-2.000000e+002	0.000000e+000	-2.000000e+002	0.000000e+000
8549870.000	1.917747e-002	-3.106158e+001	-6.790989e+001	5.862149e+001	-2.000000e+002	0.000000e+000	-2.000000e+002	0.000000e+000
9199860.000	1.788555e-002	-3.340757e+001	-6.732836e+001	5.768767e+001	-2.000000e+002	0.000000e+000	-2.000000e+002	0.000000e+000
9849850.000	1.669005e-002	-3.575221e+001	-6.647523e+001	5.431242e+001	-2.000000e+002	0.000000e+000	-2.000000e+002	0.000000e+000
10499840.000	1.395672e-002	-3.809556e+001	-6.615577e+001	5.351558e+001	-2.000000e+002	0.000000e+000	-2.000000e+002	0.000000e+000
11149830.000	1.123559e-002	-4.043990e+001	-6.523486e+001	5.169015e+001	-2.000000e+002	0.000000e+000	-2.000000e+002	0.000000e+000
11799820.000	1.024204e-002	-4.278698e+001	-6.485654e+001	5.030273e+001	-2.000000e+002	0.000000e+000	-2.000000e+002	0.000000e+000
12449810.000	1.017008e-002	-4.513808e+001	-6.467698e+001	4.710941e+001	-2.000000e+002	0.000000e+000	-2.000000e+002	0.000000e+000
13099800.000	1.123266e-002	-4.748066e+001	-6.425328e+001	4.339183e+001	-2.000000e+002	0.000000e+000	-2.000000e+002	0.000000e+000
13749790.000	8.480143e-003	-4.982998e+001	-6.386606e+001	4.198048e+001	-2.000000e+002	0.000000e+000	-2.000000e+002	0.000000e+000
14399780.000	6.047936e-003	-5.219402e+001	-6.368878e+001	4.134981e+001	-2.000000e+002	0.000000e+000	-2.000000e+002	0.000000e+000
15049770.000	6.086044e-003	-5.454520e+001	-6.277864e+001	3.861881e+001	-2.000000e+002	0.000000e+000	-2.000000e+002	0.000000e+000
15699760.000	4.556844e-003	-5.689374e+001	-6.263218e+001	3.578144e+001	-2.000000e+002	0.000000e+000	-2.000000e+002	0.000000e+000
16349750.000	3.132714e-003	-5.924919e+001	-6.235871e+001	3.292896e+001	-2.000000e+002	0.000000e+000	-2.000000e+002	0.000000e+000
16999740.000	1.153964e-003	-6.162282e+001	-6.176307e+001	3.288767e+001	-2.000000e+002	0.000000e+000	-2.000000e+002	0.000000e+000
17649730.000	5.248404e-003	-6.399690e+001	-6.116988e+001	3.144901e+001	-2.000000e+002	0.000000e+000	-2.000000e+002	0.000000e+000
18299720.000	6.609332e-003	-6.637311e+001	-6.059512e+001	2.833700e+001	-2.000000e+002	0.000000e+000	-2.000000e+002	0.000000e+000
18949710.000	3.771132e-003	-6.874756e+001	-6.012671e+001	2.583080e+001	-2.000000e+002	0.000000e+000	-2.000000e+002	0.000000e+000
19599700.000	-4.378515e-003	-7.112282e+001	-5.962571e+001	2.210213e+001	-2.000000e+002	0.000000e+000	-2.000000e+002	0.000000e+000
20249690.000	-1.105398e-002	-7.350184e+001	-5.932882e+001	1.838104e+001	-2.000000e+002	0.000000e+000	-2.000000e+002	0.000000e+000
20899680.000	-1.511913e-002	-7.591155e+001	-5.936167e+001	1.642367e+001	-2.000000e+002	0.000000e+000	-2.000000e+002	0.000000e+000
21549670.000	-1.932729e-002	-7.830130e+001	-5.906949e+001	1.333972e+001	-2.000000e+002	0.000000e+000	-2.000000e+002	0.000000e+000
22199660.000	-2.445365e-002	-8.068266e+001	-5.883044e+001	1.238028e+001	-2.000000e+002	0.000000e+000	-2.000000e+002	0.000000e+000
22849650.000	-2.932893e-002	-8.304657e+001	-5.870039e+001	9.181594e+000	-2.000000e+002	0.000000e+000	-2.000000e+002	0.000000e+000
23499640.000	-3.587783e-002	-8.543368e+001	-5.851787e+001	8.646463e+000	-2.000000e+002	0.000000e+000	-2.000000e+002	0.000000e+000
24149630.000	-4.300021e-002	-8.783528e+001	-5.821673e+001	9.583325e+000	-2.000000e+002	0.000000e+000	-2.000000e+002	0.000000e+000
24799620.000	-4.875467e-002	-9.022266e+001	-5.757181e+001	7.228168e+000	-2.000000e+002	0.000000e+000	-2.000000e+002	0.000000e+000
25449610.000	-5.314799e-002	-9.260607e+001	-5.709297e+001	4.891161e+000	-2.000000e+002	0.000000e+000	-2.000000e+002	0.000000e+000
26099600.000	-5.934526e-002	-9.499937e+001	-5.665557e+001	2.095708e+000	-2.000000e+002	0.000000e+000	-2.000000e+002	0.000000e+000
26749590.000	-6.658927e-002	-9.740329e+001	-5.635901e+001	-1.112671e+000	-2.000000e+002	0.000000e+000	-2.000000e+002	0.000000e+000
27399580.000	-7.361999e-002	-9.980149e+001	-5.602095e+001	-2.770691e+000	-2.000000e+002	0.000000e+000	-2.000000e+002	0.000000e+000
28049570.000	-7.987650e-002	-1.022026e+002	-5.583024e+001	-4.194344e+000	-2.000000e+002	0.000000e+000	-2.000000e+002	0.000000e+000
28699560.000	-8.655993e-002	-1.046044e+002	-5.523221e+001	-7.418708e+000	-2.000000e+002	0.000000e+000	-2.000000e+002	0.000000e+000
29349550.000	-9.382487e-002	-1.070164e+002	-5.489862e+001	-1.084589e+001	-2.000000e+002	0.000000e+000	-2.000000e+002	0.000000e+000
29999540.000	-1.005741e-001	-1.094274e+002	-5.486613e+001	-1.220521e+001	-2.000000e+002	0.000000e+000	-2.000000e+002	0.000000e+000
30649530.000	-1.078217e-001	-1.118444e+002	-5.458388e+001	-1.591825e+001	-2.000000e+002	0.000000e+000	-2.000000e+002	0.000000e+000
31299520.000	-1.147341e-001	-1.142629e+002	-5.437094e+001	-1.783280e+001	-2.000000e+002	0.000000e+000	-2.000000e+002	0.000000e+000
31949510.000	-1.224466e-001	-1.166886e+002	-5.415315e+001	-1.923153e+001	-2.000000e+002	0.000000e+000	-2.000000e+002	0.000000e+000
32599500.000	-1.316242e-001	-1.191169e+002	-5.407705e+001	-2.017749e+001	-2.000000e+002	0.000000e+000	-2.000000e+002	0.000000e+000
33249490.000	-1.400358e-001	-1.215459e+002	-5.388228e+001	-1.949740e+001	-2.000000e+002	0.000000e+000	-2.000000e+002	0.000000e+000
33899480.000	-1.499025e-001	-1.239763e+002	-5.347787e+001	-1.704159e+001	-2.000000e+002	0.000000e+000	-2.000000e+002	0.000000e+000
34549470.000	-1.605036e-001	-1.264022e+002	-5.275685e+001	-1.584693e+001	-2.000000e+002	0.000000e+000	-2.000000e+002	0.000000e+000
35199460.000	-1.712112e-001	-1.288278e+002	-5.149868e+001	-1.381645e+001	-2.000000e+002	0.000000e+000	-2.000000e+002	0.000000e+000
35849450.000	-1.808302e-001	-1.312459e+002	-5.003219e+001	-1.722913e+001	-2.000000e+002	0.000000e+000	-2.000000e+002	0.000000e+000
36499440.000	-1.892190e-001	-1.336631e+002	-4.876671e+001	-2.266513e+001	-2.000000e+002	0.000000e+000	-2.000000e+002	0.000000e+000
37149430.000	-1.956981e-001	-1.360926e+002	-4.779311e+001	-2.955284e+001	-2.000000e+002	0.000000e+000	-2.000000e+002	0.000000e+000
37799420.000	-2.010958e-001	-1.385302e+002	-4.717407e+001	-3.786608e+001	-2.000000e+002	0.000000e+000	-2.000000e+002	0.000000e+000
38449410.000	-2.073908e-001	-1.409866e+002	-4.687790e+001	-4.399048e+001	-2.000000e+002	0.000000e+000	-2.000000e+002	0.000000e+000
39099400.000	-2.150515e-001	-1.434491e+002	-4.664224e+001	-4.847878e+001	-2.000000e+002	0.000000e+000	-2.000000e+002	0.000000e+000
39749390.000	-2.232256e-001	-1.459167e+002	-4.629612e+001	-5.206538e+001	-2.000000e+002	0.000000e+000	-2.000000e+002	0.000000e+000
40399380.000	-2.321205e-001	-1.483891e+002	-4.586143e+001	-5.500211e+001	-2.000000e+002	0.000000e+000	-2.000000e+002	0.000000e+000
41049370.000	-2.414619e-001	-1.508626e+002	-4.525751e+001	-5.810721e+001	-2.000000e+002	0.000000e+000	-2.000000e+002	0.000000e+000
41699360.000	-2.512332e-001	-1.533475e+002	-4.459602e+001	-6.049072e+001	-2.000000e+002	0.000000e+000	-2.000000e+002	0.000000e+000
42349350.000	-2.615048e-001	-1.558401e+002	-4.371957e+001	-6.335445e+001	-2.000000e+002	0.000000e+000	-2.000000e+002	0.000000e+000
42999340.000	-2.736092e-001	-1.583424e+002	-4.272908e+001	-6.605922e+001	-2.000000e+002	0.000000e+000	-2.000000e+002	0.000000e+000
43649330.000	-2.862869e-001	-1.608594e+002	-4.151816e+001	-6.862165e+001	-2.000000e+002	0.000000e+000	-2.000000e+002	0.000000e+000
44299320.000	-3.017502e-001	-1.633942e+002	-3.995926e+001	-7.226044e+001	-2.000000e+002	0.000000e+000	-2.000000e+002	0.000000e+000
44949310.000	-3.201161e-001	-1.659637e+002	-3.804553e+001	-7.694679e+001	-2.000000e+002	0.000000e+000	-2.000000e+002	0.000000e+000
45599300.000	-3.456598e-001	-1.685951e+002	-3.565590e+001	-8.384824e+001	-2.000000e+002	0.000000e+000	-2.000000e+002	0.000000e+000
46249290.000	-3.916544e-001	-1.713574e+002	-3.255809e+001	-9.470311e+001	-2.000000e+002	0.000000e+000	-2.000000e+002	0.000000e+000
46899280.000	-5.269212e-001	-1.743339e+002	-2.832372e+001	-1.148663e+002	-2.000000e+002	0.000000e+000	-2.000000e+002	0.000000e+000
47549270.000	-9.086786e-001	-1.752557e+002	-2.415636e+001	-1.674136e+002	-2.000000e+002	0.000000e+000	-2.000000e+002	0.000000e+000
48199260.000	-5.661528e-001	-1.754897e+002	-2.821480e+001	1.342219e+002	-2.000000e+002	0.000000e+000	-2.000000e+002	0.000000e+000
48849250.000	-4.160870e-001	-1.785224e+002	-3.323382e+001	1.127070e+002	-2.000000e+002	0.000000e+000	-2.000000e+002	0.000000e+000
49499240.000	-3.805978e-001	1.786445e+002	-3.686661e+001	1.021795e+002	-2.000000e+002	0.000000e+000	-2.000000e+002	0.000000e+000
50149230.000	-3.707382e-001	1.759725e+002	-3.965174e+001	9.547906e+001	-2.000000e+002	0.000000e+000	-2.000000e+002	0.000000e+000
50799220.000	-3.696423e-001	1.733815e+002	-4.194693e+001	9.029150e+001	-2.000000e+002	0.000000e+000	-2.000000e+002	0.000000e+000
51449210.000	-3.715351e-001	1.708302e+002	-4.390533e+001	8.554020e+001	-2.000000e+002	0.000000e+000	-2.000000e+002	0.000000e+000
52099200.000	-3.750371e-001	1.683110e+002	-4.563604e+001	8.126051e+001	-2.000000e+002	0.000000e+000	-2.000000e+002	0.000000e+000
52749190.000	-3.794794e-001	1.658072e+002	-4.720687e+001	7.749539e+001	-2.000000e+002	0.000000e+000	-2.000000e+002	0.000000e+000
53399180.000	-3.841857e-001	1.633151e+002	-4.868226e+001	7.370811e+001	-2.000000e+002	0.000000e+000	-2.000000e+002	0.000000e+000
54049170.000	-3.888353e-001	1.608314e+002	-4.993300e+001	7.078008e+001	-2.000000e+002	0.000000e+000	-2.000000e+002	0.000000e+000
54699160.000	-3.945708e-001	1.583533e+002	-5.118401e+001	6.702567e+001	-2.000000e+002	0.000000e+000	-2.000000e+002	0.000000e+000
55349150.000	-4.001114e-001	1.558770e+002	-5.246665e+001	6.364006e+001	-2.000000e+002	0.000000e+000	-2.000000e+002	0.000000e+000
55999140.000	-4.056122e-001	1.534138e+002	-5.343159e+001	5.885912e+001	-2.000000e+002	0.000000e+000	-2.000000e+002	0.000000e+000
56649130.000	-4.113541e-001	1.509512e+002	-5.443800e+001	5.364428e+001	-2.000000e+002	0.000000e+000	-2.000000e+002	0.000000e+000
57299120.000	-4.166239e-001	1.484927e+002	-5.528403e+001	5.054465e+001	-2.000000e+002	0.000000e+000	-2.000000e+002	0.000000e+000
57949110.000	-4.216086e-001	1.460389e+002	-5.613451e+001	4.422251e+001	-2.000000e+002	0.000000e+000	-2.000000e+002	0.000000e+000
58599100.000	-4.272766e-001	1.435830e+002	-5.684178e+001	3.575557e+001	-2.000000e+002	0.000000e+000	-2.000000e+002	0.000000e+000
59249090.000	-4.330779e-001	1.411331e+002	-5.729085e+001	2.515349e+001	-2.000000e+002	0.000000e+000	-2.000000e+002	0.000000e+000
59899080.000	-4.378932e-001	1.386878e+002	-5.825909e+001	9.496323e+000	-2.000000e+002	0.000000e+000	-2.000000e+002	0.000000e+000
60549070.000	-4.434946e-001	1.362562e+002	-5.927210e+001	-9.670519e+000	-2.000000e+002	0.000000e+000	-2.000000e+002	0.000000e+000
61199060.000	-4.476816e-001	1.338263e+002	-6.109282e+001	-2.981759e+001	-2.000000e+002	0.000000e+000	-2.000000e+002	0.000000e+000
61849050.000	-4.508030e-001	1.313933e+002	-6.351347e+001	-4.824223e+001	-2.000000e+002	0.000000e+000	-2.000000e+002	0.000000e+000
62499040.000	-4.538983e-001	1.289534e+002	-6.547102e+001	-6.645398e+001	-2.000000e+002	0.000000e+000	-2.000000e+002	0.000000e+000
63149030.000	-4.574537e-001	1.265186e+002	-6.685209e+001	-7.558710e+001	-2.000000e+002	0.000000e+000	-2.000000e+002	0.000000e+000
63799020.000	-4.609284e-001	1.240853e+002	-6.728976e+001	-8.630403e+001	-2.000000e+002	0.000000e+000	-2.000000e+002	0.000000e+000
64449010.000	-4.648019e-001	1.216611e+002	-6.701827e+001	-9.819947e+001	-2.000000e+002	0.000000e+000	-2.000000e+002	0.000000e+000
65099000.000	-4.672853e-001	1.192298e+002	-6.686246e+001	-1.083797e+002	-2.000000e+002	0.000000e+000	-2.000000e+002	0.000000e+000
65748990.000	-4.694842e-001	1.168037e+002	-6.686821e+001	-1.165514e+002	-2.000000e+002	0.000000e+000	-2.000000e+002	0.000000e+000
66398980.000	-4.726042e-001	1.143768e+002	-6.690136e+001	-1.214753e+002	-2.000000e+002	0.000000e+000	-2.000000e+002	0.000000e+000
67048970.000	-4.752308e-001	1.119497e+002	-6.624505e+001	-1.213260e+002	-2.000000e+002	0.000000e+000	-2.000000e+002	0.000000e+000
67698960.000	-4.781549e-001	1.095354e+002	-6.580817e+001	-1.240621e+002	-2.000000e+002	0.000000e+000	-2.000000e+002	0.000000e+000
68348950.000	-4.799929e-001	1.071122e+002	-6.508123e+001	-1.284351e+002	-2.000000e+002	0.000000e+000	-2.000000e+002	0.000000e+000
68998940.000	-4.831344e-001	1.046992e+002	-6.497266e+001	-1.271321e+002	-2.000000e+002	0.000000e+000	-2.000000e+002	0.000000e+000
69648930.000	-4.854054e-001	1.022830e+002	-6.412043e+001	-1.279723e+002	-2.000000e+002	0.000000e+000	-2.000000e+002	0.000000e+000
70298920.000	-4.859680e-001	9.986881e+001	-6.371618e+001	-1.288328e+002	-2.000000e+002	0.000000e+000	-2.000000e+002	0.000000e+000
70948910.000	-4.890119e-001	9.745827e+001	-6.296681e+001	-1.306239e+002	-2.000000e+002	0.000000e+000	-2.000000e+002	0.000000e+000
71598900.000	-4.903536e-001	9.505370e+001	-6.214144e+001	-1.328783e+002	-2.000000e+002	0.000000e+000	-2.000000e+002	0.000000e+000
72248890.000	-4.927915e-001	9.264958e+001	-6.148179e+001	-1.342204e+002	-2.000000e+002	0.000000e+000	-2.000000e+002	0.000000e+000
72898880.000	-4.939780e-001	9.024965e+001	-6.062055e+001	-1.363125e+002	-2.000000e+002	0.000000e+000	-2.000000e+002	0.000000e+000
73548870.000	-4.960765e-001	8.785442e+001	-5.986350e+001	-1.390808e+002	-2.000000e+002	0.000000e+000	-2.000000e+002	0.000000e+000
74198860.000	-4.972154e-001	8.546241e+001	-5.929885e+001	-1.418042e+002	-2.000000e+002	0.000000e+000	-2.000000e+002	0.000000e+000
74848850.000	-4.988284e-001	8.306909e+001	-5.858694e+001	-1.461436e+002	-2.000000e+002	0.000000e+000	-2.000000e+002	0.000000e+000
75498840.000	-4.991836e-001	8.068496e+001	-5.798861e+001	-1.505763e+002	-2.000000e+002	0.000000e+000	-2.000000e+002	0.000000e+000
76148830.000	-4.986008e-001	7.829913e+001	-5.764496e+001	-1.551452e+002	-2.000000e+002	0.000000e+000	-2.000000e+002	0.000000e+000
76798820.000	-4.979415e-001	7.591754e+001	-5.734881e+001	-1.606824e+002	-2.000000e+002	0.000000e+000	-2.000000e+002	0.000000e+000
77448810.000	-4.985143e-001	7.354489e+001	-5.734319e+001	-1.643084e+002	-2.000000e+002	0.000000e+000	-2.000000e+002	0.000000e+000
78098800.000	-4.981840e-001	7.116031e+001	-5.700289e+001	-1.664758e+002	-2.000000e+002	0.000000e+000	-2.000000e+002	0.000000e+000
78748790.000	-4.972672e-001	6.877961e+001	-5.694051e+001	-1.699052e+002	-2.000000e+002	0.000000e+000	-2.000000e+002	0.000000e+000
79398780.000	-4.959848e-001	6.639937e+001	-5.688159e+001	-1.730276e+002	-2.000000e+002	0.000000e+000	-2.000000e+002	0.000000e+000
80048770.000	-4.937840e-001	6.401202e+001	-5.669731e+001	-1.757367e+002	-2.000000e+002	0.000000e+000	-2.000000e+002	0.000000e+000
80698760.000	-4.932475e-001	6.163610e+001	-5.665906e+001	-1.776580e+002	-2.000000e+002	0.000000e+000	-2.000000e+002	0.000000e+000
81348750.000	-4.917547e-001	5.926009e+001	-5.670554e+001	-1.793360e+002	-2.000000e+002	0.000000e+000	-2.000000e+002	0.000000e+000
81998740.000	-4.906267e-001	5.688631e+001	-5.656977e+001	-1.797950e+002	-2.000000e+002	0.000000e+000	-2.000000e+002	0.000000e+000
82648730.000	-4.910459e-001	5.452470e+001	-5.641539e+001	1.790874e+002	-2.000000e+002	0.000000e+000	-2.000000e+002	0.000000e+000
83298720.000	-4.908892e-001	5.215363e+001	-5.620125e+001	1.779712e+002	-2.000000e+002	0.000000e+000	-2.000000e+002	0.000000e+000
83948710.000	-4.895261e-001	4.978657e+001	-5.596539e+001	1.773466e+002	-2.000000e+002	0.000000e+000	-2.000000e+002	0.000000e+000
84598700.000	-4.885184e-001	4.742109e+001	-5.567934e+001	1.757227e+002	-2.000000e+002	0.000000e+000	-2.000000e+002	0.000000e+000
85248690.000	-4.874337e-001	4.505769e+001	-5.510256e+001	1.747644e+002	-2.000000e+002	0.000000e+000	-2.000000e+002	0.000000e+000
85898680.000	-4.861093e-001	4.269973e+001	-5.486681e+001	1.732508e+002	-2.000000e+002	0.000000e+000	-2.000000e+002	0.000000e+000
86548670.000	-4.842249e-001	4.034587e+001	-5.444897e+001	1.707352e+002	-2.000000e+002	0.000000e+000	-2.000000e+002	0.000000e+000
87198660.000	-4.821837e-001	3.799284e+001	-5.411948e+001	1.675028e+002	-2.000000e+002	0.000000e+000	-2.000000e+002	0.000000e+000
87848650.000	-4.802056e-001	3.564423e+001	-5.397528e+001	1.652558e+002	-2.000000e+002	0.000000e+000	-2.000000e+002	0.000000e+000
88498640.000	-4.771368e-001	3.329555e+001	-5.375847e+001	1.619220e+002	-2.000000e+002	0.000000e+000	-2.000000e+002	0.000000e+000
89148630.000	-4.743060e-001	3.094628e+001	-5.380401e+001	1.592295e+002	-2.000000e+002	0.000000e+000	-2.000000e+002	0.000000e+000
89798620.000	-4.712254e-001	2.859404e+001	-5.382563e+001	1.573052e+002	-2.000000e+002	0.000000e+000	-2.000000e+002	0.000000e+000
90448610.000	-4.684174e-001	2.624086e+001	-5.382176e+001	1.569357e+002	-2.000000e+002	0.000000e+000	-2.000000e+002	0.000000e+000
91098600.000	-4.667109e-001	2.388639e+001	-5.366480e+001	1.569852e+002	-2.000000e+002	0.000000e+000	-2.000000e+002	0.000000e+000
91748590.000	-4.646102e-001	2.153079e+001	-5.341831e+001	1.581996e+002	-2.000000e+002	0.000000e+000	-2.000000e+002	0.000000e+000
92398580.000	-4.618621e-001	1.918198e+001	-5.304382e+001	1.566868e+002	-2.000000e+002	0.000000e+000	-2.000000e+002	0.000000e+000
93048570.000	-4.591030e-001	1.683597e+001	-5.258258e+001	1.566214e+002	-2.000000e+002	0.000000e+000	-2.000000e+002	0.000000e+000
93698560.000	-4.587853e-001	1.448660e+001	-5.216739e+001	1.550675e+002	-2.000000e+002	0.000000e+000	-2.000000e+002	0.000000e+000
94348550.000	-4.572578e-001	1.214009e+001	-5.161067e+001	1.541188e+002	-2.000000e+002	0.000000e+000	-2.000000e+002	0.000000e+000
94998540.000	-4.545055e-001	9.798661e+000	-5.127202e+001	1.519856e+002	-2.000000e+002	0.000000e+000	-2.000000e+002	0.000000e+000
95648530.000	-4.537677e-001	7.465359e+000	-5.058419e+001	1.508579e+002	-2.000000e+002	0.000000e+000	-2.000000e+002	0.000000e+000
96298520.000	-4.521194e-001	5.129918e+000	-5.001189e+001	1.493179e+002	-2.000000e+002	0.000000e+000	-2.000000e+002	0.000000e+000
96948510.000	-4.514307e-001	2.799152e+000	-4.925880e+001	1.467672e+002	-2.000000e+002	0.000000e+000	-2.000000e+002	0.000000e+000
97598500.000	-4.506025e-001	4.788823e-001	-4.853550e+001	1.433106e+002	-2.000000e+002	0.000000e+000	-2.000000e+002	0.000000e+000
98248490.000	-4.470861e-001	-1.842744e+000	-4.796465e+001	1.390838e+002	-2.000000e+002	0.000000e+000	-2.000000e+002	0.000000e+000
