!Keysight Technologies,E5063A,MY54503115,A.05.08
!Date: Sun Feb 04 18:41:09 2024
!Data & Calibration Information:
!Freq	S11:NONE(--)	S21:NONE(--)	S12:NONE(--)	S22:NONE(--)
# Hz S dB R 50
100000.000	4.782493e-002	-8.005576e-001	-8.550657e+001	9.251092e+001	-2.000000e+002	0.000000e+000	-2.000000e+002	0.000000e+000
749990.000	8.015899e-003	-3.056751e+000	-8.696908e+001	1.275456e+002	-2.000000e+002	0.000000e+000	-2.000000e+002	0.000000e+000
1399980.000	1.114637e-002	-5.358064e+000	-8.621136e+001	1.269784e+002	-2.000000e+002	0.000000e+000	-2.000000e+002	0.000000e+000
2049970.000	1.079190e-002	-7.688072e+000	-7.481063e+001	1.372436e+002	-2.000000e+002	0.000000e+000	-2.000000e+002	0.000000e+000
2699960.000	1.073782e-002	-1.001550e+001	-7.776250e+001	9.541802e+001	-2.000000e+002	0.000000e+000	-2.000000e+002	0.000000e+000
3349950.000	1.542610e-002	-1.234833e+001	-7.554845e+001	8.032497e+001	-2.000000e+002	0.000000e+000	-2.000000e+002	0.000000e+000
3999940.000	1.342278e-002	-1.468766e+001	-7.364678e+001	6.939627e+001	-2.000000e+002	0.000000e+000	-2.000000e+002	0.000000e+000
4649930.000	1.634850e-002	-1.702193e+001	-7.421646e+001	6.841249e+001	-2.000000e+002	0.000000e+000	-2.000000e+002	0.000000e+000
5299920.000	1.523653e-002	-1.935490e+001	-7.161309e+001	6.848529e+001	-2.000000e+002	0.000000e+000	-2.000000e+002	0.000000e+000
5949910.000	1.417999e-002	-2.170850e+001	-7.072360e+001	6.725490e+001	-2.000000e+002	0.000000e+000	-2.000000e+002	0.000000e+000
6599900.000	1.491223e-002	-2.403766e+001	-6.982845e+001	7.431661e+001	-2.000000e+002	0.000000e+000	-2.000000e+002	0.000000e+000
7249890.000	1.452302e-002	-2.638290e+001	-6.899082e+001	6.261305e+001	-2.000000e+002	0.000000e+000	-2.000000e+002	0.000000e+000
7899880.000	1.531883e-002	-2.872699e+001	-6.940627e+001	6.706397e+001	-2.000000e+002	0.000000e+000	-2.000000e+002	0.000000e+000
8549870.000	1.869232e-002	-3.106834e+001	-6.793439e+001	6.310053e+001	-2.000000e+002	0.000000e+000	-2.000000e+002	0.000000e+000
9199860.000	1.757289e-002	-3.341290e+001	-6.763864e+001	5.839160e+001	-2.000000e+002	0.000000e+000	-2.000000e+002	0.000000e+000
9849850.000	1.699379e-002	-3.575773e+001	-6.688514e+001	5.650245e+001	-2.000000e+002	0.000000e+000	-2.000000e+002	0.000000e+000
10499840.000	1.422535e-002	-3.810271e+001	-6.656884e+001	5.758635e+001	-2.000000e+002	0.000000e+000	-2.000000e+002	0.000000e+000
11149830.000	1.138104e-002	-4.043926e+001	-6.556403e+001	5.406501e+001	-2.000000e+002	0.000000e+000	-2.000000e+002	0.000000e+000
11799820.000	9.516030e-003	-4.278874e+001	-6.598887e+001	5.080728e+001	-2.000000e+002	0.000000e+000	-2.000000e+002	0.000000e+000
12449810.000	9.712702e-003	-4.514287e+001	-6.493944e+001	4.720807e+001	-2.000000e+002	0.000000e+000	-2.000000e+002	0.000000e+000
13099800.000	1.093817e-002	-4.749041e+001	-6.418474e+001	4.382226e+001	-2.000000e+002	0.000000e+000	-2.000000e+002	0.000000e+000
13749790.000	8.102385e-003	-4.983346e+001	-6.390724e+001	4.206746e+001	-2.000000e+002	0.000000e+000	-2.000000e+002	0.000000e+000
14399780.000	5.783626e-003	-5.219810e+001	-6.358331e+001	4.214071e+001	-2.000000e+002	0.000000e+000	-2.000000e+002	0.000000e+000
15049770.000	5.852755e-003	-5.455223e+001	-6.311697e+001	3.879255e+001	-2.000000e+002	0.000000e+000	-2.000000e+002	0.000000e+000
15699760.000	4.389200e-003	-5.689720e+001	-6.265135e+001	3.844102e+001	-2.000000e+002	0.000000e+000	-2.000000e+002	0.000000e+000
16349750.000	3.181259e-003	-5.925321e+001	-6.249332e+001	3.402081e+001	-2.000000e+002	0.000000e+000	-2.000000e+002	0.000000e+000
16999740.000	1.030418e-003	-6.162668e+001	-6.183197e+001	3.415895e+001	-2.000000e+002	0.000000e+000	-2.000000e+002	0.000000e+000
17649730.000	5.489530e-003	-6.400098e+001	-6.123537e+001	3.248421e+001	-2.000000e+002	0.000000e+000	-2.000000e+002	0.000000e+000
18299720.000	6.340063e-003	-6.637212e+001	-6.070419e+001	3.019147e+001	-2.000000e+002	0.000000e+000	-2.000000e+002	0.000000e+000
18949710.000	3.172122e-003	-6.875031e+001	-5.997405e+001	2.600394e+001	-2.000000e+002	0.000000e+000	-2.000000e+002	0.000000e+000
19599700.000	-4.934241e-003	-7.111925e+001	-5.974367e+001	2.243162e+001	-2.000000e+002	0.000000e+000	-2.000000e+002	0.000000e+000
20249690.000	-1.121382e-002	-7.350157e+001	-5.952949e+001	1.879111e+001	-2.000000e+002	0.000000e+000	-2.000000e+002	0.000000e+000
20899680.000	-1.525012e-002	-7.590822e+001	-5.930613e+001	1.682860e+001	-2.000000e+002	0.000000e+000	-2.000000e+002	0.000000e+000
21549670.000	-1.978493e-002	-7.829572e+001	-5.917149e+001	1.380648e+001	-2.000000e+002	0.000000e+000	-2.000000e+002	0.000000e+000
22199660.000	-2.433343e-002	-8.067719e+001	-5.906374e+001	1.267976e+001	-2.000000e+002	0.000000e+000	-2.000000e+002	0.000000e+000
22849650.000	-2.878384e-002	-8.303707e+001	-5.868271e+001	1.028556e+001	-2.000000e+002	0.000000e+000	-2.000000e+002	0.000000e+000
23499640.000	-3.564069e-002	-8.542918e+001	-5.863283e+001	9.555285e+000	-2.000000e+002	0.000000e+000	-2.000000e+002	0.000000e+000
24149630.000	-4.221714e-002	-8.782897e+001	-5.811355e+001	8.741044e+000	-2.000000e+002	0.000000e+000	-2.000000e+002	0.000000e+000
24799620.000	-4.800024e-002	-9.021436e+001	-5.758412e+001	7.885613e+000	-2.000000e+002	0.000000e+000	-2.000000e+002	0.000000e+000
25449610.000	-5.227114e-002	-9.260122e+001	-5.709687e+001	4.604553e+000	-2.000000e+002	0.000000e+000	-2.000000e+002	0.000000e+000
26099600.000	-5.841990e-002	-9.499237e+001	-5.668137e+001	1.805661e+000	-2.000000e+002	0.000000e+000	-2.000000e+002	0.000000e+000
26749590.000	-6.482306e-002	-9.739236e+001	-5.639692e+001	-6.200684e-001	-2.000000e+002	0.000000e+000	-2.000000e+002	0.000000e+000
27399580.000	-7.153024e-002	-9.979227e+001	-5.586565e+001	-3.074449e+000	-2.000000e+002	0.000000e+000	-2.000000e+002	0.000000e+000
28049570.000	-7.789195e-002	-1.021957e+002	-5.552490e+001	-6.331302e+000	-2.000000e+002	0.000000e+000	-2.000000e+002	0.000000e+000
28699560.000	-8.438934e-002	-1.045974e+002	-5.514127e+001	-8.880207e+000	-2.000000e+002	0.000000e+000	-2.000000e+002	0.000000e+000
29349550.000	-9.127846e-002	-1.070030e+002	-5.472518e+001	-1.076725e+001	-2.000000e+002	0.000000e+000	-2.000000e+002	0.000000e+000
29999540.000	-9.846063e-002	-1.094182e+002	-5.460266e+001	-1.528721e+001	-2.000000e+002	0.000000e+000	-2.000000e+002	0.000000e+000
30649530.000	-1.054590e-001	-1.118331e+002	-5.437453e+001	-1.663131e+001	-2.000000e+002	0.000000e+000	-2.000000e+002	0.000000e+000
31299520.000	-1.123498e-001	-1.142551e+002	-5.413773e+001	-1.921303e+001	-2.000000e+002	0.000000e+000	-2.000000e+002	0.000000e+000
31949510.000	-1.202895e-001	-1.166776e+002	-5.404251e+001	-2.069263e+001	-2.000000e+002	0.000000e+000	-2.000000e+002	0.000000e+000
32599500.000	-1.285328e-001	-1.191107e+002	-5.393297e+001	-2.216364e+001	-2.000000e+002	0.000000e+000	-2.000000e+002	0.000000e+000
33249490.000	-1.368860e-001	-1.215377e+002	-5.388553e+001	-2.190021e+001	-2.000000e+002	0.000000e+000	-2.000000e+002	0.000000e+000
33899480.000	-1.468632e-001	-1.239748e+002	-5.355589e+001	-1.838411e+001	-2.000000e+002	0.000000e+000	-2.000000e+002	0.000000e+000
34549470.000	-1.583149e-001	-1.264030e+002	-5.275266e+001	-1.427202e+001	-2.000000e+002	0.000000e+000	-2.000000e+002	0.000000e+000
35199460.000	-1.698312e-001	-1.288202e+002	-5.079025e+001	-1.158810e+001	-2.000000e+002	0.000000e+000	-2.000000e+002	0.000000e+000
35849450.000	-1.788430e-001	-1.312227e+002	-4.882852e+001	-1.897648e+001	-2.000000e+002	0.000000e+000	-2.000000e+002	0.000000e+000
36499440.000	-1.840345e-001	-1.336447e+002	-4.794219e+001	-2.807406e+001	-2.000000e+002	0.000000e+000	-2.000000e+002	0.000000e+000
37149430.000	-1.899124e-001	-1.360876e+002	-4.734304e+001	-3.557285e+001	-2.000000e+002	0.000000e+000	-2.000000e+002	0.000000e+000
37799420.000	-1.961923e-001	-1.385389e+002	-4.691809e+001	-4.184336e+001	-2.000000e+002	0.000000e+000	-2.000000e+002	0.000000e+000
38449410.000	-2.034668e-001	-1.409964e+002	-4.655374e+001	-4.686145e+001	-2.000000e+002	0.000000e+000	-2.000000e+002	0.000000e+000
39099400.000	-2.119118e-001	-1.434640e+002	-4.610271e+001	-5.105851e+001	-2.000000e+002	0.000000e+000	-2.000000e+002	0.000000e+000
39749390.000	-2.199145e-001	-1.459315e+002	-4.558275e+001	-5.448358e+001	-2.000000e+002	0.000000e+000	-2.000000e+002	0.000000e+000
40399380.000	-2.285382e-001	-1.484092e+002	-4.491307e+001	-5.826848e+001	-2.000000e+002	0.000000e+000	-2.000000e+002	0.000000e+000
41049370.000	-2.380020e-001	-1.508955e+002	-4.412312e+001	-6.106860e+001	-2.000000e+002	0.000000e+000	-2.000000e+002	0.000000e+000
41699360.000	-2.483438e-001	-1.533921e+002	-4.314215e+001	-6.431697e+001	-2.000000e+002	0.000000e+000	-2.000000e+002	0.000000e+000
42349350.000	-2.587338e-001	-1.559045e+002	-4.198760e+001	-6.814141e+001	-2.000000e+002	0.000000e+000	-2.000000e+002	0.000000e+000
42999340.000	-2.711798e-001	-1.584457e+002	-4.056770e+001	-7.194444e+001	-2.000000e+002	0.000000e+000	-2.000000e+002	0.000000e+000
43649330.000	-2.867274e-001	-1.610242e+002	-3.876818e+001	-7.693239e+001	-2.000000e+002	0.000000e+000	-2.000000e+002	0.000000e+000
44299320.000	-3.091398e-001	-1.636800e+002	-3.645796e+001	-8.376216e+001	-2.000000e+002	0.000000e+000	-2.000000e+002	0.000000e+000
44949310.000	-3.546507e-001	-1.664871e+002	-3.336107e+001	-9.465347e+001	-2.000000e+002	0.000000e+000	-2.000000e+002	0.000000e+000
45599300.000	-5.001981e-001	-1.694741e+002	-2.911929e+001	-1.167341e+002	-2.000000e+002	0.000000e+000	-2.000000e+002	0.000000e+000
46249290.000	-8.310827e-001	-1.703137e+002	-2.586199e+001	-1.706209e+002	-2.000000e+002	0.000000e+000	-2.000000e+002	0.000000e+000
46899280.000	-5.568335e-001	-1.709292e+002	-2.986280e+001	1.376693e+002	-2.000000e+002	0.000000e+000	-2.000000e+002	0.000000e+000
47549270.000	-4.184492e-001	-1.737342e+002	-3.448999e+001	1.165443e+002	-2.000000e+002	0.000000e+000	-2.000000e+002	0.000000e+000
48199260.000	-3.778330e-001	-1.764894e+002	-3.795210e+001	1.056351e+002	-2.000000e+002	0.000000e+000	-2.000000e+002	0.000000e+000
48849250.000	-3.645782e-001	-1.791326e+002	-4.065884e+001	9.818173e+001	-2.000000e+002	0.000000e+000	-2.000000e+002	0.000000e+000
49499240.000	-3.614233e-001	1.782881e+002	-4.295085e+001	9.218988e+001	-2.000000e+002	0.000000e+000	-2.000000e+002	0.000000e+000
50149230.000	-3.622419e-001	1.757515e+002	-4.491860e+001	8.691779e+001	-2.000000e+002	0.000000e+000	-2.000000e+002	0.000000e+000
50799220.000	-3.654321e-001	1.732400e+002	-4.674483e+001	8.263240e+001	-2.000000e+002	0.000000e+000	-2.000000e+002	0.000000e+000
51449210.000	-3.685770e-001	1.707355e+002	-4.829144e+001	7.858341e+001	-2.000000e+002	0.000000e+000	-2.000000e+002	0.000000e+000
52099200.000	-3.729640e-001	1.682508e+002	-4.982950e+001	7.414163e+001	-2.000000e+002	0.000000e+000	-2.000000e+002	0.000000e+000
52749190.000	-3.773108e-001	1.657715e+002	-5.128628e+001	6.926525e+001	-2.000000e+002	0.000000e+000	-2.000000e+002	0.000000e+000
53399180.000	-3.816433e-001	1.632986e+002	-5.279752e+001	6.586780e+001	-2.000000e+002	0.000000e+000	-2.000000e+002	0.000000e+000
54049170.000	-3.862905e-001	1.608246e+002	-5.422022e+001	6.181589e+001	-2.000000e+002	0.000000e+000	-2.000000e+002	0.000000e+000
54699160.000	-3.913071e-001	1.583524e+002	-5.546261e+001	5.872214e+001	-2.000000e+002	0.000000e+000	-2.000000e+002	0.000000e+000
55349150.000	-3.965017e-001	1.558895e+002	-5.637583e+001	5.553205e+001	-2.000000e+002	0.000000e+000	-2.000000e+002	0.000000e+000
55999140.000	-4.019122e-001	1.534258e+002	-5.739163e+001	5.070372e+001	-2.000000e+002	0.000000e+000	-2.000000e+002	0.000000e+000
56649130.000	-4.076228e-001	1.509688e+002	-5.878943e+001	4.595711e+001	-2.000000e+002	0.000000e+000	-2.000000e+002	0.000000e+000
57299120.000	-4.125130e-001	1.485153e+002	-5.953826e+001	4.064817e+001	-2.000000e+002	0.000000e+000	-2.000000e+002	0.000000e+000
57949110.000	-4.178012e-001	1.460572e+002	-5.992153e+001	3.395618e+001	-2.000000e+002	0.000000e+000	-2.000000e+002	0.000000e+000
58599100.000	-4.227853e-001	1.436038e+002	-6.044865e+001	2.715894e+001	-2.000000e+002	0.000000e+000	-2.000000e+002	0.000000e+000
59249090.000	-4.282394e-001	1.411561e+002	-6.038188e+001	1.669470e+001	-2.000000e+002	0.000000e+000	-2.000000e+002	0.000000e+000
59899080.000	-4.338350e-001	1.387098e+002	-5.975442e+001	2.437267e+000	-2.000000e+002	0.000000e+000	-2.000000e+002	0.000000e+000
60549070.000	-4.403369e-001	1.362738e+002	-5.923363e+001	-1.284562e+001	-2.000000e+002	0.000000e+000	-2.000000e+002	0.000000e+000
61199060.000	-4.461313e-001	1.338492e+002	-5.879187e+001	-3.733894e+001	-2.000000e+002	0.000000e+000	-2.000000e+002	0.000000e+000
61849050.000	-4.501422e-001	1.314266e+002	-5.851115e+001	-5.921899e+001	-2.000000e+002	0.000000e+000	-2.000000e+002	0.000000e+000
62499040.000	-4.523413e-001	1.290029e+002	-5.916707e+001	-8.023073e+001	-2.000000e+002	0.000000e+000	-2.000000e+002	0.000000e+000
63149030.000	-4.546907e-001	1.265723e+002	-5.951589e+001	-9.396137e+001	-2.000000e+002	0.000000e+000	-2.000000e+002	0.000000e+000
63799020.000	-4.570512e-001	1.241441e+002	-6.009352e+001	-1.053344e+002	-2.000000e+002	0.000000e+000	-2.000000e+002	0.000000e+000
64449010.000	-4.605004e-001	1.217183e+002	-6.024647e+001	-1.146649e+002	-2.000000e+002	0.000000e+000	-2.000000e+002	0.000000e+000
65099000.000	-4.623597e-001	1.192887e+002	-6.035900e+001	-1.223801e+002	-2.000000e+002	0.000000e+000	-2.000000e+002	0.000000e+000
65748990.000	-4.645843e-001	1.168582e+002	-6.067423e+001	-1.293560e+002	-2.000000e+002	0.000000e+000	-2.000000e+002	0.000000e+000
66398980.000	-4.674137e-001	1.144346e+002	-6.090378e+001	-1.338163e+002	-2.000000e+002	0.000000e+000	-2.000000e+002	0.000000e+000
67048970.000	-4.696343e-001	1.120103e+002	-6.073058e+001	-1.344718e+002	-2.000000e+002	0.000000e+000	-2.000000e+002	0.000000e+000
67698960.000	-4.728734e-001	1.095900e+002	-6.086686e+001	-1.396876e+002	-2.000000e+002	0.000000e+000	-2.000000e+002	0.000000e+000
68348950.000	-4.744013e-001	1.071751e+002	-6.082332e+001	-1.430055e+002	-2.000000e+002	0.000000e+000	-2.000000e+002	0.000000e+000
68998940.000	-4.773812e-001	1.047624e+002	-6.052665e+001	-1.447457e+002	-2.000000e+002	0.000000e+000	-2.000000e+002	0.000000e+000
69648930.000	-4.783745e-001	1.023433e+002	-6.055130e+001	-1.467280e+002	-2.000000e+002	0.000000e+000	-2.000000e+002	0.000000e+000
70298920.000	-4.797841e-001	9.992865e+001	-5.994233e+001	-1.465397e+002	-2.000000e+002	0.000000e+000	-2.000000e+002	0.000000e+000
70948910.000	-4.824845e-001	9.752258e+001	-5.975136e+001	-1.503543e+002	-2.000000e+002	0.000000e+000	-2.000000e+002	0.000000e+000
71598900.000	-4.830358e-001	9.511362e+001	-5.958804e+001	-1.516873e+002	-2.000000e+002	0.000000e+000	-2.000000e+002	0.000000e+000
72248890.000	-4.851150e-001	9.271284e+001	-5.918064e+001	-1.518806e+002	-2.000000e+002	0.000000e+000	-2.000000e+002	0.000000e+000
72898880.000	-4.861007e-001	9.030763e+001	-5.872511e+001	-1.543687e+002	-2.000000e+002	0.000000e+000	-2.000000e+002	0.000000e+000
73548870.000	-4.882404e-001	8.791318e+001	-5.837888e+001	-1.553386e+002	-2.000000e+002	0.000000e+000	-2.000000e+002	0.000000e+000
74198860.000	-4.892369e-001	8.551641e+001	-5.793676e+001	-1.578917e+002	-2.000000e+002	0.000000e+000	-2.000000e+002	0.000000e+000
74848850.000	-4.905666e-001	8.312632e+001	-5.746918e+001	-1.609611e+002	-2.000000e+002	0.000000e+000	-2.000000e+002	0.000000e+000
75498840.000	-4.902038e-001	8.073750e+001	-5.716858e+001	-1.627379e+002	-2.000000e+002	0.000000e+000	-2.000000e+002	0.000000e+000
76148830.000	-4.906544e-001	7.835451e+001	-5.684882e+001	-1.665294e+002	-2.000000e+002	0.000000e+000	-2.000000e+002	0.000000e+000
76798820.000	-4.896059e-001	7.596575e+001	-5.646605e+001	-1.701707e+002	-2.000000e+002	0.000000e+000	-2.000000e+002	0.000000e+000
77448810.000	-4.902021e-001	7.359330e+001	-5.637274e+001	-1.734772e+002	-2.000000e+002	0.000000e+000	-2.000000e+002	0.000000e+000
78098800.000	-4.906724e-001	7.120821e+001	-5.621863e+001	-1.760910e+002	-2.000000e+002	0.000000e+000	-2.000000e+002	0.000000e+000
78748790.000	-4.895923e-001	6.883264e+001	-5.601867e+001	-1.785746e+002	-2.000000e+002	0.000000e+000	-2.000000e+002	0.000000e+000
79398780.000	-4.881003e-001	6.645129e+001	-5.587448e+001	1.773402e+002	-2.000000e+002	0.000000e+000	-2.000000e+002	0.000000e+000
80048770.000	-4.858174e-001	6.406768e+001	-5.584992e+001	1.746619e+002	-2.000000e+002	0.000000e+000	-2.000000e+002	0.000000e+000
80698760.000	-4.849842e-001	6.168817e+001	-5.584677e+001	1.727956e+002	-2.000000e+002	0.000000e+000	-2.000000e+002	0.000000e+000
81348750.000	-4.838757e-001	5.931118e+001	-5.563870e+001	1.711814e+002	-2.000000e+002	0.000000e+000	-2.000000e+002	0.000000e+000
81998740.000	-4.825125e-001	5.693860e+001	-5.558431e+001	1.691901e+002	-2.000000e+002	0.000000e+000	-2.000000e+002	0.000000e+000
82648730.000	-4.823752e-001	5.458119e+001	-5.545517e+001	1.674074e+002	-2.000000e+002	0.000000e+000	-2.000000e+002	0.000000e+000
83298720.000	-4.817859e-001	5.220960e+001	-5.529666e+001	1.649244e+002	-2.000000e+002	0.000000e+000	-2.000000e+002	0.000000e+000
83948710.000	-4.798186e-001	4.984554e+001	-5.524903e+001	1.632303e+002	-2.000000e+002	0.000000e+000	-2.000000e+002	0.000000e+000
84598700.000	-4.781162e-001	4.747734e+001	-5.518045e+001	1.610262e+002	-2.000000e+002	0.000000e+000	-2.000000e+002	0.000000e+000
85248690.000	-4.766491e-001	4.510655e+001	-5.499346e+001	1.594229e+002	-2.000000e+002	0.000000e+000	-2.000000e+002	0.000000e+000
85898680.000	-4.752025e-001	4.275113e+001	-5.484210e+001	1.575533e+002	-2.000000e+002	0.000000e+000	-2.000000e+002	0.000000e+000
86548670.000	-4.730845e-001	4.038961e+001	-5.462956e+001	1.560512e+002	-2.000000e+002	0.000000e+000	-2.000000e+002	0.000000e+000
87198660.000	-4.715026e-001	3.803474e+001	-5.448222e+001	1.546739e+002	-2.000000e+002	0.000000e+000	-2.000000e+002	0.000000e+000
87848650.000	-4.685510e-001	3.568896e+001	-5.421003e+001	1.533415e+002	-2.000000e+002	0.000000e+000	-2.000000e+002	0.000000e+000
88498640.000	-4.664036e-001	3.333351e+001	-5.412508e+001	1.505369e+002	-2.000000e+002	0.000000e+000	-2.000000e+002	0.000000e+000
89148630.000	-4.647037e-001	3.098606e+001	-5.403804e+001	1.491209e+002	-2.000000e+002	0.000000e+000	-2.000000e+002	0.000000e+000
89798620.000	-4.619171e-001	2.863498e+001	-5.388092e+001	1.476189e+002	-2.000000e+002	0.000000e+000	-2.000000e+002	0.000000e+000
90448610.000	-4.592373e-001	2.628571e+001	-5.368556e+001	1.461076e+002	-2.000000e+002	0.000000e+000	-2.000000e+002	0.000000e+000
91098600.000	-4.571107e-001	2.392952e+001	-5.344469e+001	1.444446e+002	-2.000000e+002	0.000000e+000	-2.000000e+002	0.000000e+000
91748590.000	-4.551911e-001	2.158225e+001	-5.327607e+001	1.442425e+002	-2.000000e+002	0.000000e+000	-2.000000e+002	0.000000e+000
92398580.000	-4.516840e-001	1.923062e+001	-5.296864e+001	1.414700e+002	-2.000000e+002	0.000000e+000	-2.000000e+002	0.000000e+000
93048570.000	-4.494218e-001	1.687682e+001	-5.276757e+001	1.399986e+002	-2.000000e+002	0.000000e+000	-2.000000e+002	0.000000e+000
93698560.000	-4.474253e-001	1.453511e+001	-5.262686e+001	1.384142e+002	-2.000000e+002	0.000000e+000	-2.000000e+002	0.000000e+000
94348550.000	-4.453771e-001	1.218840e+001	-5.236425e+001	1.367218e+002	-2.000000e+002	0.000000e+000	-2.000000e+002	0.000000e+000
94998540.000	-4.430966e-001	9.852869e+000	-5.193104e+001	1.341493e+002	-2.000000e+002	0.000000e+000	-2.000000e+002	0.000000e+000
95648530.000	-4.410992e-001	7.511904e+000	-5.183915e+001	1.332255e+002	-2.000000e+002	0.000000e+000	-2.000000e+002	0.000000e+000
96298520.000	-4.382336e-001	5.174206e+000	-5.156994e+001	1.318701e+002	-2.000000e+002	0.000000e+000	-2.000000e+002	0.000000e+000
96948510.000	-4.368959e-001	2.835176e+000	-5.119465e+001	1.304431e+002	-2.000000e+002	0.000000e+000	-2.000000e+002	0.000000e+000
97598500.000	-4.345836e-001	5.034416e-001	-5.070619e+001	1.288743e+002	-2.000000e+002	0.000000e+000	-2.000000e+002	0.000000e+000
98248490.000	-4.311838e-001	-1.825477e+000	-5.021911e+001	1.260660e+002	-2.000000e+002	0.000000e+000	-2.000000e+002	0.000000e+000
