!Keysight Technologies,E5063A,MY54503115,A.05.08
!Date: Sun Feb 04 18:54:18 2024
!Data & Calibration Information:
!Freq	S11:NONE(--)	S21:NONE(--)	S12:NONE(--)	S22:NONE(--)
# Hz S dB R 50
100000.000	4.766681e-002	-8.196484e-001	-8.179617e+001	2.786718e-002	-2.000000e+002	0.000000e+000	-2.000000e+002	0.000000e+000
749990.000	9.300062e-003	-3.069735e+000	-8.347475e+001	1.570947e+002	-2.000000e+002	0.000000e+000	-2.000000e+002	0.000000e+000
1399980.000	1.171471e-002	-5.369979e+000	-8.979365e+001	1.519386e+002	-2.000000e+002	0.000000e+000	-2.000000e+002	0.000000e+000
2049970.000	1.040328e-002	-7.694844e+000	-7.939215e+001	1.453902e+002	-2.000000e+002	0.000000e+000	-2.000000e+002	0.000000e+000
2699960.000	1.038349e-002	-1.002614e+001	-1.018645e+002	1.099879e+002	-2.000000e+002	0.000000e+000	-2.000000e+002	0.000000e+000
3349950.000	1.518188e-002	-1.236257e+001	-7.905753e+001	9.588539e+001	-2.000000e+002	0.000000e+000	-2.000000e+002	0.000000e+000
3999940.000	1.297155e-002	-1.469640e+001	-7.912289e+001	7.731852e+001	-2.000000e+002	0.000000e+000	-2.000000e+002	0.000000e+000
4649930.000	1.585007e-002	-1.703867e+001	-7.897044e+001	7.440351e+001	-2.000000e+002	0.000000e+000	-2.000000e+002	0.000000e+000
5299920.000	1.435945e-002	-1.937708e+001	-7.241008e+001	8.258072e+001	-2.000000e+002	0.000000e+000	-2.000000e+002	0.000000e+000
5949910.000	1.405224e-002	-2.171505e+001	-7.356982e+001	7.893962e+001	-2.000000e+002	0.000000e+000	-2.000000e+002	0.000000e+000
6599900.000	1.350911e-002	-2.405159e+001	-7.239539e+001	7.560830e+001	-2.000000e+002	0.000000e+000	-2.000000e+002	0.000000e+000
7249890.000	1.493228e-002	-2.639375e+001	-7.073492e+001	7.543522e+001	-2.000000e+002	0.000000e+000	-2.000000e+002	0.000000e+000
7899880.000	1.381324e-002	-2.874248e+001	-7.071498e+001	7.305186e+001	-2.000000e+002	0.000000e+000	-2.000000e+002	0.000000e+000
8549870.000	1.790763e-002	-3.108828e+001	-6.988782e+001	6.390481e+001	-2.000000e+002	0.000000e+000	-2.000000e+002	0.000000e+000
9199860.000	1.649466e-002	-3.343437e+001	-6.972362e+001	6.465253e+001	-2.000000e+002	0.000000e+000	-2.000000e+002	0.000000e+000
9849850.000	1.583410e-002	-3.577686e+001	-6.901639e+001	6.100807e+001	-2.000000e+002	0.000000e+000	-2.000000e+002	0.000000e+000
10499840.000	1.311949e-002	-3.811903e+001	-6.833911e+001	6.056546e+001	-2.000000e+002	0.000000e+000	-2.000000e+002	0.000000e+000
11149830.000	1.028030e-002	-4.046739e+001	-6.734617e+001	6.022097e+001	-2.000000e+002	0.000000e+000	-2.000000e+002	0.000000e+000
11799820.000	8.523519e-003	-4.281254e+001	-6.678619e+001	5.172810e+001	-2.000000e+002	0.000000e+000	-2.000000e+002	0.000000e+000
12449810.000	9.046202e-003	-4.516501e+001	-6.632940e+001	5.532825e+001	-2.000000e+002	0.000000e+000	-2.000000e+002	0.000000e+000
13099800.000	9.698083e-003	-4.751303e+001	-6.609266e+001	5.102384e+001	-2.000000e+002	0.000000e+000	-2.000000e+002	0.000000e+000
13749790.000	7.180609e-003	-4.985866e+001	-6.555552e+001	4.640232e+001	-2.000000e+002	0.000000e+000	-2.000000e+002	0.000000e+000
14399780.000	4.208649e-003	-5.222557e+001	-6.517991e+001	4.742020e+001	-2.000000e+002	0.000000e+000	-2.000000e+002	0.000000e+000
15049770.000	4.830200e-003	-5.458251e+001	-6.456881e+001	4.483622e+001	-2.000000e+002	0.000000e+000	-2.000000e+002	0.000000e+000
15699760.000	3.183009e-003	-5.692471e+001	-6.400334e+001	4.181162e+001	-2.000000e+002	0.000000e+000	-2.000000e+002	0.000000e+000
16349750.000	1.907894e-003	-5.928091e+001	-6.417072e+001	4.167450e+001	-2.000000e+002	0.000000e+000	-2.000000e+002	0.000000e+000
16999740.000	-7.761602e-004	-6.165424e+001	-6.320763e+001	4.062800e+001	-2.000000e+002	0.000000e+000	-2.000000e+002	0.000000e+000
17649730.000	3.963000e-003	-6.402696e+001	-6.225888e+001	3.951849e+001	-2.000000e+002	0.000000e+000	-2.000000e+002	0.000000e+000
18299720.000	4.371198e-003	-6.640414e+001	-6.179269e+001	3.557735e+001	-2.000000e+002	0.000000e+000	-2.000000e+002	0.000000e+000
18949710.000	1.568904e-003	-6.877922e+001	-6.132718e+001	3.204254e+001	-2.000000e+002	0.000000e+000	-2.000000e+002	0.000000e+000
19599700.000	-6.563037e-003	-7.115325e+001	-6.096812e+001	2.750856e+001	-2.000000e+002	0.000000e+000	-2.000000e+002	0.000000e+000
20249690.000	-1.304798e-002	-7.353297e+001	-6.072063e+001	2.399874e+001	-2.000000e+002	0.000000e+000	-2.000000e+002	0.000000e+000
20899680.000	-1.711418e-002	-7.593881e+001	-6.063342e+001	2.091913e+001	-2.000000e+002	0.000000e+000	-2.000000e+002	0.000000e+000
21549670.000	-2.142210e-002	-7.833361e+001	-6.051540e+001	1.869714e+001	-2.000000e+002	0.000000e+000	-2.000000e+002	0.000000e+000
22199660.000	-2.653999e-002	-8.071092e+001	-6.020180e+001	1.843878e+001	-2.000000e+002	0.000000e+000	-2.000000e+002	0.000000e+000
22849650.000	-3.104169e-002	-8.307247e+001	-6.001089e+001	1.625884e+001	-2.000000e+002	0.000000e+000	-2.000000e+002	0.000000e+000
23499640.000	-3.737606e-002	-8.546610e+001	-5.973119e+001	1.523579e+001	-2.000000e+002	0.000000e+000	-2.000000e+002	0.000000e+000
24149630.000	-4.439090e-002	-8.786299e+001	-5.899852e+001	1.530624e+001	-2.000000e+002	0.000000e+000	-2.000000e+002	0.000000e+000
24799620.000	-5.044870e-002	-9.025170e+001	-5.844668e+001	1.378682e+001	-2.000000e+002	0.000000e+000	-2.000000e+002	0.000000e+000
25449610.000	-5.466895e-002	-9.264100e+001	-5.767592e+001	1.005519e+001	-2.000000e+002	0.000000e+000	-2.000000e+002	0.000000e+000
26099600.000	-6.154107e-002	-9.503193e+001	-5.748297e+001	7.394306e+000	-2.000000e+002	0.000000e+000	-2.000000e+002	0.000000e+000
26749590.000	-6.797953e-002	-9.743283e+001	-5.702210e+001	4.779070e+000	-2.000000e+002	0.000000e+000	-2.000000e+002	0.000000e+000
27399580.000	-7.466647e-002	-9.983455e+001	-5.661619e+001	1.632349e+000	-2.000000e+002	0.000000e+000	-2.000000e+002	0.000000e+000
28049570.000	-8.095858e-002	-1.022377e+002	-5.618507e+001	-6.193073e-001	-2.000000e+002	0.000000e+000	-2.000000e+002	0.000000e+000
28699560.000	-8.743969e-002	-1.046401e+002	-5.582186e+001	-3.967522e+000	-2.000000e+002	0.000000e+000	-2.000000e+002	0.000000e+000
29349550.000	-9.430694e-002	-1.070496e+002	-5.562289e+001	-6.402568e+000	-2.000000e+002	0.000000e+000	-2.000000e+002	0.000000e+000
29999540.000	-1.016701e-001	-1.094627e+002	-5.534397e+001	-9.266046e+000	-2.000000e+002	0.000000e+000	-2.000000e+002	0.000000e+000
30649530.000	-1.088036e-001	-1.118831e+002	-5.509995e+001	-1.236493e+001	-2.000000e+002	0.000000e+000	-2.000000e+002	0.000000e+000
31299520.000	-1.158770e-001	-1.143051e+002	-5.487636e+001	-1.544756e+001	-2.000000e+002	0.000000e+000	-2.000000e+002	0.000000e+000
31949510.000	-1.237892e-001	-1.167332e+002	-5.480773e+001	-1.636212e+001	-2.000000e+002	0.000000e+000	-2.000000e+002	0.000000e+000
32599500.000	-1.329720e-001	-1.191669e+002	-5.460003e+001	-1.656450e+001	-2.000000e+002	0.000000e+000	-2.000000e+002	0.000000e+000
33249490.000	-1.424783e-001	-1.215989e+002	-5.428178e+001	-1.431518e+001	-2.000000e+002	0.000000e+000	-2.000000e+002	0.000000e+000
33899480.000	-1.532651e-001	-1.240335e+002	-5.356464e+001	-1.079279e+001	-2.000000e+002	0.000000e+000	-2.000000e+002	0.000000e+000
34549470.000	-1.653538e-001	-1.264517e+002	-5.201950e+001	-8.190780e+000	-2.000000e+002	0.000000e+000	-2.000000e+002	0.000000e+000
35199460.000	-1.768556e-001	-1.288630e+002	-5.007408e+001	-9.713646e+000	-2.000000e+002	0.000000e+000	-2.000000e+002	0.000000e+000
35849450.000	-1.836511e-001	-1.312701e+002	-4.845942e+001	-1.916143e+001	-2.000000e+002	0.000000e+000	-2.000000e+002	0.000000e+000
36499440.000	-1.893236e-001	-1.336955e+002	-4.753415e+001	-2.800700e+001	-2.000000e+002	0.000000e+000	-2.000000e+002	0.000000e+000
37149430.000	-1.950890e-001	-1.361438e+002	-4.708806e+001	-3.586036e+001	-2.000000e+002	0.000000e+000	-2.000000e+002	0.000000e+000
37799420.000	-2.020272e-001	-1.386039e+002	-4.662375e+001	-4.202819e+001	-2.000000e+002	0.000000e+000	-2.000000e+002	0.000000e+000
38449410.000	-2.095959e-001	-1.410682e+002	-4.613518e+001	-4.716609e+001	-2.000000e+002	0.000000e+000	-2.000000e+002	0.000000e+000
39099400.000	-2.182148e-001	-1.435432e+002	-4.555663e+001	-5.131098e+001	-2.000000e+002	0.000000e+000	-2.000000e+002	0.000000e+000
39749390.000	-2.274588e-001	-1.460235e+002	-4.485942e+001	-5.531519e+001	-2.000000e+002	0.000000e+000	-2.000000e+002	0.000000e+000
40399380.000	-2.375940e-001	-1.485143e+002	-4.403634e+001	-5.908399e+001	-2.000000e+002	0.000000e+000	-2.000000e+002	0.000000e+000
41049370.000	-2.486768e-001	-1.510194e+002	-4.298926e+001	-6.311088e+001	-2.000000e+002	0.000000e+000	-2.000000e+002	0.000000e+000
41699360.000	-2.616016e-001	-1.535470e+002	-4.168792e+001	-6.718756e+001	-2.000000e+002	0.000000e+000	-2.000000e+002	0.000000e+000
42349350.000	-2.779002e-001	-1.561041e+002	-4.007717e+001	-7.217279e+001	-2.000000e+002	0.000000e+000	-2.000000e+002	0.000000e+000
42999340.000	-3.011016e-001	-1.587133e+002	-3.804689e+001	-7.846175e+001	-2.000000e+002	0.000000e+000	-2.000000e+002	0.000000e+000
43649330.000	-3.398701e-001	-1.614125e+002	-3.537077e+001	-8.740889e+001	-2.000000e+002	0.000000e+000	-2.000000e+002	0.000000e+000
44299320.000	-4.344194e-001	-1.642401e+002	-3.168517e+001	-1.036441e+002	-2.000000e+002	0.000000e+000	-2.000000e+002	0.000000e+000
44949310.000	-7.060657e-001	-1.663253e+002	-2.734117e+001	-1.412525e+002	-2.000000e+002	0.000000e+000	-2.000000e+002	0.000000e+000
45599300.000	-6.266741e-001	-1.661342e+002	-2.833773e+001	1.579637e+002	-2.000000e+002	0.000000e+000	-2.000000e+002	0.000000e+000
46249290.000	-4.183042e-001	-1.687384e+002	-3.307259e+001	1.264245e+002	-2.000000e+002	0.000000e+000	-2.000000e+002	0.000000e+000
46899280.000	-3.630357e-001	-1.715658e+002	-3.688649e+001	1.116552e+002	-2.000000e+002	0.000000e+000	-2.000000e+002	0.000000e+000
47549270.000	-3.471904e-001	-1.742514e+002	-3.984185e+001	1.023308e+002	-2.000000e+002	0.000000e+000	-2.000000e+002	0.000000e+000
48199260.000	-3.444722e-001	-1.768476e+002	-4.222198e+001	9.537395e+001	-2.000000e+002	0.000000e+000	-2.000000e+002	0.000000e+000
48849250.000	-3.459798e-001	-1.793946e+002	-4.426478e+001	8.927118e+001	-2.000000e+002	0.000000e+000	-2.000000e+002	0.000000e+000
49499240.000	-3.493839e-001	1.780840e+002	-4.606388e+001	8.374590e+001	-2.000000e+002	0.000000e+000	-2.000000e+002	0.000000e+000
50149230.000	-3.541290e-001	1.755814e+002	-4.779026e+001	7.921268e+001	-2.000000e+002	0.000000e+000	-2.000000e+002	0.000000e+000
50799220.000	-3.592963e-001	1.730891e+002	-4.919850e+001	7.487396e+001	-2.000000e+002	0.000000e+000	-2.000000e+002	0.000000e+000
51449210.000	-3.646453e-001	1.706025e+002	-5.054394e+001	7.098724e+001	-2.000000e+002	0.000000e+000	-2.000000e+002	0.000000e+000
52099200.000	-3.700057e-001	1.681252e+002	-5.175541e+001	6.565659e+001	-2.000000e+002	0.000000e+000	-2.000000e+002	0.000000e+000
52749190.000	-3.759065e-001	1.656544e+002	-5.282338e+001	6.121121e+001	-2.000000e+002	0.000000e+000	-2.000000e+002	0.000000e+000
53399180.000	-3.817494e-001	1.631843e+002	-5.397857e+001	5.588218e+001	-2.000000e+002	0.000000e+000	-2.000000e+002	0.000000e+000
54049170.000	-3.869234e-001	1.607194e+002	-5.509932e+001	5.116121e+001	-2.000000e+002	0.000000e+000	-2.000000e+002	0.000000e+000
54699160.000	-3.928983e-001	1.582526e+002	-5.618230e+001	4.643374e+001	-2.000000e+002	0.000000e+000	-2.000000e+002	0.000000e+000
55349150.000	-3.986554e-001	1.557934e+002	-5.680239e+001	4.184919e+001	-2.000000e+002	0.000000e+000	-2.000000e+002	0.000000e+000
55999140.000	-4.045088e-001	1.533347e+002	-5.763750e+001	3.425717e+001	-2.000000e+002	0.000000e+000	-2.000000e+002	0.000000e+000
56649130.000	-4.103085e-001	1.508827e+002	-5.839740e+001	2.886586e+001	-2.000000e+002	0.000000e+000	-2.000000e+002	0.000000e+000
57299120.000	-4.153910e-001	1.484317e+002	-5.899719e+001	2.317213e+001	-2.000000e+002	0.000000e+000	-2.000000e+002	0.000000e+000
57949110.000	-4.212574e-001	1.459811e+002	-5.927603e+001	1.642041e+001	-2.000000e+002	0.000000e+000	-2.000000e+002	0.000000e+000
58599100.000	-4.260742e-001	1.435300e+002	-5.917837e+001	8.503721e+000	-2.000000e+002	0.000000e+000	-2.000000e+002	0.000000e+000
59249090.000	-4.320213e-001	1.410836e+002	-5.885748e+001	-1.368265e+000	-2.000000e+002	0.000000e+000	-2.000000e+002	0.000000e+000
59899080.000	-4.373781e-001	1.386411e+002	-5.822750e+001	-1.550257e+001	-2.000000e+002	0.000000e+000	-2.000000e+002	0.000000e+000
60549070.000	-4.429511e-001	1.362136e+002	-5.770280e+001	-3.185736e+001	-2.000000e+002	0.000000e+000	-2.000000e+002	0.000000e+000
61199060.000	-4.479596e-001	1.337861e+002	-5.776387e+001	-4.937964e+001	-2.000000e+002	0.000000e+000	-2.000000e+002	0.000000e+000
61849050.000	-4.506981e-001	1.313607e+002	-5.832221e+001	-6.694063e+001	-2.000000e+002	0.000000e+000	-2.000000e+002	0.000000e+000
62499040.000	-4.535638e-001	1.289276e+002	-5.927276e+001	-7.930247e+001	-2.000000e+002	0.000000e+000	-2.000000e+002	0.000000e+000
63149030.000	-4.567500e-001	1.264983e+002	-6.007879e+001	-8.899816e+001	-2.000000e+002	0.000000e+000	-2.000000e+002	0.000000e+000
63799020.000	-4.594774e-001	1.240644e+002	-6.020783e+001	-9.598086e+001	-2.000000e+002	0.000000e+000	-2.000000e+002	0.000000e+000
64449010.000	-4.633361e-001	1.216397e+002	-6.081869e+001	-1.016752e+002	-2.000000e+002	0.000000e+000	-2.000000e+002	0.000000e+000
65099000.000	-4.657660e-001	1.192082e+002	-6.083128e+001	-1.086692e+002	-2.000000e+002	0.000000e+000	-2.000000e+002	0.000000e+000
65748990.000	-4.676363e-001	1.167809e+002	-6.103517e+001	-1.129580e+002	-2.000000e+002	0.000000e+000	-2.000000e+002	0.000000e+000
66398980.000	-4.711451e-001	1.143571e+002	-6.085213e+001	-1.171063e+002	-2.000000e+002	0.000000e+000	-2.000000e+002	0.000000e+000
67048970.000	-4.737306e-001	1.119322e+002	-6.114255e+001	-1.202514e+002	-2.000000e+002	0.000000e+000	-2.000000e+002	0.000000e+000
67698960.000	-4.763542e-001	1.095191e+002	-6.088635e+001	-1.228193e+002	-2.000000e+002	0.000000e+000	-2.000000e+002	0.000000e+000
68348950.000	-4.779897e-001	1.071018e+002	-6.085731e+001	-1.264977e+002	-2.000000e+002	0.000000e+000	-2.000000e+002	0.000000e+000
68998940.000	-4.806772e-001	1.046880e+002	-6.062632e+001	-1.292208e+002	-2.000000e+002	0.000000e+000	-2.000000e+002	0.000000e+000
69648930.000	-4.824744e-001	1.022732e+002	-6.041839e+001	-1.327783e+002	-2.000000e+002	0.000000e+000	-2.000000e+002	0.000000e+000
70298920.000	-4.838372e-001	9.985433e+001	-6.032440e+001	-1.343268e+002	-2.000000e+002	0.000000e+000	-2.000000e+002	0.000000e+000
70948910.000	-4.859108e-001	9.744701e+001	-6.026896e+001	-1.353214e+002	-2.000000e+002	0.000000e+000	-2.000000e+002	0.000000e+000
71598900.000	-4.872091e-001	9.503470e+001	-5.987087e+001	-1.383850e+002	-2.000000e+002	0.000000e+000	-2.000000e+002	0.000000e+000
72248890.000	-4.895298e-001	9.263401e+001	-5.979216e+001	-1.404535e+002	-2.000000e+002	0.000000e+000	-2.000000e+002	0.000000e+000
72898880.000	-4.904774e-001	9.023202e+001	-5.939424e+001	-1.419640e+002	-2.000000e+002	0.000000e+000	-2.000000e+002	0.000000e+000
73548870.000	-4.919021e-001	8.783611e+001	-5.908828e+001	-1.439858e+002	-2.000000e+002	0.000000e+000	-2.000000e+002	0.000000e+000
74198860.000	-4.927912e-001	8.544475e+001	-5.867395e+001	-1.463849e+002	-2.000000e+002	0.000000e+000	-2.000000e+002	0.000000e+000
74848850.000	-4.937874e-001	8.304881e+001	-5.830941e+001	-1.495570e+002	-2.000000e+002	0.000000e+000	-2.000000e+002	0.000000e+000
75498840.000	-4.943922e-001	8.065877e+001	-5.804719e+001	-1.516443e+002	-2.000000e+002	0.000000e+000	-2.000000e+002	0.000000e+000
76148830.000	-4.946383e-001	7.827027e+001	-5.760593e+001	-1.547686e+002	-2.000000e+002	0.000000e+000	-2.000000e+002	0.000000e+000
76798820.000	-4.941713e-001	7.588518e+001	-5.728655e+001	-1.576658e+002	-2.000000e+002	0.000000e+000	-2.000000e+002	0.000000e+000
77448810.000	-4.956117e-001	7.351437e+001	-5.701292e+001	-1.604005e+002	-2.000000e+002	0.000000e+000	-2.000000e+002	0.000000e+000
78098800.000	-4.958888e-001	7.113516e+001	-5.667815e+001	-1.636057e+002	-2.000000e+002	0.000000e+000	-2.000000e+002	0.000000e+000
78748790.000	-4.948773e-001	6.875738e+001	-5.637680e+001	-1.680506e+002	-2.000000e+002	0.000000e+000	-2.000000e+002	0.000000e+000
79398780.000	-4.934059e-001	6.638488e+001	-5.612844e+001	-1.719521e+002	-2.000000e+002	0.000000e+000	-2.000000e+002	0.000000e+000
80048770.000	-4.919345e-001	6.399794e+001	-5.602577e+001	-1.762261e+002	-2.000000e+002	0.000000e+000	-2.000000e+002	0.000000e+000
80698760.000	-4.905420e-001	6.162276e+001	-5.595571e+001	-1.790071e+002	-2.000000e+002	0.000000e+000	-2.000000e+002	0.000000e+000
81348750.000	-4.883581e-001	5.924471e+001	-5.608713e+001	1.777525e+002	-2.000000e+002	0.000000e+000	-2.000000e+002	0.000000e+000
81998740.000	-4.865956e-001	5.687372e+001	-5.613194e+001	1.751314e+002	-2.000000e+002	0.000000e+000	-2.000000e+002	0.000000e+000
82648730.000	-4.866304e-001	5.451836e+001	-5.602605e+001	1.727522e+002	-2.000000e+002	0.000000e+000	-2.000000e+002	0.000000e+000
83298720.000	-4.854441e-001	5.214837e+001	-5.605952e+001	1.700225e+002	-2.000000e+002	0.000000e+000	-2.000000e+002	0.000000e+000
83948710.000	-4.838976e-001	4.977993e+001	-5.603598e+001	1.683677e+002	-2.000000e+002	0.000000e+000	-2.000000e+002	0.000000e+000
84598700.000	-4.821878e-001	4.741449e+001	-5.599250e+001	1.658197e+002	-2.000000e+002	0.000000e+000	-2.000000e+002	0.000000e+000
85248690.000	-4.806027e-001	4.505071e+001	-5.582443e+001	1.649849e+002	-2.000000e+002	0.000000e+000	-2.000000e+002	0.000000e+000
85898680.000	-4.785909e-001	4.269085e+001	-5.576585e+001	1.612102e+002	-2.000000e+002	0.000000e+000	-2.000000e+002	0.000000e+000
86548670.000	-4.759949e-001	4.032872e+001	-5.569079e+001	1.594276e+002	-2.000000e+002	0.000000e+000	-2.000000e+002	0.000000e+000
87198660.000	-4.736712e-001	3.797382e+001	-5.580130e+001	1.578142e+002	-2.000000e+002	0.000000e+000	-2.000000e+002	0.000000e+000
87848650.000	-4.709735e-001	3.561956e+001	-5.576213e+001	1.557456e+002	-2.000000e+002	0.000000e+000	-2.000000e+002	0.000000e+000
88498640.000	-4.688196e-001	3.326772e+001	-5.561730e+001	1.548022e+002	-2.000000e+002	0.000000e+000	-2.000000e+002	0.000000e+000
89148630.000	-4.666815e-001	3.091537e+001	-5.559187e+001	1.533774e+002	-2.000000e+002	0.000000e+000	-2.000000e+002	0.000000e+000
89798620.000	-4.646472e-001	2.856989e+001	-5.543775e+001	1.526162e+002	-2.000000e+002	0.000000e+000	-2.000000e+002	0.000000e+000
90448610.000	-4.620808e-001	2.621716e+001	-5.527065e+001	1.514261e+002	-2.000000e+002	0.000000e+000	-2.000000e+002	0.000000e+000
91098600.000	-4.594256e-001	2.386533e+001	-5.492571e+001	1.499424e+002	-2.000000e+002	0.000000e+000	-2.000000e+002	0.000000e+000
91748590.000	-4.569341e-001	2.151399e+001	-5.471121e+001	1.476325e+002	-2.000000e+002	0.000000e+000	-2.000000e+002	0.000000e+000
92398580.000	-4.538960e-001	1.916900e+001	-5.452892e+001	1.455172e+002	-2.000000e+002	0.000000e+000	-2.000000e+002	0.000000e+000
93048570.000	-4.508995e-001	1.682343e+001	-5.415541e+001	1.453326e+002	-2.000000e+002	0.000000e+000	-2.000000e+002	0.000000e+000
93698560.000	-4.490367e-001	1.446979e+001	-5.430559e+001	1.416600e+002	-2.000000e+002	0.000000e+000	-2.000000e+002	0.000000e+000
94348550.000	-4.461124e-001	1.212567e+001	-5.421440e+001	1.404390e+002	-2.000000e+002	0.000000e+000	-2.000000e+002	0.000000e+000
94998540.000	-4.433387e-001	9.778279e+000	-5.423013e+001	1.392827e+002	-2.000000e+002	0.000000e+000	-2.000000e+002	0.000000e+000
95648530.000	-4.405712e-001	7.438641e+000	-5.388349e+001	1.361376e+002	-2.000000e+002	0.000000e+000	-2.000000e+002	0.000000e+000
96298520.000	-4.377260e-001	5.102166e+000	-5.384000e+001	1.355243e+002	-2.000000e+002	0.000000e+000	-2.000000e+002	0.000000e+000
96948510.000	-4.356158e-001	2.761167e+000	-5.365959e+001	1.347022e+002	-2.000000e+002	0.000000e+000	-2.000000e+002	0.000000e+000
97598500.000	-4.340657e-001	4.231680e-001	-5.325198e+001	1.337336e+002	-2.000000e+002	0.000000e+000	-2.000000e+002	0.000000e+000
98248490.000	-4.308330e-001	-1.912946e+000	-5.284838e+001	1.311350e+002	-2.000000e+002	0.000000e+000	-2.000000e+002	0.000000e+000
