!Keysight Technologies,E5063A,MY54503115,A.05.08
!Date: Sun Feb 04 18:16:37 2024
!Data & Calibration Information:
!Freq	S11:NONE(--)	S21:NONE(--)	S12:NONE(--)	S22:NONE(--)
# Hz S dB R 50
100000.000	4.385196e-002	-7.442368e-001	-8.850140e+001	4.062497e+001	-2.000000e+002	0.000000e+000	-2.000000e+002	0.000000e+000
749990.000	1.013034e-002	-3.030460e+000	-8.977844e+001	1.262213e+002	-2.000000e+002	0.000000e+000	-2.000000e+002	0.000000e+000
1399980.000	1.167770e-002	-5.356727e+000	-8.318754e+001	1.155571e+002	-2.000000e+002	0.000000e+000	-2.000000e+002	0.000000e+000
2049970.000	1.131540e-002	-7.679149e+000	-8.170466e+001	1.269699e+002	-2.000000e+002	0.000000e+000	-2.000000e+002	0.000000e+000
2699960.000	1.219802e-002	-1.000522e+001	-7.761951e+001	7.774438e+001	-2.000000e+002	0.000000e+000	-2.000000e+002	0.000000e+000
3349950.000	1.570380e-002	-1.234222e+001	-8.005230e+001	6.795112e+001	-2.000000e+002	0.000000e+000	-2.000000e+002	0.000000e+000
3999940.000	1.429300e-002	-1.467897e+001	-7.327206e+001	8.294054e+001	-2.000000e+002	0.000000e+000	-2.000000e+002	0.000000e+000
4649930.000	1.840302e-002	-1.702138e+001	-7.457802e+001	7.308910e+001	-2.000000e+002	0.000000e+000	-2.000000e+002	0.000000e+000
5299920.000	1.560748e-002	-1.935206e+001	-7.168813e+001	6.484673e+001	-2.000000e+002	0.000000e+000	-2.000000e+002	0.000000e+000
5949910.000	1.532007e-002	-2.169392e+001	-7.273657e+001	6.570101e+001	-2.000000e+002	0.000000e+000	-2.000000e+002	0.000000e+000
6599900.000	1.481309e-002	-2.402073e+001	-7.131922e+001	6.809769e+001	-2.000000e+002	0.000000e+000	-2.000000e+002	0.000000e+000
7249890.000	1.568782e-002	-2.637079e+001	-6.993892e+001	6.423838e+001	-2.000000e+002	0.000000e+000	-2.000000e+002	0.000000e+000
7899880.000	1.463069e-002	-2.872212e+001	-6.918953e+001	6.465863e+001	-2.000000e+002	0.000000e+000	-2.000000e+002	0.000000e+000
8549870.000	1.919996e-002	-3.105850e+001	-6.762428e+001	5.927481e+001	-2.000000e+002	0.000000e+000	-2.000000e+002	0.000000e+000
9199860.000	1.885112e-002	-3.339811e+001	-6.747672e+001	5.716951e+001	-2.000000e+002	0.000000e+000	-2.000000e+002	0.000000e+000
9849850.000	1.726291e-002	-3.574963e+001	-6.701645e+001	5.377856e+001	-2.000000e+002	0.000000e+000	-2.000000e+002	0.000000e+000
10499840.000	1.464833e-002	-3.809214e+001	-6.607347e+001	5.266039e+001	-2.000000e+002	0.000000e+000	-2.000000e+002	0.000000e+000
11149830.000	1.176137e-002	-4.043275e+001	-6.554622e+001	4.961465e+001	-2.000000e+002	0.000000e+000	-2.000000e+002	0.000000e+000
11799820.000	1.002522e-002	-4.277911e+001	-6.502219e+001	4.822863e+001	-2.000000e+002	0.000000e+000	-2.000000e+002	0.000000e+000
12449810.000	1.022855e-002	-4.513114e+001	-6.443347e+001	4.444667e+001	-2.000000e+002	0.000000e+000	-2.000000e+002	0.000000e+000
13099800.000	1.151949e-002	-4.747663e+001	-6.399972e+001	4.444658e+001	-2.000000e+002	0.000000e+000	-2.000000e+002	0.000000e+000
13749790.000	9.105354e-003	-4.981911e+001	-6.366963e+001	4.115618e+001	-2.000000e+002	0.000000e+000	-2.000000e+002	0.000000e+000
14399780.000	6.558258e-003	-5.218510e+001	-6.315624e+001	4.005061e+001	-2.000000e+002	0.000000e+000	-2.000000e+002	0.000000e+000
15049770.000	6.357078e-003	-5.453559e+001	-6.268012e+001	3.770582e+001	-2.000000e+002	0.000000e+000	-2.000000e+002	0.000000e+000
15699760.000	4.985478e-003	-5.688207e+001	-6.254971e+001	3.697811e+001	-2.000000e+002	0.000000e+000	-2.000000e+002	0.000000e+000
16349750.000	3.766146e-003	-5.923976e+001	-6.180863e+001	3.416055e+001	-2.000000e+002	0.000000e+000	-2.000000e+002	0.000000e+000
16999740.000	1.752091e-003	-6.161077e+001	-6.173002e+001	3.228339e+001	-2.000000e+002	0.000000e+000	-2.000000e+002	0.000000e+000
17649730.000	6.251533e-003	-6.398636e+001	-6.094327e+001	2.986222e+001	-2.000000e+002	0.000000e+000	-2.000000e+002	0.000000e+000
18299720.000	7.369241e-003	-6.636524e+001	-6.042628e+001	2.903014e+001	-2.000000e+002	0.000000e+000	-2.000000e+002	0.000000e+000
18949710.000	4.411764e-003	-6.874410e+001	-5.998131e+001	2.506778e+001	-2.000000e+002	0.000000e+000	-2.000000e+002	0.000000e+000
19599700.000	-3.887295e-003	-7.111857e+001	-5.956040e+001	2.075883e+001	-2.000000e+002	0.000000e+000	-2.000000e+002	0.000000e+000
20249690.000	-1.009484e-002	-7.349781e+001	-5.940416e+001	1.843201e+001	-2.000000e+002	0.000000e+000	-2.000000e+002	0.000000e+000
20899680.000	-1.473764e-002	-7.590560e+001	-5.931800e+001	1.622577e+001	-2.000000e+002	0.000000e+000	-2.000000e+002	0.000000e+000
21549670.000	-1.864906e-002	-7.829888e+001	-5.884369e+001	1.415219e+001	-2.000000e+002	0.000000e+000	-2.000000e+002	0.000000e+000
22199660.000	-2.391666e-002	-8.067655e+001	-5.883085e+001	1.148654e+001	-2.000000e+002	0.000000e+000	-2.000000e+002	0.000000e+000
22849650.000	-2.851654e-002	-8.304022e+001	-5.837246e+001	9.169420e+000	-2.000000e+002	0.000000e+000	-2.000000e+002	0.000000e+000
23499640.000	-3.541267e-002	-8.542975e+001	-5.823754e+001	9.090600e+000	-2.000000e+002	0.000000e+000	-2.000000e+002	0.000000e+000
24149630.000	-4.248346e-002	-8.782934e+001	-5.787459e+001	7.133899e+000	-2.000000e+002	0.000000e+000	-2.000000e+002	0.000000e+000
24799620.000	-4.819353e-002	-9.021954e+001	-5.730941e+001	7.121538e+000	-2.000000e+002	0.000000e+000	-2.000000e+002	0.000000e+000
25449610.000	-5.278873e-002	-9.260505e+001	-5.681954e+001	4.038776e+000	-2.000000e+002	0.000000e+000	-2.000000e+002	0.000000e+000
26099600.000	-5.915921e-002	-9.499746e+001	-5.656102e+001	3.809666e-001	-2.000000e+002	0.000000e+000	-2.000000e+002	0.000000e+000
26749590.000	-6.599510e-002	-9.739654e+001	-5.632643e+001	-1.073686e+000	-2.000000e+002	0.000000e+000	-2.000000e+002	0.000000e+000
27399580.000	-7.311041e-002	-9.980032e+001	-5.607633e+001	-3.743674e+000	-2.000000e+002	0.000000e+000	-2.000000e+002	0.000000e+000
28049570.000	-7.919297e-002	-1.022004e+002	-5.546843e+001	-6.630827e+000	-2.000000e+002	0.000000e+000	-2.000000e+002	0.000000e+000
28699560.000	-8.654334e-002	-1.046040e+002	-5.515414e+001	-9.145350e+000	-2.000000e+002	0.000000e+000	-2.000000e+002	0.000000e+000
29349550.000	-9.300686e-002	-1.070109e+002	-5.485566e+001	-1.157840e+001	-2.000000e+002	0.000000e+000	-2.000000e+002	0.000000e+000
29999540.000	-1.004734e-001	-1.094246e+002	-5.459724e+001	-1.396693e+001	-2.000000e+002	0.000000e+000	-2.000000e+002	0.000000e+000
30649530.000	-1.078252e-001	-1.118440e+002	-5.438063e+001	-1.625055e+001	-2.000000e+002	0.000000e+000	-2.000000e+002	0.000000e+000
31299520.000	-1.148932e-001	-1.142639e+002	-5.420085e+001	-1.854514e+001	-2.000000e+002	0.000000e+000	-2.000000e+002	0.000000e+000
31949510.000	-1.227418e-001	-1.166907e+002	-5.404939e+001	-1.986539e+001	-2.000000e+002	0.000000e+000	-2.000000e+002	0.000000e+000
32599500.000	-1.317111e-001	-1.191203e+002	-5.393849e+001	-2.026829e+001	-2.000000e+002	0.000000e+000	-2.000000e+002	0.000000e+000
33249490.000	-1.409970e-001	-1.215468e+002	-5.360923e+001	-1.873055e+001	-2.000000e+002	0.000000e+000	-2.000000e+002	0.000000e+000
33899480.000	-1.507283e-001	-1.239752e+002	-5.294558e+001	-1.834252e+001	-2.000000e+002	0.000000e+000	-2.000000e+002	0.000000e+000
34549470.000	-1.608892e-001	-1.264010e+002	-5.222682e+001	-1.772645e+001	-2.000000e+002	0.000000e+000	-2.000000e+002	0.000000e+000
35199460.000	-1.716924e-001	-1.288233e+002	-5.099909e+001	-1.794510e+001	-2.000000e+002	0.000000e+000	-2.000000e+002	0.000000e+000
35849450.000	-1.804950e-001	-1.312462e+002	-4.993127e+001	-2.033888e+001	-2.000000e+002	0.000000e+000	-2.000000e+002	0.000000e+000
36499440.000	-1.895683e-001	-1.336670e+002	-4.865593e+001	-2.399365e+001	-2.000000e+002	0.000000e+000	-2.000000e+002	0.000000e+000
37149430.000	-1.962011e-001	-1.360949e+002	-4.754410e+001	-3.076208e+001	-2.000000e+002	0.000000e+000	-2.000000e+002	0.000000e+000
37799420.000	-2.019002e-001	-1.385383e+002	-4.690070e+001	-3.921401e+001	-2.000000e+002	0.000000e+000	-2.000000e+002	0.000000e+000
38449410.000	-2.082912e-001	-1.409919e+002	-4.654743e+001	-4.493674e+001	-2.000000e+002	0.000000e+000	-2.000000e+002	0.000000e+000
39099400.000	-2.158581e-001	-1.434587e+002	-4.621354e+001	-4.920511e+001	-2.000000e+002	0.000000e+000	-2.000000e+002	0.000000e+000
39749390.000	-2.242854e-001	-1.459288e+002	-4.576275e+001	-5.310888e+001	-2.000000e+002	0.000000e+000	-2.000000e+002	0.000000e+000
40399380.000	-2.330982e-001	-1.484059e+002	-4.519798e+001	-5.630631e+001	-2.000000e+002	0.000000e+000	-2.000000e+002	0.000000e+000
41049370.000	-2.429084e-001	-1.508891e+002	-4.445739e+001	-5.931561e+001	-2.000000e+002	0.000000e+000	-2.000000e+002	0.000000e+000
41699360.000	-2.538810e-001	-1.533796e+002	-4.361626e+001	-6.236732e+001	-2.000000e+002	0.000000e+000	-2.000000e+002	0.000000e+000
42349350.000	-2.644533e-001	-1.558856e+002	-4.257677e+001	-6.564517e+001	-2.000000e+002	0.000000e+000	-2.000000e+002	0.000000e+000
42999340.000	-2.776529e-001	-1.584076e+002	-4.138418e+001	-6.928134e+001	-2.000000e+002	0.000000e+000	-2.000000e+002	0.000000e+000
43649330.000	-2.925628e-001	-1.609550e+002	-3.986887e+001	-7.316649e+001	-2.000000e+002	0.000000e+000	-2.000000e+002	0.000000e+000
44299320.000	-3.127296e-001	-1.635435e+002	-3.799322e+001	-7.833454e+001	-2.000000e+002	0.000000e+000	-2.000000e+002	0.000000e+000
44949310.000	-3.438095e-001	-1.662085e+002	-3.556946e+001	-8.554511e+001	-2.000000e+002	0.000000e+000	-2.000000e+002	0.000000e+000
45599300.000	-4.074450e-001	-1.689996e+002	-3.231437e+001	-9.721913e+001	-2.000000e+002	0.000000e+000	-2.000000e+002	0.000000e+000
46249290.000	-5.948542e-001	-1.717817e+002	-2.784577e+001	-1.217751e+002	-2.000000e+002	0.000000e+000	-2.000000e+002	0.000000e+000
46899280.000	-8.307959e-001	-1.717150e+002	-2.515055e+001	1.790689e+002	-2.000000e+002	0.000000e+000	-2.000000e+002	0.000000e+000
47549270.000	-4.928056e-001	-1.732646e+002	-2.983018e+001	1.308028e+002	-2.000000e+002	0.000000e+000	-2.000000e+002	0.000000e+000
48199260.000	-3.928222e-001	-1.762417e+002	-3.441083e+001	1.117130e+002	-2.000000e+002	0.000000e+000	-2.000000e+002	0.000000e+000
48849250.000	-3.683526e-001	-1.790077e+002	-3.783290e+001	1.014310e+002	-2.000000e+002	0.000000e+000	-2.000000e+002	0.000000e+000
49499240.000	-3.627033e-001	1.783567e+002	-4.055321e+001	9.400577e+001	-2.000000e+002	0.000000e+000	-2.000000e+002	0.000000e+000
50149230.000	-3.626779e-001	1.757863e+002	-4.288213e+001	8.835171e+001	-2.000000e+002	0.000000e+000	-2.000000e+002	0.000000e+000
50799220.000	-3.658641e-001	1.732578e+002	-4.489735e+001	8.335635e+001	-2.000000e+002	0.000000e+000	-2.000000e+002	0.000000e+000
51449210.000	-3.693440e-001	1.707423e+002	-4.673679e+001	7.929204e+001	-2.000000e+002	0.000000e+000	-2.000000e+002	0.000000e+000
52099200.000	-3.741612e-001	1.682446e+002	-4.841763e+001	7.545670e+001	-2.000000e+002	0.000000e+000	-2.000000e+002	0.000000e+000
52749190.000	-3.788075e-001	1.657576e+002	-4.995717e+001	7.144937e+001	-2.000000e+002	0.000000e+000	-2.000000e+002	0.000000e+000
53399180.000	-3.839136e-001	1.632768e+002	-5.145538e+001	6.838764e+001	-2.000000e+002	0.000000e+000	-2.000000e+002	0.000000e+000
54049170.000	-3.891787e-001	1.608005e+002	-5.284543e+001	6.572545e+001	-2.000000e+002	0.000000e+000	-2.000000e+002	0.000000e+000
54699160.000	-3.940540e-001	1.583298e+002	-5.427787e+001	6.222467e+001	-2.000000e+002	0.000000e+000	-2.000000e+002	0.000000e+000
55349150.000	-3.999203e-001	1.558615e+002	-5.526369e+001	5.684547e+001	-2.000000e+002	0.000000e+000	-2.000000e+002	0.000000e+000
55999140.000	-4.057955e-001	1.533984e+002	-5.649932e+001	5.350592e+001	-2.000000e+002	0.000000e+000	-2.000000e+002	0.000000e+000
56649130.000	-4.110837e-001	1.509408e+002	-5.766305e+001	4.861843e+001	-2.000000e+002	0.000000e+000	-2.000000e+002	0.000000e+000
57299120.000	-4.167330e-001	1.484856e+002	-5.858427e+001	4.449995e+001	-2.000000e+002	0.000000e+000	-2.000000e+002	0.000000e+000
57949110.000	-4.218270e-001	1.460312e+002	-5.949053e+001	3.713394e+001	-2.000000e+002	0.000000e+000	-2.000000e+002	0.000000e+000
58599100.000	-4.266922e-001	1.435757e+002	-5.980867e+001	2.869541e+001	-2.000000e+002	0.000000e+000	-2.000000e+002	0.000000e+000
59249090.000	-4.321548e-001	1.411289e+002	-6.009661e+001	1.894225e+001	-2.000000e+002	0.000000e+000	-2.000000e+002	0.000000e+000
59899080.000	-4.377879e-001	1.386830e+002	-5.998637e+001	4.681447e+000	-2.000000e+002	0.000000e+000	-2.000000e+002	0.000000e+000
60549070.000	-4.436971e-001	1.362449e+002	-6.000302e+001	-1.700334e+001	-2.000000e+002	0.000000e+000	-2.000000e+002	0.000000e+000
61199060.000	-4.485638e-001	1.338199e+002	-6.007633e+001	-3.877841e+001	-2.000000e+002	0.000000e+000	-2.000000e+002	0.000000e+000
61849050.000	-4.521284e-001	1.313903e+002	-6.070049e+001	-6.382974e+001	-2.000000e+002	0.000000e+000	-2.000000e+002	0.000000e+000
62499040.000	-4.554456e-001	1.289632e+002	-6.139389e+001	-8.273402e+001	-2.000000e+002	0.000000e+000	-2.000000e+002	0.000000e+000
63149030.000	-4.585362e-001	1.265277e+002	-6.195569e+001	-9.527091e+001	-2.000000e+002	0.000000e+000	-2.000000e+002	0.000000e+000
63799020.000	-4.611427e-001	1.240972e+002	-6.180271e+001	-1.047685e+002	-2.000000e+002	0.000000e+000	-2.000000e+002	0.000000e+000
64449010.000	-4.646853e-001	1.216709e+002	-6.150421e+001	-1.112680e+002	-2.000000e+002	0.000000e+000	-2.000000e+002	0.000000e+000
65099000.000	-4.671486e-001	1.192423e+002	-6.146801e+001	-1.191900e+002	-2.000000e+002	0.000000e+000	-2.000000e+002	0.000000e+000
65748990.000	-4.694437e-001	1.168131e+002	-6.140377e+001	-1.268179e+002	-2.000000e+002	0.000000e+000	-2.000000e+002	0.000000e+000
66398980.000	-4.722843e-001	1.143901e+002	-6.126463e+001	-1.346585e+002	-2.000000e+002	0.000000e+000	-2.000000e+002	0.000000e+000
67048970.000	-4.746866e-001	1.119651e+002	-6.113567e+001	-1.382373e+002	-2.000000e+002	0.000000e+000	-2.000000e+002	0.000000e+000
67698960.000	-4.776869e-001	1.095499e+002	-6.084586e+001	-1.409704e+002	-2.000000e+002	0.000000e+000	-2.000000e+002	0.000000e+000
68348950.000	-4.792284e-001	1.071301e+002	-6.061483e+001	-1.447518e+002	-2.000000e+002	0.000000e+000	-2.000000e+002	0.000000e+000
68998940.000	-4.818043e-001	1.047178e+002	-6.055801e+001	-1.476957e+002	-2.000000e+002	0.000000e+000	-2.000000e+002	0.000000e+000
69648930.000	-4.832762e-001	1.023014e+002	-6.015421e+001	-1.495226e+002	-2.000000e+002	0.000000e+000	-2.000000e+002	0.000000e+000
70298920.000	-4.842326e-001	9.988509e+001	-5.972368e+001	-1.524019e+002	-2.000000e+002	0.000000e+000	-2.000000e+002	0.000000e+000
70948910.000	-4.866241e-001	9.747549e+001	-5.975078e+001	-1.539992e+002	-2.000000e+002	0.000000e+000	-2.000000e+002	0.000000e+000
71598900.000	-4.876142e-001	9.506727e+001	-5.952962e+001	-1.570967e+002	-2.000000e+002	0.000000e+000	-2.000000e+002	0.000000e+000
72248890.000	-4.894539e-001	9.266555e+001	-5.936859e+001	-1.589861e+002	-2.000000e+002	0.000000e+000	-2.000000e+002	0.000000e+000
72898880.000	-4.907203e-001	9.026193e+001	-5.885553e+001	-1.604259e+002	-2.000000e+002	0.000000e+000	-2.000000e+002	0.000000e+000
73548870.000	-4.923522e-001	8.786584e+001	-5.861813e+001	-1.625976e+002	-2.000000e+002	0.000000e+000	-2.000000e+002	0.000000e+000
74198860.000	-4.922323e-001	8.546682e+001	-5.826346e+001	-1.650449e+002	-2.000000e+002	0.000000e+000	-2.000000e+002	0.000000e+000
74848850.000	-4.932991e-001	8.307419e+001	-5.814762e+001	-1.669586e+002	-2.000000e+002	0.000000e+000	-2.000000e+002	0.000000e+000
75498840.000	-4.939408e-001	8.068253e+001	-5.784866e+001	-1.691908e+002	-2.000000e+002	0.000000e+000	-2.000000e+002	0.000000e+000
76148830.000	-4.943675e-001	7.828925e+001	-5.751938e+001	-1.715332e+002	-2.000000e+002	0.000000e+000	-2.000000e+002	0.000000e+000
76798820.000	-4.933957e-001	7.590203e+001	-5.738961e+001	-1.726080e+002	-2.000000e+002	0.000000e+000	-2.000000e+002	0.000000e+000
77448810.000	-4.959685e-001	7.352915e+001	-5.714820e+001	-1.748536e+002	-2.000000e+002	0.000000e+000	-2.000000e+002	0.000000e+000
78098800.000	-4.960507e-001	7.114404e+001	-5.679082e+001	-1.765650e+002	-2.000000e+002	0.000000e+000	-2.000000e+002	0.000000e+000
78748790.000	-4.959335e-001	6.876479e+001	-5.643827e+001	-1.787733e+002	-2.000000e+002	0.000000e+000	-2.000000e+002	0.000000e+000
79398780.000	-4.942031e-001	6.638652e+001	-5.613000e+001	1.776765e+002	-2.000000e+002	0.000000e+000	-2.000000e+002	0.000000e+000
80048770.000	-4.925027e-001	6.400650e+001	-5.592760e+001	1.749260e+002	-2.000000e+002	0.000000e+000	-2.000000e+002	0.000000e+000
80698760.000	-4.917640e-001	6.163251e+001	-5.568703e+001	1.712608e+002	-2.000000e+002	0.000000e+000	-2.000000e+002	0.000000e+000
81348750.000	-4.905620e-001	5.925817e+001	-5.555968e+001	1.692873e+002	-2.000000e+002	0.000000e+000	-2.000000e+002	0.000000e+000
81998740.000	-4.892488e-001	5.688685e+001	-5.550471e+001	1.662449e+002	-2.000000e+002	0.000000e+000	-2.000000e+002	0.000000e+000
82648730.000	-4.893703e-001	5.452991e+001	-5.542300e+001	1.643387e+002	-2.000000e+002	0.000000e+000	-2.000000e+002	0.000000e+000
83298720.000	-4.884652e-001	5.216071e+001	-5.528568e+001	1.611265e+002	-2.000000e+002	0.000000e+000	-2.000000e+002	0.000000e+000
83948710.000	-4.870533e-001	4.979495e+001	-5.521921e+001	1.596315e+002	-2.000000e+002	0.000000e+000	-2.000000e+002	0.000000e+000
84598700.000	-4.852299e-001	4.742368e+001	-5.519990e+001	1.570023e+002	-2.000000e+002	0.000000e+000	-2.000000e+002	0.000000e+000
85248690.000	-4.831241e-001	4.506114e+001	-5.488444e+001	1.553343e+002	-2.000000e+002	0.000000e+000	-2.000000e+002	0.000000e+000
85898680.000	-4.815750e-001	4.269902e+001	-5.498233e+001	1.527645e+002	-2.000000e+002	0.000000e+000	-2.000000e+002	0.000000e+000
86548670.000	-4.790772e-001	4.034112e+001	-5.485549e+001	1.512512e+002	-2.000000e+002	0.000000e+000	-2.000000e+002	0.000000e+000
87198660.000	-4.772572e-001	3.798587e+001	-5.485011e+001	1.492797e+002	-2.000000e+002	0.000000e+000	-2.000000e+002	0.000000e+000
87848650.000	-4.750462e-001	3.563146e+001	-5.479063e+001	1.473793e+002	-2.000000e+002	0.000000e+000	-2.000000e+002	0.000000e+000
88498640.000	-4.730131e-001	3.328060e+001	-5.457596e+001	1.451980e+002	-2.000000e+002	0.000000e+000	-2.000000e+002	0.000000e+000
89148630.000	-4.699289e-001	3.093881e+001	-5.454331e+001	1.435451e+002	-2.000000e+002	0.000000e+000	-2.000000e+002	0.000000e+000
89798620.000	-4.673337e-001	2.858549e+001	-5.452515e+001	1.409661e+002	-2.000000e+002	0.000000e+000	-2.000000e+002	0.000000e+000
90448610.000	-4.645710e-001	2.623479e+001	-5.450345e+001	1.390850e+002	-2.000000e+002	0.000000e+000	-2.000000e+002	0.000000e+000
91098600.000	-4.618012e-001	2.387956e+001	-5.456799e+001	1.379221e+002	-2.000000e+002	0.000000e+000	-2.000000e+002	0.000000e+000
91748590.000	-4.595373e-001	2.152930e+001	-5.469487e+001	1.361960e+002	-2.000000e+002	0.000000e+000	-2.000000e+002	0.000000e+000
92398580.000	-4.559265e-001	1.917646e+001	-5.453646e+001	1.357179e+002	-2.000000e+002	0.000000e+000	-2.000000e+002	0.000000e+000
93048570.000	-4.534581e-001	1.681745e+001	-5.460772e+001	1.355598e+002	-2.000000e+002	0.000000e+000	-2.000000e+002	0.000000e+000
93698560.000	-4.506760e-001	1.447147e+001	-5.459310e+001	1.341898e+002	-2.000000e+002	0.000000e+000	-2.000000e+002	0.000000e+000
94348550.000	-4.475937e-001	1.212107e+001	-5.459337e+001	1.348792e+002	-2.000000e+002	0.000000e+000	-2.000000e+002	0.000000e+000
94998540.000	-4.458826e-001	9.774903e+000	-5.445126e+001	1.346847e+002	-2.000000e+002	0.000000e+000	-2.000000e+002	0.000000e+000
95648530.000	-4.434070e-001	7.429646e+000	-5.443608e+001	1.356848e+002	-2.000000e+002	0.000000e+000	-2.000000e+002	0.000000e+000
96298520.000	-4.414076e-001	5.083972e+000	-5.412601e+001	1.375076e+002	-2.000000e+002	0.000000e+000	-2.000000e+002	0.000000e+000
96948510.000	-4.405559e-001	2.741572e+000	-5.371539e+001	1.397201e+002	-2.000000e+002	0.000000e+000	-2.000000e+002	0.000000e+000
97598500.000	-4.399872e-001	3.998136e-001	-5.297514e+001	1.413716e+002	-2.000000e+002	0.000000e+000	-2.000000e+002	0.000000e+000
98248490.000	-4.387494e-001	-1.930683e+000	-5.207464e+001	1.411476e+002	-2.000000e+002	0.000000e+000	-2.000000e+002	0.000000e+000
