!Keysight Technologies,E5063A,MY54503115,A.05.08
!Date: Sun Feb 04 18:58:56 2024
!Data & Calibration Information:
!Freq	S11:NONE(--)	S21:NONE(--)	S12:NONE(--)	S22:NONE(--)
# Hz S dB R 50
100000.000	4.891104e-002	-8.254881e-001	-8.407377e+001	3.817067e+001	-2.000000e+002	0.000000e+000	-2.000000e+002	0.000000e+000
749990.000	9.822146e-003	-3.062131e+000	-8.645465e+001	-8.709551e+001	-2.000000e+002	0.000000e+000	-2.000000e+002	0.000000e+000
1399980.000	1.179147e-002	-5.369824e+000	-8.072863e+001	1.430022e+002	-2.000000e+002	0.000000e+000	-2.000000e+002	0.000000e+000
2049970.000	1.029816e-002	-7.703258e+000	-7.725841e+001	1.219790e+002	-2.000000e+002	0.000000e+000	-2.000000e+002	0.000000e+000
2699960.000	1.031627e-002	-1.002575e+001	-7.941070e+001	8.589828e+001	-2.000000e+002	0.000000e+000	-2.000000e+002	0.000000e+000
3349950.000	1.430827e-002	-1.238039e+001	-7.447344e+001	7.784196e+001	-2.000000e+002	0.000000e+000	-2.000000e+002	0.000000e+000
3999940.000	1.308366e-002	-1.469528e+001	-7.447822e+001	9.429956e+001	-2.000000e+002	0.000000e+000	-2.000000e+002	0.000000e+000
4649930.000	1.620575e-002	-1.704505e+001	-7.583677e+001	1.117617e+002	-2.000000e+002	0.000000e+000	-2.000000e+002	0.000000e+000
5299920.000	1.430285e-002	-1.937570e+001	-7.715053e+001	6.935469e+001	-2.000000e+002	0.000000e+000	-2.000000e+002	0.000000e+000
5949910.000	1.388318e-002	-2.172360e+001	-7.213769e+001	7.775833e+001	-2.000000e+002	0.000000e+000	-2.000000e+002	0.000000e+000
6599900.000	1.485510e-002	-2.406505e+001	-7.157388e+001	8.489033e+001	-2.000000e+002	0.000000e+000	-2.000000e+002	0.000000e+000
7249890.000	1.423911e-002	-2.639936e+001	-7.227864e+001	7.369478e+001	-2.000000e+002	0.000000e+000	-2.000000e+002	0.000000e+000
7899880.000	1.345986e-002	-2.874753e+001	-7.183861e+001	6.546733e+001	-2.000000e+002	0.000000e+000	-2.000000e+002	0.000000e+000
8549870.000	1.833565e-002	-3.109721e+001	-6.945477e+001	6.623820e+001	-2.000000e+002	0.000000e+000	-2.000000e+002	0.000000e+000
9199860.000	1.736318e-002	-3.343900e+001	-6.944648e+001	6.473651e+001	-2.000000e+002	0.000000e+000	-2.000000e+002	0.000000e+000
9849850.000	1.599588e-002	-3.578511e+001	-6.885488e+001	6.150357e+001	-2.000000e+002	0.000000e+000	-2.000000e+002	0.000000e+000
10499840.000	1.279570e-002	-3.812942e+001	-6.852576e+001	5.952962e+001	-2.000000e+002	0.000000e+000	-2.000000e+002	0.000000e+000
11149830.000	1.024929e-002	-4.047333e+001	-6.732438e+001	5.671972e+001	-2.000000e+002	0.000000e+000	-2.000000e+002	0.000000e+000
11799820.000	8.369198e-003	-4.282150e+001	-6.714461e+001	5.696109e+001	-2.000000e+002	0.000000e+000	-2.000000e+002	0.000000e+000
12449810.000	8.429982e-003	-4.517760e+001	-6.714213e+001	5.309422e+001	-2.000000e+002	0.000000e+000	-2.000000e+002	0.000000e+000
13099800.000	9.992620e-003	-4.752031e+001	-6.601560e+001	5.313937e+001	-2.000000e+002	0.000000e+000	-2.000000e+002	0.000000e+000
13749790.000	7.506998e-003	-4.986913e+001	-6.577110e+001	5.013552e+001	-2.000000e+002	0.000000e+000	-2.000000e+002	0.000000e+000
14399780.000	4.617146e-003	-5.223123e+001	-6.486051e+001	4.724666e+001	-2.000000e+002	0.000000e+000	-2.000000e+002	0.000000e+000
15049770.000	4.135632e-003	-5.458767e+001	-6.490894e+001	4.472551e+001	-2.000000e+002	0.000000e+000	-2.000000e+002	0.000000e+000
15699760.000	2.984771e-003	-5.693391e+001	-6.438727e+001	4.325471e+001	-2.000000e+002	0.000000e+000	-2.000000e+002	0.000000e+000
16349750.000	1.300984e-003	-5.929234e+001	-6.386098e+001	4.455342e+001	-2.000000e+002	0.000000e+000	-2.000000e+002	0.000000e+000
16999740.000	-1.304966e-003	-6.166492e+001	-6.311232e+001	4.307712e+001	-2.000000e+002	0.000000e+000	-2.000000e+002	0.000000e+000
17649730.000	2.893996e-003	-6.403970e+001	-6.222934e+001	3.851066e+001	-2.000000e+002	0.000000e+000	-2.000000e+002	0.000000e+000
18299720.000	4.464036e-003	-6.641228e+001	-6.168543e+001	3.560350e+001	-2.000000e+002	0.000000e+000	-2.000000e+002	0.000000e+000
18949710.000	1.112852e-003	-6.878882e+001	-6.099505e+001	3.123752e+001	-2.000000e+002	0.000000e+000	-2.000000e+002	0.000000e+000
19599700.000	-7.127350e-003	-7.116647e+001	-6.120424e+001	2.533731e+001	-2.000000e+002	0.000000e+000	-2.000000e+002	0.000000e+000
20249690.000	-1.341068e-002	-7.354473e+001	-6.097464e+001	2.302325e+001	-2.000000e+002	0.000000e+000	-2.000000e+002	0.000000e+000
20899680.000	-1.795581e-002	-7.595472e+001	-6.056906e+001	2.139061e+001	-2.000000e+002	0.000000e+000	-2.000000e+002	0.000000e+000
21549670.000	-2.219536e-002	-7.834490e+001	-6.058495e+001	1.838727e+001	-2.000000e+002	0.000000e+000	-2.000000e+002	0.000000e+000
22199660.000	-2.712726e-002	-8.072468e+001	-6.029622e+001	1.686283e+001	-2.000000e+002	0.000000e+000	-2.000000e+002	0.000000e+000
22849650.000	-3.167320e-002	-8.308890e+001	-6.017995e+001	1.658273e+001	-2.000000e+002	0.000000e+000	-2.000000e+002	0.000000e+000
23499640.000	-3.805367e-002	-8.547894e+001	-5.972711e+001	1.747150e+001	-2.000000e+002	0.000000e+000	-2.000000e+002	0.000000e+000
24149630.000	-4.511701e-002	-8.787762e+001	-5.945809e+001	1.559441e+001	-2.000000e+002	0.000000e+000	-2.000000e+002	0.000000e+000
24799620.000	-5.162485e-002	-9.026895e+001	-5.838633e+001	1.448312e+001	-2.000000e+002	0.000000e+000	-2.000000e+002	0.000000e+000
25449610.000	-5.586139e-002	-9.265669e+001	-5.795157e+001	1.116414e+001	-2.000000e+002	0.000000e+000	-2.000000e+002	0.000000e+000
26099600.000	-6.204243e-002	-9.504885e+001	-5.749846e+001	7.429016e+000	-2.000000e+002	0.000000e+000	-2.000000e+002	0.000000e+000
26749590.000	-6.839681e-002	-9.744959e+001	-5.711214e+001	4.973352e+000	-2.000000e+002	0.000000e+000	-2.000000e+002	0.000000e+000
27399580.000	-7.599697e-002	-9.985238e+001	-5.663245e+001	2.615289e+000	-2.000000e+002	0.000000e+000	-2.000000e+002	0.000000e+000
28049570.000	-8.175939e-002	-1.022559e+002	-5.644037e+001	-3.571243e-001	-2.000000e+002	0.000000e+000	-2.000000e+002	0.000000e+000
28699560.000	-8.877773e-002	-1.046600e+002	-5.594666e+001	-3.520174e+000	-2.000000e+002	0.000000e+000	-2.000000e+002	0.000000e+000
29349550.000	-9.616560e-002	-1.070683e+002	-5.539584e+001	-7.560383e+000	-2.000000e+002	0.000000e+000	-2.000000e+002	0.000000e+000
29999540.000	-1.028807e-001	-1.094835e+002	-5.519561e+001	-9.927149e+000	-2.000000e+002	0.000000e+000	-2.000000e+002	0.000000e+000
30649530.000	-1.103618e-001	-1.119060e+002	-5.497717e+001	-1.150313e+001	-2.000000e+002	0.000000e+000	-2.000000e+002	0.000000e+000
31299520.000	-1.175513e-001	-1.143265e+002	-5.479057e+001	-1.349228e+001	-2.000000e+002	0.000000e+000	-2.000000e+002	0.000000e+000
31949510.000	-1.255854e-001	-1.167529e+002	-5.467998e+001	-1.527404e+001	-2.000000e+002	0.000000e+000	-2.000000e+002	0.000000e+000
32599500.000	-1.342337e-001	-1.191863e+002	-5.438873e+001	-1.660842e+001	-2.000000e+002	0.000000e+000	-2.000000e+002	0.000000e+000
33249490.000	-1.433366e-001	-1.216195e+002	-5.415359e+001	-1.470210e+001	-2.000000e+002	0.000000e+000	-2.000000e+002	0.000000e+000
33899480.000	-1.538987e-001	-1.240536e+002	-5.344064e+001	-1.133436e+001	-2.000000e+002	0.000000e+000	-2.000000e+002	0.000000e+000
34549470.000	-1.652629e-001	-1.264809e+002	-5.231837e+001	-9.023472e+000	-2.000000e+002	0.000000e+000	-2.000000e+002	0.000000e+000
35199460.000	-1.777395e-001	-1.288970e+002	-5.026286e+001	-9.465344e+000	-2.000000e+002	0.000000e+000	-2.000000e+002	0.000000e+000
35849450.000	-1.856205e-001	-1.313004e+002	-4.844295e+001	-1.753066e+001	-2.000000e+002	0.000000e+000	-2.000000e+002	0.000000e+000
36499440.000	-1.910521e-001	-1.337237e+002	-4.739972e+001	-2.775706e+001	-2.000000e+002	0.000000e+000	-2.000000e+002	0.000000e+000
37149430.000	-1.964594e-001	-1.361730e+002	-4.689068e+001	-3.597272e+001	-2.000000e+002	0.000000e+000	-2.000000e+002	0.000000e+000
37799420.000	-2.030224e-001	-1.386332e+002	-4.644800e+001	-4.257098e+001	-2.000000e+002	0.000000e+000	-2.000000e+002	0.000000e+000
38449410.000	-2.108253e-001	-1.411003e+002	-4.598006e+001	-4.743992e+001	-2.000000e+002	0.000000e+000	-2.000000e+002	0.000000e+000
39099400.000	-2.195520e-001	-1.435794e+002	-4.534653e+001	-5.179099e+001	-2.000000e+002	0.000000e+000	-2.000000e+002	0.000000e+000
39749390.000	-2.291360e-001	-1.460647e+002	-4.469713e+001	-5.595404e+001	-2.000000e+002	0.000000e+000	-2.000000e+002	0.000000e+000
40399380.000	-2.396531e-001	-1.485615e+002	-4.372339e+001	-5.980069e+001	-2.000000e+002	0.000000e+000	-2.000000e+002	0.000000e+000
41049370.000	-2.513166e-001	-1.510721e+002	-4.259907e+001	-6.377625e+001	-2.000000e+002	0.000000e+000	-2.000000e+002	0.000000e+000
41699360.000	-2.652604e-001	-1.536088e+002	-4.119592e+001	-6.819577e+001	-2.000000e+002	0.000000e+000	-2.000000e+002	0.000000e+000
42349350.000	-2.829212e-001	-1.561844e+002	-3.948217e+001	-7.354119e+001	-2.000000e+002	0.000000e+000	-2.000000e+002	0.000000e+000
42999340.000	-3.103717e-001	-1.588183e+002	-3.721682e+001	-8.057889e+001	-2.000000e+002	0.000000e+000	-2.000000e+002	0.000000e+000
43649330.000	-3.634306e-001	-1.615659e+002	-3.416370e+001	-9.148875e+001	-2.000000e+002	0.000000e+000	-2.000000e+002	0.000000e+000
44299320.000	-5.104873e-001	-1.643595e+002	-2.997708e+001	-1.134708e+002	-2.000000e+002	0.000000e+000	-2.000000e+002	0.000000e+000
44949310.000	-7.702131e-001	-1.650987e+002	-2.673732e+001	-1.660894e+002	-2.000000e+002	0.000000e+000	-2.000000e+002	0.000000e+000
45599300.000	-4.991111e-001	-1.661244e+002	-3.041316e+001	1.420902e+002	-2.000000e+002	0.000000e+000	-2.000000e+002	0.000000e+000
46249290.000	-3.812445e-001	-1.689926e+002	-3.490409e+001	1.198571e+002	-2.000000e+002	0.000000e+000	-2.000000e+002	0.000000e+000
46899280.000	-3.518205e-001	-1.717486e+002	-3.832598e+001	1.078997e+002	-2.000000e+002	0.000000e+000	-2.000000e+002	0.000000e+000
47549270.000	-3.436510e-001	-1.743854e+002	-4.104128e+001	9.974138e+001	-2.000000e+002	0.000000e+000	-2.000000e+002	0.000000e+000
48199260.000	-3.435413e-001	-1.769568e+002	-4.333677e+001	9.342008e+001	-2.000000e+002	0.000000e+000	-2.000000e+002	0.000000e+000
48849250.000	-3.459494e-001	-1.794883e+002	-4.523470e+001	8.789261e+001	-2.000000e+002	0.000000e+000	-2.000000e+002	0.000000e+000
49499240.000	-3.505374e-001	1.780015e+002	-4.693552e+001	8.307665e+001	-2.000000e+002	0.000000e+000	-2.000000e+002	0.000000e+000
50149230.000	-3.555856e-001	1.755027e+002	-4.849219e+001	7.864890e+001	-2.000000e+002	0.000000e+000	-2.000000e+002	0.000000e+000
50799220.000	-3.615248e-001	1.730148e+002	-4.996944e+001	7.436221e+001	-2.000000e+002	0.000000e+000	-2.000000e+002	0.000000e+000
51449210.000	-3.672529e-001	1.705345e+002	-5.109179e+001	7.016868e+001	-2.000000e+002	0.000000e+000	-2.000000e+002	0.000000e+000
52099200.000	-3.728862e-001	1.680600e+002	-5.214787e+001	6.521549e+001	-2.000000e+002	0.000000e+000	-2.000000e+002	0.000000e+000
52749190.000	-3.787428e-001	1.655900e+002	-5.332309e+001	5.971602e+001	-2.000000e+002	0.000000e+000	-2.000000e+002	0.000000e+000
53399180.000	-3.843932e-001	1.631266e+002	-5.440980e+001	5.394530e+001	-2.000000e+002	0.000000e+000	-2.000000e+002	0.000000e+000
54049170.000	-3.897472e-001	1.606585e+002	-5.545999e+001	5.011750e+001	-2.000000e+002	0.000000e+000	-2.000000e+002	0.000000e+000
54699160.000	-3.957150e-001	1.581957e+002	-5.662695e+001	4.480674e+001	-2.000000e+002	0.000000e+000	-2.000000e+002	0.000000e+000
55349150.000	-4.018187e-001	1.557333e+002	-5.732843e+001	4.085958e+001	-2.000000e+002	0.000000e+000	-2.000000e+002	0.000000e+000
55999140.000	-4.074127e-001	1.532769e+002	-5.802007e+001	3.075208e+001	-2.000000e+002	0.000000e+000	-2.000000e+002	0.000000e+000
56649130.000	-4.130864e-001	1.508231e+002	-5.853353e+001	2.665668e+001	-2.000000e+002	0.000000e+000	-2.000000e+002	0.000000e+000
57299120.000	-4.187624e-001	1.483713e+002	-5.927322e+001	2.068298e+001	-2.000000e+002	0.000000e+000	-2.000000e+002	0.000000e+000
57949110.000	-4.241246e-001	1.459179e+002	-5.931822e+001	1.370711e+001	-2.000000e+002	0.000000e+000	-2.000000e+002	0.000000e+000
58599100.000	-4.292062e-001	1.434661e+002	-5.903609e+001	6.392094e+000	-2.000000e+002	0.000000e+000	-2.000000e+002	0.000000e+000
59249090.000	-4.348080e-001	1.410237e+002	-5.853296e+001	-3.411378e+000	-2.000000e+002	0.000000e+000	-2.000000e+002	0.000000e+000
59899080.000	-4.407909e-001	1.385814e+002	-5.792650e+001	-1.612322e+001	-2.000000e+002	0.000000e+000	-2.000000e+002	0.000000e+000
60549070.000	-4.462041e-001	1.361495e+002	-5.724181e+001	-3.401358e+001	-2.000000e+002	0.000000e+000	-2.000000e+002	0.000000e+000
61199060.000	-4.510423e-001	1.337237e+002	-5.746373e+001	-5.075396e+001	-2.000000e+002	0.000000e+000	-2.000000e+002	0.000000e+000
61849050.000	-4.541775e-001	1.312956e+002	-5.778372e+001	-6.673521e+001	-2.000000e+002	0.000000e+000	-2.000000e+002	0.000000e+000
62499040.000	-4.570407e-001	1.288660e+002	-5.890299e+001	-8.090756e+001	-2.000000e+002	0.000000e+000	-2.000000e+002	0.000000e+000
63149030.000	-4.599705e-001	1.264325e+002	-5.968658e+001	-9.016917e+001	-2.000000e+002	0.000000e+000	-2.000000e+002	0.000000e+000
63799020.000	-4.631030e-001	1.239971e+002	-6.013074e+001	-9.503923e+001	-2.000000e+002	0.000000e+000	-2.000000e+002	0.000000e+000
64449010.000	-4.666226e-001	1.215737e+002	-6.053106e+001	-1.009406e+002	-2.000000e+002	0.000000e+000	-2.000000e+002	0.000000e+000
65099000.000	-4.688678e-001	1.191398e+002	-6.077447e+001	-1.087751e+002	-2.000000e+002	0.000000e+000	-2.000000e+002	0.000000e+000
65748990.000	-4.713016e-001	1.167136e+002	-6.101042e+001	-1.115504e+002	-2.000000e+002	0.000000e+000	-2.000000e+002	0.000000e+000
66398980.000	-4.750782e-001	1.142877e+002	-6.131161e+001	-1.132363e+002	-2.000000e+002	0.000000e+000	-2.000000e+002	0.000000e+000
67048970.000	-4.774682e-001	1.118619e+002	-6.155881e+001	-1.169927e+002	-2.000000e+002	0.000000e+000	-2.000000e+002	0.000000e+000
67698960.000	-4.805157e-001	1.094446e+002	-6.136516e+001	-1.184300e+002	-2.000000e+002	0.000000e+000	-2.000000e+002	0.000000e+000
68348950.000	-4.823772e-001	1.070242e+002	-6.141961e+001	-1.189290e+002	-2.000000e+002	0.000000e+000	-2.000000e+002	0.000000e+000
68998940.000	-4.852412e-001	1.046109e+002	-6.108431e+001	-1.212113e+002	-2.000000e+002	0.000000e+000	-2.000000e+002	0.000000e+000
69648930.000	-4.872005e-001	1.021968e+002	-6.082181e+001	-1.224872e+002	-2.000000e+002	0.000000e+000	-2.000000e+002	0.000000e+000
70298920.000	-4.884944e-001	9.977489e+001	-6.063721e+001	-1.242972e+002	-2.000000e+002	0.000000e+000	-2.000000e+002	0.000000e+000
70948910.000	-4.914323e-001	9.736751e+001	-6.018535e+001	-1.259544e+002	-2.000000e+002	0.000000e+000	-2.000000e+002	0.000000e+000
71598900.000	-4.929414e-001	9.496007e+001	-5.987879e+001	-1.277820e+002	-2.000000e+002	0.000000e+000	-2.000000e+002	0.000000e+000
72248890.000	-4.954098e-001	9.256079e+001	-5.918569e+001	-1.281798e+002	-2.000000e+002	0.000000e+000	-2.000000e+002	0.000000e+000
72898880.000	-4.970074e-001	9.015547e+001	-5.869908e+001	-1.310617e+002	-2.000000e+002	0.000000e+000	-2.000000e+002	0.000000e+000
73548870.000	-4.991082e-001	8.776537e+001	-5.825329e+001	-1.337450e+002	-2.000000e+002	0.000000e+000	-2.000000e+002	0.000000e+000
74198860.000	-4.997681e-001	8.537094e+001	-5.782746e+001	-1.378235e+002	-2.000000e+002	0.000000e+000	-2.000000e+002	0.000000e+000
74848850.000	-5.007178e-001	8.298101e+001	-5.746122e+001	-1.413016e+002	-2.000000e+002	0.000000e+000	-2.000000e+002	0.000000e+000
75498840.000	-5.008342e-001	8.059327e+001	-5.701061e+001	-1.446202e+002	-2.000000e+002	0.000000e+000	-2.000000e+002	0.000000e+000
76148830.000	-5.006099e-001	7.820790e+001	-5.677502e+001	-1.487150e+002	-2.000000e+002	0.000000e+000	-2.000000e+002	0.000000e+000
76798820.000	-4.997538e-001	7.581893e+001	-5.650510e+001	-1.529192e+002	-2.000000e+002	0.000000e+000	-2.000000e+002	0.000000e+000
77448810.000	-5.010416e-001	7.344780e+001	-5.636841e+001	-1.559278e+002	-2.000000e+002	0.000000e+000	-2.000000e+002	0.000000e+000
78098800.000	-5.010157e-001	7.106762e+001	-5.613405e+001	-1.586871e+002	-2.000000e+002	0.000000e+000	-2.000000e+002	0.000000e+000
78748790.000	-5.005621e-001	6.868943e+001	-5.577306e+001	-1.623820e+002	-2.000000e+002	0.000000e+000	-2.000000e+002	0.000000e+000
79398780.000	-4.985268e-001	6.631037e+001	-5.565325e+001	-1.664984e+002	-2.000000e+002	0.000000e+000	-2.000000e+002	0.000000e+000
80048770.000	-4.970491e-001	6.392361e+001	-5.569048e+001	-1.704249e+002	-2.000000e+002	0.000000e+000	-2.000000e+002	0.000000e+000
80698760.000	-4.954970e-001	6.154853e+001	-5.561439e+001	-1.726500e+002	-2.000000e+002	0.000000e+000	-2.000000e+002	0.000000e+000
81348750.000	-4.943753e-001	5.917319e+001	-5.561387e+001	-1.755942e+002	-2.000000e+002	0.000000e+000	-2.000000e+002	0.000000e+000
81998740.000	-4.925643e-001	5.679776e+001	-5.554482e+001	-1.783508e+002	-2.000000e+002	0.000000e+000	-2.000000e+002	0.000000e+000
82648730.000	-4.934123e-001	5.443902e+001	-5.549052e+001	1.793951e+002	-2.000000e+002	0.000000e+000	-2.000000e+002	0.000000e+000
83298720.000	-4.917540e-001	5.207072e+001	-5.539143e+001	1.776964e+002	-2.000000e+002	0.000000e+000	-2.000000e+002	0.000000e+000
83948710.000	-4.904209e-001	4.969966e+001	-5.539372e+001	1.761665e+002	-2.000000e+002	0.000000e+000	-2.000000e+002	0.000000e+000
84598700.000	-4.884842e-001	4.733237e+001	-5.531744e+001	1.742414e+002	-2.000000e+002	0.000000e+000	-2.000000e+002	0.000000e+000
85248690.000	-4.871448e-001	4.496971e+001	-5.521680e+001	1.726727e+002	-2.000000e+002	0.000000e+000	-2.000000e+002	0.000000e+000
85898680.000	-4.855190e-001	4.260651e+001	-5.496780e+001	1.713612e+002	-2.000000e+002	0.000000e+000	-2.000000e+002	0.000000e+000
86548670.000	-4.834475e-001	4.024825e+001	-5.476495e+001	1.697902e+002	-2.000000e+002	0.000000e+000	-2.000000e+002	0.000000e+000
87198660.000	-4.813990e-001	3.789214e+001	-5.464054e+001	1.676003e+002	-2.000000e+002	0.000000e+000	-2.000000e+002	0.000000e+000
87848650.000	-4.786982e-001	3.553855e+001	-5.446622e+001	1.655240e+002	-2.000000e+002	0.000000e+000	-2.000000e+002	0.000000e+000
88498640.000	-4.768121e-001	3.318711e+001	-5.427597e+001	1.644876e+002	-2.000000e+002	0.000000e+000	-2.000000e+002	0.000000e+000
89148630.000	-4.750359e-001	3.083654e+001	-5.413504e+001	1.634950e+002	-2.000000e+002	0.000000e+000	-2.000000e+002	0.000000e+000
89798620.000	-4.730941e-001	2.848785e+001	-5.380457e+001	1.622287e+002	-2.000000e+002	0.000000e+000	-2.000000e+002	0.000000e+000
90448610.000	-4.706666e-001	2.613994e+001	-5.343286e+001	1.609133e+002	-2.000000e+002	0.000000e+000	-2.000000e+002	0.000000e+000
91098600.000	-4.687168e-001	2.378782e+001	-5.307811e+001	1.584700e+002	-2.000000e+002	0.000000e+000	-2.000000e+002	0.000000e+000
91748590.000	-4.666614e-001	2.143871e+001	-5.283140e+001	1.564336e+002	-2.000000e+002	0.000000e+000	-2.000000e+002	0.000000e+000
92398580.000	-4.634293e-001	1.908728e+001	-5.243763e+001	1.535927e+002	-2.000000e+002	0.000000e+000	-2.000000e+002	0.000000e+000
93048570.000	-4.607311e-001	1.674460e+001	-5.198113e+001	1.509874e+002	-2.000000e+002	0.000000e+000	-2.000000e+002	0.000000e+000
93698560.000	-4.592801e-001	1.439857e+001	-5.184398e+001	1.484089e+002	-2.000000e+002	0.000000e+000	-2.000000e+002	0.000000e+000
94348550.000	-4.566135e-001	1.205520e+001	-5.151271e+001	1.453752e+002	-2.000000e+002	0.000000e+000	-2.000000e+002	0.000000e+000
94998540.000	-4.542333e-001	9.716144e+000	-5.138906e+001	1.421881e+002	-2.000000e+002	0.000000e+000	-2.000000e+002	0.000000e+000
95648530.000	-4.509612e-001	7.378837e+000	-5.109293e+001	1.395344e+002	-2.000000e+002	0.000000e+000	-2.000000e+002	0.000000e+000
96298520.000	-4.488125e-001	5.039408e+000	-5.086191e+001	1.372483e+002	-2.000000e+002	0.000000e+000	-2.000000e+002	0.000000e+000
96948510.000	-4.469763e-001	2.705586e+000	-5.064830e+001	1.348209e+002	-2.000000e+002	0.000000e+000	-2.000000e+002	0.000000e+000
97598500.000	-4.450526e-001	3.753328e-001	-5.025883e+001	1.321524e+002	-2.000000e+002	0.000000e+000	-2.000000e+002	0.000000e+000
98248490.000	-4.417305e-001	-1.958030e+000	-5.006803e+001	1.281050e+002	-2.000000e+002	0.000000e+000	-2.000000e+002	0.000000e+000
