!Keysight Technologies,E5063A,MY54503115,A.05.08
!Date: Sun Feb 04 18:28:25 2024
!Data & Calibration Information:
!Freq	S11:NONE(--)	S21:NONE(--)	S12:NONE(--)	S22:NONE(--)
# Hz S dB R 50
100000.000	4.569581e-002	-7.780573e-001	-8.309211e+001	4.237704e+000	-2.000000e+002	0.000000e+000	-2.000000e+002	0.000000e+000
749990.000	8.995002e-003	-3.045466e+000	-9.560448e+001	1.648840e+002	-2.000000e+002	0.000000e+000	-2.000000e+002	0.000000e+000
1399980.000	1.040481e-002	-5.362608e+000	-8.819730e+001	1.319317e+002	-2.000000e+002	0.000000e+000	-2.000000e+002	0.000000e+000
2049970.000	1.166459e-002	-7.684206e+000	-7.863661e+001	9.460512e+001	-2.000000e+002	0.000000e+000	-2.000000e+002	0.000000e+000
2699960.000	1.158118e-002	-1.000882e+001	-7.637946e+001	9.282168e+001	-2.000000e+002	0.000000e+000	-2.000000e+002	0.000000e+000
3349950.000	1.528276e-002	-1.234653e+001	-7.477210e+001	6.749808e+001	-2.000000e+002	0.000000e+000	-2.000000e+002	0.000000e+000
3999940.000	1.363335e-002	-1.467769e+001	-7.377554e+001	6.638320e+001	-2.000000e+002	0.000000e+000	-2.000000e+002	0.000000e+000
4649930.000	1.719537e-002	-1.701604e+001	-7.444517e+001	8.206093e+001	-2.000000e+002	0.000000e+000	-2.000000e+002	0.000000e+000
5299920.000	1.484746e-002	-1.935146e+001	-7.097594e+001	7.081270e+001	-2.000000e+002	0.000000e+000	-2.000000e+002	0.000000e+000
5949910.000	1.561031e-002	-2.168986e+001	-6.944545e+001	6.659275e+001	-2.000000e+002	0.000000e+000	-2.000000e+002	0.000000e+000
6599900.000	1.399188e-002	-2.402848e+001	-7.079885e+001	6.703453e+001	-2.000000e+002	0.000000e+000	-2.000000e+002	0.000000e+000
7249890.000	1.498499e-002	-2.636767e+001	-7.042957e+001	6.817782e+001	-2.000000e+002	0.000000e+000	-2.000000e+002	0.000000e+000
7899880.000	1.444364e-002	-2.872256e+001	-6.827624e+001	6.814681e+001	-2.000000e+002	0.000000e+000	-2.000000e+002	0.000000e+000
8549870.000	1.850751e-002	-3.106240e+001	-6.819097e+001	6.003305e+001	-2.000000e+002	0.000000e+000	-2.000000e+002	0.000000e+000
9199860.000	1.777141e-002	-3.340617e+001	-6.750671e+001	5.810658e+001	-2.000000e+002	0.000000e+000	-2.000000e+002	0.000000e+000
9849850.000	1.639532e-002	-3.574988e+001	-6.680169e+001	5.502877e+001	-2.000000e+002	0.000000e+000	-2.000000e+002	0.000000e+000
10499840.000	1.415477e-002	-3.809518e+001	-6.647987e+001	5.059963e+001	-2.000000e+002	0.000000e+000	-2.000000e+002	0.000000e+000
11149830.000	1.161113e-002	-4.043901e+001	-6.573413e+001	4.960313e+001	-2.000000e+002	0.000000e+000	-2.000000e+002	0.000000e+000
11799820.000	1.044332e-002	-4.277871e+001	-6.487204e+001	4.752585e+001	-2.000000e+002	0.000000e+000	-2.000000e+002	0.000000e+000
12449810.000	9.996000e-003	-4.513456e+001	-6.419581e+001	4.591164e+001	-2.000000e+002	0.000000e+000	-2.000000e+002	0.000000e+000
13099800.000	1.114344e-002	-4.748116e+001	-6.365876e+001	4.568132e+001	-2.000000e+002	0.000000e+000	-2.000000e+002	0.000000e+000
13749790.000	8.991395e-003	-4.982610e+001	-6.360571e+001	4.264756e+001	-2.000000e+002	0.000000e+000	-2.000000e+002	0.000000e+000
14399780.000	6.171717e-003	-5.219023e+001	-6.340500e+001	3.742331e+001	-2.000000e+002	0.000000e+000	-2.000000e+002	0.000000e+000
15049770.000	5.605385e-003	-5.454125e+001	-6.307416e+001	3.803503e+001	-2.000000e+002	0.000000e+000	-2.000000e+002	0.000000e+000
15699760.000	4.683343e-003	-5.688842e+001	-6.233926e+001	3.618229e+001	-2.000000e+002	0.000000e+000	-2.000000e+002	0.000000e+000
16349750.000	3.173755e-003	-5.924398e+001	-6.200668e+001	3.534999e+001	-2.000000e+002	0.000000e+000	-2.000000e+002	0.000000e+000
16999740.000	9.995279e-004	-6.161643e+001	-6.175592e+001	3.430167e+001	-2.000000e+002	0.000000e+000	-2.000000e+002	0.000000e+000
17649730.000	5.282772e-003	-6.398928e+001	-6.103293e+001	3.146123e+001	-2.000000e+002	0.000000e+000	-2.000000e+002	0.000000e+000
18299720.000	6.563447e-003	-6.636585e+001	-6.046391e+001	2.996947e+001	-2.000000e+002	0.000000e+000	-2.000000e+002	0.000000e+000
18949710.000	3.695986e-003	-6.874083e+001	-6.006224e+001	2.585919e+001	-2.000000e+002	0.000000e+000	-2.000000e+002	0.000000e+000
19599700.000	-4.698691e-003	-7.111566e+001	-5.954792e+001	2.172477e+001	-2.000000e+002	0.000000e+000	-2.000000e+002	0.000000e+000
20249690.000	-1.087428e-002	-7.349453e+001	-5.944041e+001	1.850978e+001	-2.000000e+002	0.000000e+000	-2.000000e+002	0.000000e+000
20899680.000	-1.511959e-002	-7.590436e+001	-5.909112e+001	1.646258e+001	-2.000000e+002	0.000000e+000	-2.000000e+002	0.000000e+000
21549670.000	-1.942123e-002	-7.829291e+001	-5.906097e+001	1.498671e+001	-2.000000e+002	0.000000e+000	-2.000000e+002	0.000000e+000
22199660.000	-2.428939e-002	-8.067030e+001	-5.873882e+001	1.275858e+001	-2.000000e+002	0.000000e+000	-2.000000e+002	0.000000e+000
22849650.000	-2.876627e-002	-8.303191e+001	-5.870174e+001	9.493715e+000	-2.000000e+002	0.000000e+000	-2.000000e+002	0.000000e+000
23499640.000	-3.514962e-002	-8.542415e+001	-5.841679e+001	9.576591e+000	-2.000000e+002	0.000000e+000	-2.000000e+002	0.000000e+000
24149630.000	-4.225409e-002	-8.782078e+001	-5.806870e+001	7.970428e+000	-2.000000e+002	0.000000e+000	-2.000000e+002	0.000000e+000
24799620.000	-4.801818e-002	-9.021059e+001	-5.739315e+001	6.736741e+000	-2.000000e+002	0.000000e+000	-2.000000e+002	0.000000e+000
25449610.000	-5.222703e-002	-9.259494e+001	-5.695216e+001	4.340049e+000	-2.000000e+002	0.000000e+000	-2.000000e+002	0.000000e+000
26099600.000	-5.860545e-002	-9.498625e+001	-5.652199e+001	2.011983e+000	-2.000000e+002	0.000000e+000	-2.000000e+002	0.000000e+000
26749590.000	-6.538070e-002	-9.738552e+001	-5.630703e+001	-1.605507e+000	-2.000000e+002	0.000000e+000	-2.000000e+002	0.000000e+000
27399580.000	-7.186243e-002	-9.978944e+001	-5.577649e+001	-2.871736e+000	-2.000000e+002	0.000000e+000	-2.000000e+002	0.000000e+000
28049570.000	-7.820976e-002	-1.021900e+002	-5.550734e+001	-6.601230e+000	-2.000000e+002	0.000000e+000	-2.000000e+002	0.000000e+000
28699560.000	-8.469819e-002	-1.045908e+002	-5.520796e+001	-9.081522e+000	-2.000000e+002	0.000000e+000	-2.000000e+002	0.000000e+000
29349550.000	-9.182499e-002	-1.070008e+002	-5.501518e+001	-1.163853e+001	-2.000000e+002	0.000000e+000	-2.000000e+002	0.000000e+000
29999540.000	-9.870034e-002	-1.094105e+002	-5.449319e+001	-1.419055e+001	-2.000000e+002	0.000000e+000	-2.000000e+002	0.000000e+000
30649530.000	-1.059501e-001	-1.118300e+002	-5.444867e+001	-1.716355e+001	-2.000000e+002	0.000000e+000	-2.000000e+002	0.000000e+000
31299520.000	-1.129250e-001	-1.142488e+002	-5.429027e+001	-1.949566e+001	-2.000000e+002	0.000000e+000	-2.000000e+002	0.000000e+000
31949510.000	-1.207908e-001	-1.166748e+002	-5.417665e+001	-2.107816e+001	-2.000000e+002	0.000000e+000	-2.000000e+002	0.000000e+000
32599500.000	-1.293374e-001	-1.191047e+002	-5.411841e+001	-2.256919e+001	-2.000000e+002	0.000000e+000	-2.000000e+002	0.000000e+000
33249490.000	-1.376129e-001	-1.215363e+002	-5.412808e+001	-2.197380e+001	-2.000000e+002	0.000000e+000	-2.000000e+002	0.000000e+000
33899480.000	-1.479291e-001	-1.239744e+002	-5.395787e+001	-1.809876e+001	-2.000000e+002	0.000000e+000	-2.000000e+002	0.000000e+000
34549470.000	-1.597559e-001	-1.264017e+002	-5.301702e+001	-1.240916e+001	-2.000000e+002	0.000000e+000	-2.000000e+002	0.000000e+000
35199460.000	-1.726106e-001	-1.288156e+002	-5.096499e+001	-9.427432e+000	-2.000000e+002	0.000000e+000	-2.000000e+002	0.000000e+000
35849450.000	-1.810624e-001	-1.312108e+002	-4.889859e+001	-1.722158e+001	-2.000000e+002	0.000000e+000	-2.000000e+002	0.000000e+000
36499440.000	-1.860127e-001	-1.336267e+002	-4.801211e+001	-2.676093e+001	-2.000000e+002	0.000000e+000	-2.000000e+002	0.000000e+000
37149430.000	-1.915382e-001	-1.360689e+002	-4.748257e+001	-3.469378e+001	-2.000000e+002	0.000000e+000	-2.000000e+002	0.000000e+000
37799420.000	-1.974627e-001	-1.385198e+002	-4.714403e+001	-4.121268e+001	-2.000000e+002	0.000000e+000	-2.000000e+002	0.000000e+000
38449410.000	-2.048208e-001	-1.409752e+002	-4.678213e+001	-4.589656e+001	-2.000000e+002	0.000000e+000	-2.000000e+002	0.000000e+000
39099400.000	-2.125282e-001	-1.434383e+002	-4.644689e+001	-5.001674e+001	-2.000000e+002	0.000000e+000	-2.000000e+002	0.000000e+000
39749390.000	-2.205148e-001	-1.459059e+002	-4.600664e+001	-5.388146e+001	-2.000000e+002	0.000000e+000	-2.000000e+002	0.000000e+000
40399380.000	-2.295205e-001	-1.483775e+002	-4.547757e+001	-5.655725e+001	-2.000000e+002	0.000000e+000	-2.000000e+002	0.000000e+000
41049370.000	-2.387579e-001	-1.508593e+002	-4.477410e+001	-5.940192e+001	-2.000000e+002	0.000000e+000	-2.000000e+002	0.000000e+000
41699360.000	-2.486997e-001	-1.533473e+002	-4.391551e+001	-6.297535e+001	-2.000000e+002	0.000000e+000	-2.000000e+002	0.000000e+000
42349350.000	-2.589506e-001	-1.558459e+002	-4.303764e+001	-6.568546e+001	-2.000000e+002	0.000000e+000	-2.000000e+002	0.000000e+000
42999340.000	-2.706135e-001	-1.583648e+002	-4.190994e+001	-6.895984e+001	-2.000000e+002	0.000000e+000	-2.000000e+002	0.000000e+000
43649330.000	-2.840175e-001	-1.609060e+002	-4.051780e+001	-7.243047e+001	-2.000000e+002	0.000000e+000	-2.000000e+002	0.000000e+000
44299320.000	-3.009811e-001	-1.634851e+002	-3.872028e+001	-7.690592e+001	-2.000000e+002	0.000000e+000	-2.000000e+002	0.000000e+000
44949310.000	-3.252104e-001	-1.661344e+002	-3.643843e+001	-8.310782e+001	-2.000000e+002	0.000000e+000	-2.000000e+002	0.000000e+000
45599300.000	-3.710371e-001	-1.689179e+002	-3.339987e+001	-9.265996e+001	-2.000000e+002	0.000000e+000	-2.000000e+002	0.000000e+000
46249290.000	-5.015374e-001	-1.719096e+002	-2.916654e+001	-1.115206e+002	-2.000000e+002	0.000000e+000	-2.000000e+002	0.000000e+000
46899280.000	-8.960011e-001	-1.731347e+002	-2.472634e+001	-1.613427e+002	-2.000000e+002	0.000000e+000	-2.000000e+002	0.000000e+000
47549270.000	-5.843686e-001	-1.729906e+002	-2.829729e+001	1.379579e+002	-2.000000e+002	0.000000e+000	-2.000000e+002	0.000000e+000
48199260.000	-4.150132e-001	-1.760021e+002	-3.336436e+001	1.146166e+002	-2.000000e+002	0.000000e+000	-2.000000e+002	0.000000e+000
48849250.000	-3.749683e-001	-1.788459e+002	-3.705958e+001	1.033617e+002	-2.000000e+002	0.000000e+000	-2.000000e+002	0.000000e+000
49499240.000	-3.637302e-001	1.784753e+002	-3.993147e+001	9.588709e+001	-2.000000e+002	0.000000e+000	-2.000000e+002	0.000000e+000
50149230.000	-3.615676e-001	1.758835e+002	-4.232669e+001	9.018246e+001	-2.000000e+002	0.000000e+000	-2.000000e+002	0.000000e+000
50799220.000	-3.634946e-001	1.733369e+002	-4.432954e+001	8.583099e+001	-2.000000e+002	0.000000e+000	-2.000000e+002	0.000000e+000
51449210.000	-3.668968e-001	1.708110e+002	-4.610539e+001	8.152326e+001	-2.000000e+002	0.000000e+000	-2.000000e+002	0.000000e+000
52099200.000	-3.708766e-001	1.683104e+002	-4.775320e+001	7.724216e+001	-2.000000e+002	0.000000e+000	-2.000000e+002	0.000000e+000
52749190.000	-3.751228e-001	1.658208e+002	-4.930290e+001	7.333281e+001	-2.000000e+002	0.000000e+000	-2.000000e+002	0.000000e+000
53399180.000	-3.800533e-001	1.633368e+002	-5.081939e+001	6.939220e+001	-2.000000e+002	0.000000e+000	-2.000000e+002	0.000000e+000
54049170.000	-3.850691e-001	1.608577e+002	-5.214474e+001	6.567486e+001	-2.000000e+002	0.000000e+000	-2.000000e+002	0.000000e+000
54699160.000	-3.904403e-001	1.583849e+002	-5.341242e+001	6.247442e+001	-2.000000e+002	0.000000e+000	-2.000000e+002	0.000000e+000
55349150.000	-3.959224e-001	1.559167e+002	-5.459130e+001	5.912215e+001	-2.000000e+002	0.000000e+000	-2.000000e+002	0.000000e+000
55999140.000	-4.014058e-001	1.534526e+002	-5.582332e+001	5.427653e+001	-2.000000e+002	0.000000e+000	-2.000000e+002	0.000000e+000
56649130.000	-4.067342e-001	1.509937e+002	-5.699638e+001	5.090608e+001	-2.000000e+002	0.000000e+000	-2.000000e+002	0.000000e+000
57299120.000	-4.120896e-001	1.485392e+002	-5.779087e+001	4.583930e+001	-2.000000e+002	0.000000e+000	-2.000000e+002	0.000000e+000
57949110.000	-4.170327e-001	1.460845e+002	-5.870042e+001	4.167079e+001	-2.000000e+002	0.000000e+000	-2.000000e+002	0.000000e+000
58599100.000	-4.220313e-001	1.436281e+002	-5.913205e+001	3.390550e+001	-2.000000e+002	0.000000e+000	-2.000000e+002	0.000000e+000
59249090.000	-4.271709e-001	1.411798e+002	-5.950261e+001	2.549936e+001	-2.000000e+002	0.000000e+000	-2.000000e+002	0.000000e+000
59899080.000	-4.326245e-001	1.387357e+002	-5.962359e+001	1.245932e+001	-2.000000e+002	0.000000e+000	-2.000000e+002	0.000000e+000
60549070.000	-4.378296e-001	1.362969e+002	-5.948872e+001	-4.973115e+000	-2.000000e+002	0.000000e+000	-2.000000e+002	0.000000e+000
61199060.000	-4.434179e-001	1.338681e+002	-5.929731e+001	-2.460197e+001	-2.000000e+002	0.000000e+000	-2.000000e+002	0.000000e+000
61849050.000	-4.472172e-001	1.314386e+002	-5.969426e+001	-4.671299e+001	-2.000000e+002	0.000000e+000	-2.000000e+002	0.000000e+000
62499040.000	-4.509475e-001	1.290138e+002	-6.014703e+001	-7.079549e+001	-2.000000e+002	0.000000e+000	-2.000000e+002	0.000000e+000
63149030.000	-4.534627e-001	1.265833e+002	-6.070447e+001	-8.682860e+001	-2.000000e+002	0.000000e+000	-2.000000e+002	0.000000e+000
63799020.000	-4.565500e-001	1.241561e+002	-6.139539e+001	-1.003465e+002	-2.000000e+002	0.000000e+000	-2.000000e+002	0.000000e+000
64449010.000	-4.603745e-001	1.217303e+002	-6.162765e+001	-1.084379e+002	-2.000000e+002	0.000000e+000	-2.000000e+002	0.000000e+000
65099000.000	-4.622004e-001	1.193031e+002	-6.128064e+001	-1.159665e+002	-2.000000e+002	0.000000e+000	-2.000000e+002	0.000000e+000
65748990.000	-4.644989e-001	1.168723e+002	-6.136419e+001	-1.250305e+002	-2.000000e+002	0.000000e+000	-2.000000e+002	0.000000e+000
66398980.000	-4.673254e-001	1.144486e+002	-6.117514e+001	-1.289936e+002	-2.000000e+002	0.000000e+000	-2.000000e+002	0.000000e+000
67048970.000	-4.691790e-001	1.120253e+002	-6.113983e+001	-1.342755e+002	-2.000000e+002	0.000000e+000	-2.000000e+002	0.000000e+000
67698960.000	-4.722277e-001	1.096109e+002	-6.073108e+001	-1.391092e+002	-2.000000e+002	0.000000e+000	-2.000000e+002	0.000000e+000
68348950.000	-4.737617e-001	1.071928e+002	-6.089621e+001	-1.412865e+002	-2.000000e+002	0.000000e+000	-2.000000e+002	0.000000e+000
68998940.000	-4.765149e-001	1.047801e+002	-6.051441e+001	-1.443186e+002	-2.000000e+002	0.000000e+000	-2.000000e+002	0.000000e+000
69648930.000	-4.779661e-001	1.023668e+002	-6.035708e+001	-1.468980e+002	-2.000000e+002	0.000000e+000	-2.000000e+002	0.000000e+000
70298920.000	-4.790099e-001	9.995092e+001	-6.008545e+001	-1.513346e+002	-2.000000e+002	0.000000e+000	-2.000000e+002	0.000000e+000
70948910.000	-4.812153e-001	9.753972e+001	-5.988312e+001	-1.535218e+002	-2.000000e+002	0.000000e+000	-2.000000e+002	0.000000e+000
71598900.000	-4.820016e-001	9.513333e+001	-5.973855e+001	-1.550679e+002	-2.000000e+002	0.000000e+000	-2.000000e+002	0.000000e+000
72248890.000	-4.839886e-001	9.273047e+001	-5.933218e+001	-1.570828e+002	-2.000000e+002	0.000000e+000	-2.000000e+002	0.000000e+000
72898880.000	-4.855308e-001	9.033087e+001	-5.915737e+001	-1.584850e+002	-2.000000e+002	0.000000e+000	-2.000000e+002	0.000000e+000
73548870.000	-4.867210e-001	8.793081e+001	-5.889061e+001	-1.596680e+002	-2.000000e+002	0.000000e+000	-2.000000e+002	0.000000e+000
74198860.000	-4.875301e-001	8.553506e+001	-5.857203e+001	-1.621482e+002	-2.000000e+002	0.000000e+000	-2.000000e+002	0.000000e+000
74848850.000	-4.889856e-001	8.314203e+001	-5.834925e+001	-1.641046e+002	-2.000000e+002	0.000000e+000	-2.000000e+002	0.000000e+000
75498840.000	-4.891734e-001	8.075028e+001	-5.786450e+001	-1.656332e+002	-2.000000e+002	0.000000e+000	-2.000000e+002	0.000000e+000
76148830.000	-4.896541e-001	7.836390e+001	-5.755346e+001	-1.675553e+002	-2.000000e+002	0.000000e+000	-2.000000e+002	0.000000e+000
76798820.000	-4.892701e-001	7.597564e+001	-5.714615e+001	-1.696400e+002	-2.000000e+002	0.000000e+000	-2.000000e+002	0.000000e+000
77448810.000	-4.911731e-001	7.360545e+001	-5.678013e+001	-1.718931e+002	-2.000000e+002	0.000000e+000	-2.000000e+002	0.000000e+000
78098800.000	-4.907049e-001	7.122256e+001	-5.640201e+001	-1.749795e+002	-2.000000e+002	0.000000e+000	-2.000000e+002	0.000000e+000
78748790.000	-4.900943e-001	6.884944e+001	-5.601425e+001	-1.782777e+002	-2.000000e+002	0.000000e+000	-2.000000e+002	0.000000e+000
79398780.000	-4.886035e-001	6.647143e+001	-5.574140e+001	1.786824e+002	-2.000000e+002	0.000000e+000	-2.000000e+002	0.000000e+000
80048770.000	-4.869656e-001	6.409132e+001	-5.558777e+001	1.745716e+002	-2.000000e+002	0.000000e+000	-2.000000e+002	0.000000e+000
80698760.000	-4.853692e-001	6.171925e+001	-5.548302e+001	1.712876e+002	-2.000000e+002	0.000000e+000	-2.000000e+002	0.000000e+000
81348750.000	-4.839262e-001	5.934236e+001	-5.546236e+001	1.684512e+002	-2.000000e+002	0.000000e+000	-2.000000e+002	0.000000e+000
81998740.000	-4.822591e-001	5.696974e+001	-5.530692e+001	1.653863e+002	-2.000000e+002	0.000000e+000	-2.000000e+002	0.000000e+000
82648730.000	-4.829062e-001	5.461373e+001	-5.533929e+001	1.626351e+002	-2.000000e+002	0.000000e+000	-2.000000e+002	0.000000e+000
83298720.000	-4.809433e-001	5.224723e+001	-5.529046e+001	1.605630e+002	-2.000000e+002	0.000000e+000	-2.000000e+002	0.000000e+000
83948710.000	-4.793328e-001	4.987579e+001	-5.540374e+001	1.583936e+002	-2.000000e+002	0.000000e+000	-2.000000e+002	0.000000e+000
84598700.000	-4.775682e-001	4.751051e+001	-5.523632e+001	1.560081e+002	-2.000000e+002	0.000000e+000	-2.000000e+002	0.000000e+000
85248690.000	-4.752294e-001	4.514468e+001	-5.498456e+001	1.542691e+002	-2.000000e+002	0.000000e+000	-2.000000e+002	0.000000e+000
85898680.000	-4.744929e-001	4.278329e+001	-5.516259e+001	1.526595e+002	-2.000000e+002	0.000000e+000	-2.000000e+002	0.000000e+000
86548670.000	-4.720820e-001	4.042446e+001	-5.503905e+001	1.508618e+002	-2.000000e+002	0.000000e+000	-2.000000e+002	0.000000e+000
87198660.000	-4.700994e-001	3.806728e+001	-5.499424e+001	1.490652e+002	-2.000000e+002	0.000000e+000	-2.000000e+002	0.000000e+000
87848650.000	-4.680111e-001	3.571714e+001	-5.492320e+001	1.478603e+002	-2.000000e+002	0.000000e+000	-2.000000e+002	0.000000e+000
88498640.000	-4.655328e-001	3.336589e+001	-5.482290e+001	1.458186e+002	-2.000000e+002	0.000000e+000	-2.000000e+002	0.000000e+000
89148630.000	-4.635890e-001	3.101989e+001	-5.474400e+001	1.449020e+002	-2.000000e+002	0.000000e+000	-2.000000e+002	0.000000e+000
89798620.000	-4.608376e-001	2.866923e+001	-5.456268e+001	1.437259e+002	-2.000000e+002	0.000000e+000	-2.000000e+002	0.000000e+000
90448610.000	-4.578880e-001	2.631939e+001	-5.447207e+001	1.426638e+002	-2.000000e+002	0.000000e+000	-2.000000e+002	0.000000e+000
91098600.000	-4.556856e-001	2.396871e+001	-5.441146e+001	1.412221e+002	-2.000000e+002	0.000000e+000	-2.000000e+002	0.000000e+000
91748590.000	-4.526901e-001	2.161873e+001	-5.436736e+001	1.396122e+002	-2.000000e+002	0.000000e+000	-2.000000e+002	0.000000e+000
92398580.000	-4.497753e-001	1.926632e+001	-5.402758e+001	1.385626e+002	-2.000000e+002	0.000000e+000	-2.000000e+002	0.000000e+000
93048570.000	-4.476104e-001	1.692190e+001	-5.397481e+001	1.373391e+002	-2.000000e+002	0.000000e+000	-2.000000e+002	0.000000e+000
93698560.000	-4.447129e-001	1.457002e+001	-5.374971e+001	1.361128e+002	-2.000000e+002	0.000000e+000	-2.000000e+002	0.000000e+000
94348550.000	-4.413743e-001	1.222104e+001	-5.365063e+001	1.356136e+002	-2.000000e+002	0.000000e+000	-2.000000e+002	0.000000e+000
94998540.000	-4.399385e-001	9.877636e+000	-5.353184e+001	1.345557e+002	-2.000000e+002	0.000000e+000	-2.000000e+002	0.000000e+000
95648530.000	-4.370933e-001	7.537916e+000	-5.327399e+001	1.337670e+002	-2.000000e+002	0.000000e+000	-2.000000e+002	0.000000e+000
96298520.000	-4.344917e-001	5.195043e+000	-5.314707e+001	1.335095e+002	-2.000000e+002	0.000000e+000	-2.000000e+002	0.000000e+000
96948510.000	-4.326562e-001	2.853947e+000	-5.275313e+001	1.340371e+002	-2.000000e+002	0.000000e+000	-2.000000e+002	0.000000e+000
97598500.000	-4.319908e-001	5.172575e-001	-5.219028e+001	1.344020e+002	-2.000000e+002	0.000000e+000	-2.000000e+002	0.000000e+000
98248490.000	-4.303107e-001	-1.817804e+000	-5.167786e+001	1.336463e+002	-2.000000e+002	0.000000e+000	-2.000000e+002	0.000000e+000
