!Keysight Technologies,E5063A,MY54503115,A.05.08
!Date: Sun Feb 04 18:25:30 2024
!Data & Calibration Information:
!Freq	S11:NONE(--)	S21:NONE(--)	S12:NONE(--)	S22:NONE(--)
# Hz S dB R 50
100000.000	4.655337e-002	-7.715303e-001	-8.259881e+001	9.825225e+001	-2.000000e+002	0.000000e+000	-2.000000e+002	0.000000e+000
749990.000	9.980672e-003	-3.047092e+000	-9.133428e+001	-9.594609e+001	-2.000000e+002	0.000000e+000	-2.000000e+002	0.000000e+000
1399980.000	1.183459e-002	-5.353582e+000	-8.704151e+001	6.301057e+001	-2.000000e+002	0.000000e+000	-2.000000e+002	0.000000e+000
2049970.000	1.098095e-002	-7.683590e+000	-7.857787e+001	1.251692e+002	-2.000000e+002	0.000000e+000	-2.000000e+002	0.000000e+000
2699960.000	1.195314e-002	-1.000264e+001	-7.709249e+001	8.424229e+001	-2.000000e+002	0.000000e+000	-2.000000e+002	0.000000e+000
3349950.000	1.643482e-002	-1.234614e+001	-7.711530e+001	1.055594e+002	-2.000000e+002	0.000000e+000	-2.000000e+002	0.000000e+000
3999940.000	1.439815e-002	-1.468530e+001	-7.473713e+001	9.281125e+001	-2.000000e+002	0.000000e+000	-2.000000e+002	0.000000e+000
4649930.000	1.782031e-002	-1.701380e+001	-7.374321e+001	7.518382e+001	-2.000000e+002	0.000000e+000	-2.000000e+002	0.000000e+000
5299920.000	1.566495e-002	-1.935111e+001	-7.684134e+001	7.768181e+001	-2.000000e+002	0.000000e+000	-2.000000e+002	0.000000e+000
5949910.000	1.433820e-002	-2.169581e+001	-7.335055e+001	6.736121e+001	-2.000000e+002	0.000000e+000	-2.000000e+002	0.000000e+000
6599900.000	1.545381e-002	-2.403390e+001	-6.968338e+001	7.190506e+001	-2.000000e+002	0.000000e+000	-2.000000e+002	0.000000e+000
7249890.000	1.569307e-002	-2.637774e+001	-6.860619e+001	6.231252e+001	-2.000000e+002	0.000000e+000	-2.000000e+002	0.000000e+000
7899880.000	1.553748e-002	-2.871098e+001	-6.870186e+001	5.926344e+001	-2.000000e+002	0.000000e+000	-2.000000e+002	0.000000e+000
8549870.000	1.945488e-002	-3.106181e+001	-6.827293e+001	5.915806e+001	-2.000000e+002	0.000000e+000	-2.000000e+002	0.000000e+000
9199860.000	1.794709e-002	-3.340639e+001	-6.742621e+001	5.715504e+001	-2.000000e+002	0.000000e+000	-2.000000e+002	0.000000e+000
9849850.000	1.759978e-002	-3.575303e+001	-6.621173e+001	5.465581e+001	-2.000000e+002	0.000000e+000	-2.000000e+002	0.000000e+000
10499840.000	1.490942e-002	-3.809345e+001	-6.637675e+001	5.245133e+001	-2.000000e+002	0.000000e+000	-2.000000e+002	0.000000e+000
11149830.000	1.217537e-002	-4.044078e+001	-6.522575e+001	4.845682e+001	-2.000000e+002	0.000000e+000	-2.000000e+002	0.000000e+000
11799820.000	1.058021e-002	-4.277861e+001	-6.531088e+001	4.871097e+001	-2.000000e+002	0.000000e+000	-2.000000e+002	0.000000e+000
12449810.000	1.085615e-002	-4.513394e+001	-6.480851e+001	4.899943e+001	-2.000000e+002	0.000000e+000	-2.000000e+002	0.000000e+000
13099800.000	1.161937e-002	-4.747887e+001	-6.403128e+001	4.489729e+001	-2.000000e+002	0.000000e+000	-2.000000e+002	0.000000e+000
13749790.000	8.748209e-003	-4.982578e+001	-6.378383e+001	4.254165e+001	-2.000000e+002	0.000000e+000	-2.000000e+002	0.000000e+000
14399780.000	6.356808e-003	-5.219158e+001	-6.352936e+001	3.980833e+001	-2.000000e+002	0.000000e+000	-2.000000e+002	0.000000e+000
15049770.000	5.564426e-003	-5.453927e+001	-6.270041e+001	3.829219e+001	-2.000000e+002	0.000000e+000	-2.000000e+002	0.000000e+000
15699760.000	5.193493e-003	-5.688960e+001	-6.257217e+001	3.528615e+001	-2.000000e+002	0.000000e+000	-2.000000e+002	0.000000e+000
16349750.000	3.492009e-003	-5.924394e+001	-6.225095e+001	3.272922e+001	-2.000000e+002	0.000000e+000	-2.000000e+002	0.000000e+000
16999740.000	1.436385e-003	-6.161958e+001	-6.145546e+001	3.408365e+001	-2.000000e+002	0.000000e+000	-2.000000e+002	0.000000e+000
17649730.000	6.004333e-003	-6.398979e+001	-6.125415e+001	3.417491e+001	-2.000000e+002	0.000000e+000	-2.000000e+002	0.000000e+000
18299720.000	7.015863e-003	-6.636603e+001	-6.039011e+001	2.926028e+001	-2.000000e+002	0.000000e+000	-2.000000e+002	0.000000e+000
18949710.000	3.944203e-003	-6.873772e+001	-6.011957e+001	2.626515e+001	-2.000000e+002	0.000000e+000	-2.000000e+002	0.000000e+000
19599700.000	-4.172012e-003	-7.111365e+001	-5.981908e+001	2.340688e+001	-2.000000e+002	0.000000e+000	-2.000000e+002	0.000000e+000
20249690.000	-1.052298e-002	-7.349515e+001	-5.973062e+001	1.945199e+001	-2.000000e+002	0.000000e+000	-2.000000e+002	0.000000e+000
20899680.000	-1.471207e-002	-7.590288e+001	-5.949981e+001	1.584523e+001	-2.000000e+002	0.000000e+000	-2.000000e+002	0.000000e+000
21549670.000	-1.939745e-002	-7.829372e+001	-5.919020e+001	1.455253e+001	-2.000000e+002	0.000000e+000	-2.000000e+002	0.000000e+000
22199660.000	-2.409930e-002	-8.067337e+001	-5.901454e+001	1.173112e+001	-2.000000e+002	0.000000e+000	-2.000000e+002	0.000000e+000
22849650.000	-2.914092e-002	-8.303776e+001	-5.885702e+001	1.103363e+001	-2.000000e+002	0.000000e+000	-2.000000e+002	0.000000e+000
23499640.000	-3.529447e-002	-8.542759e+001	-5.854323e+001	8.574939e+000	-2.000000e+002	0.000000e+000	-2.000000e+002	0.000000e+000
24149630.000	-4.224789e-002	-8.782332e+001	-5.811394e+001	8.911589e+000	-2.000000e+002	0.000000e+000	-2.000000e+002	0.000000e+000
24799620.000	-4.814462e-002	-9.021383e+001	-5.756275e+001	7.505031e+000	-2.000000e+002	0.000000e+000	-2.000000e+002	0.000000e+000
25449610.000	-5.245631e-002	-9.259975e+001	-5.701330e+001	4.385780e+000	-2.000000e+002	0.000000e+000	-2.000000e+002	0.000000e+000
26099600.000	-5.886714e-002	-9.499008e+001	-5.666542e+001	1.574312e+000	-2.000000e+002	0.000000e+000	-2.000000e+002	0.000000e+000
26749590.000	-6.549083e-002	-9.738730e+001	-5.647025e+001	-9.788689e-001	-2.000000e+002	0.000000e+000	-2.000000e+002	0.000000e+000
27399580.000	-7.248713e-002	-9.979372e+001	-5.599454e+001	-3.460773e+000	-2.000000e+002	0.000000e+000	-2.000000e+002	0.000000e+000
28049570.000	-7.886277e-002	-1.021943e+002	-5.576322e+001	-5.600614e+000	-2.000000e+002	0.000000e+000	-2.000000e+002	0.000000e+000
28699560.000	-8.528056e-002	-1.045953e+002	-5.519137e+001	-8.589690e+000	-2.000000e+002	0.000000e+000	-2.000000e+002	0.000000e+000
29349550.000	-9.262777e-002	-1.070029e+002	-5.495462e+001	-1.117983e+001	-2.000000e+002	0.000000e+000	-2.000000e+002	0.000000e+000
29999540.000	-9.937777e-002	-1.094144e+002	-5.490689e+001	-1.284549e+001	-2.000000e+002	0.000000e+000	-2.000000e+002	0.000000e+000
30649530.000	-1.063585e-001	-1.118330e+002	-5.461635e+001	-1.635288e+001	-2.000000e+002	0.000000e+000	-2.000000e+002	0.000000e+000
31299520.000	-1.134842e-001	-1.142518e+002	-5.453582e+001	-1.846803e+001	-2.000000e+002	0.000000e+000	-2.000000e+002	0.000000e+000
31949510.000	-1.213473e-001	-1.166787e+002	-5.416729e+001	-2.015339e+001	-2.000000e+002	0.000000e+000	-2.000000e+002	0.000000e+000
32599500.000	-1.298327e-001	-1.191066e+002	-5.416775e+001	-2.106576e+001	-2.000000e+002	0.000000e+000	-2.000000e+002	0.000000e+000
33249490.000	-1.382310e-001	-1.215375e+002	-5.410044e+001	-2.104464e+001	-2.000000e+002	0.000000e+000	-2.000000e+002	0.000000e+000
33899480.000	-1.484534e-001	-1.239732e+002	-5.379262e+001	-1.757884e+001	-2.000000e+002	0.000000e+000	-2.000000e+002	0.000000e+000
34549470.000	-1.598487e-001	-1.263991e+002	-5.291513e+001	-1.317092e+001	-2.000000e+002	0.000000e+000	-2.000000e+002	0.000000e+000
35199460.000	-1.712053e-001	-1.288152e+002	-5.116508e+001	-1.086944e+001	-2.000000e+002	0.000000e+000	-2.000000e+002	0.000000e+000
35849450.000	-1.803240e-001	-1.312204e+002	-4.941518e+001	-1.731113e+001	-2.000000e+002	0.000000e+000	-2.000000e+002	0.000000e+000
36499440.000	-1.865558e-001	-1.336410e+002	-4.833825e+001	-2.517959e+001	-2.000000e+002	0.000000e+000	-2.000000e+002	0.000000e+000
37149430.000	-1.922250e-001	-1.360767e+002	-4.774602e+001	-3.283444e+001	-2.000000e+002	0.000000e+000	-2.000000e+002	0.000000e+000
37799420.000	-1.983904e-001	-1.385262e+002	-4.734025e+001	-3.949040e+001	-2.000000e+002	0.000000e+000	-2.000000e+002	0.000000e+000
38449410.000	-2.056007e-001	-1.409784e+002	-4.703590e+001	-4.459769e+001	-2.000000e+002	0.000000e+000	-2.000000e+002	0.000000e+000
39099400.000	-2.131818e-001	-1.434402e+002	-4.663690e+001	-4.891004e+001	-2.000000e+002	0.000000e+000	-2.000000e+002	0.000000e+000
39749390.000	-2.214451e-001	-1.459077e+002	-4.627993e+001	-5.273677e+001	-2.000000e+002	0.000000e+000	-2.000000e+002	0.000000e+000
40399380.000	-2.303374e-001	-1.483795e+002	-4.576888e+001	-5.562192e+001	-2.000000e+002	0.000000e+000	-2.000000e+002	0.000000e+000
41049370.000	-2.394020e-001	-1.508534e+002	-4.513084e+001	-5.860831e+001	-2.000000e+002	0.000000e+000	-2.000000e+002	0.000000e+000
41699360.000	-2.486699e-001	-1.533382e+002	-4.442446e+001	-6.168143e+001	-2.000000e+002	0.000000e+000	-2.000000e+002	0.000000e+000
42349350.000	-2.587454e-001	-1.558348e+002	-4.360841e+001	-6.461768e+001	-2.000000e+002	0.000000e+000	-2.000000e+002	0.000000e+000
42999340.000	-2.701824e-001	-1.583422e+002	-4.254613e+001	-6.724732e+001	-2.000000e+002	0.000000e+000	-2.000000e+002	0.000000e+000
43649330.000	-2.827579e-001	-1.608679e+002	-4.127727e+001	-7.062727e+001	-2.000000e+002	0.000000e+000	-2.000000e+002	0.000000e+000
44299320.000	-2.980058e-001	-1.634195e+002	-3.969227e+001	-7.436732e+001	-2.000000e+002	0.000000e+000	-2.000000e+002	0.000000e+000
44949310.000	-3.163326e-001	-1.660195e+002	-3.767006e+001	-7.957262e+001	-2.000000e+002	0.000000e+000	-2.000000e+002	0.000000e+000
45599300.000	-3.462673e-001	-1.687114e+002	-3.512804e+001	-8.702584e+001	-2.000000e+002	0.000000e+000	-2.000000e+002	0.000000e+000
46249290.000	-4.105668e-001	-1.715848e+002	-3.167839e+001	-9.951659e+001	-2.000000e+002	0.000000e+000	-2.000000e+002	0.000000e+000
46899280.000	-6.386152e-001	-1.745297e+002	-2.691813e+001	-1.269460e+002	-2.000000e+002	0.000000e+000	-2.000000e+002	0.000000e+000
47549270.000	-8.597873e-001	-1.736924e+002	-2.510753e+001	1.673428e+002	-2.000000e+002	0.000000e+000	-2.000000e+002	0.000000e+000
48199260.000	-4.914871e-001	-1.756438e+002	-3.049779e+001	1.247835e+002	-2.000000e+002	0.000000e+000	-2.000000e+002	0.000000e+000
48849250.000	-3.981321e-001	-1.786371e+002	-3.496016e+001	1.085483e+002	-2.000000e+002	0.000000e+000	-2.000000e+002	0.000000e+000
49499240.000	-3.739293e-001	1.785911e+002	-3.827602e+001	9.953483e+001	-2.000000e+002	0.000000e+000	-2.000000e+002	0.000000e+000
50149230.000	-3.671296e-001	1.759519e+002	-4.093934e+001	9.335054e+001	-2.000000e+002	0.000000e+000	-2.000000e+002	0.000000e+000
50799220.000	-3.670468e-001	1.733778e+002	-4.312114e+001	8.832109e+001	-2.000000e+002	0.000000e+000	-2.000000e+002	0.000000e+000
51449210.000	-3.691479e-001	1.708348e+002	-4.502139e+001	8.382447e+001	-2.000000e+002	0.000000e+000	-2.000000e+002	0.000000e+000
52099200.000	-3.731194e-001	1.683198e+002	-4.677802e+001	7.954056e+001	-2.000000e+002	0.000000e+000	-2.000000e+002	0.000000e+000
52749190.000	-3.770735e-001	1.658220e+002	-4.832860e+001	7.531905e+001	-2.000000e+002	0.000000e+000	-2.000000e+002	0.000000e+000
53399180.000	-3.815005e-001	1.633346e+002	-4.987613e+001	7.165326e+001	-2.000000e+002	0.000000e+000	-2.000000e+002	0.000000e+000
54049170.000	-3.868256e-001	1.608501e+002	-5.133053e+001	6.899554e+001	-2.000000e+002	0.000000e+000	-2.000000e+002	0.000000e+000
54699160.000	-3.919771e-001	1.583736e+002	-5.262998e+001	6.535275e+001	-2.000000e+002	0.000000e+000	-2.000000e+002	0.000000e+000
55349150.000	-3.973426e-001	1.559024e+002	-5.383488e+001	6.261365e+001	-2.000000e+002	0.000000e+000	-2.000000e+002	0.000000e+000
55999140.000	-4.026997e-001	1.534365e+002	-5.498008e+001	5.833747e+001	-2.000000e+002	0.000000e+000	-2.000000e+002	0.000000e+000
56649130.000	-4.085281e-001	1.509760e+002	-5.602013e+001	5.467600e+001	-2.000000e+002	0.000000e+000	-2.000000e+002	0.000000e+000
57299120.000	-4.134854e-001	1.485189e+002	-5.704228e+001	5.013270e+001	-2.000000e+002	0.000000e+000	-2.000000e+002	0.000000e+000
57949110.000	-4.184467e-001	1.460611e+002	-5.786056e+001	4.574064e+001	-2.000000e+002	0.000000e+000	-2.000000e+002	0.000000e+000
58599100.000	-4.233182e-001	1.436080e+002	-5.848034e+001	3.789607e+001	-2.000000e+002	0.000000e+000	-2.000000e+002	0.000000e+000
59249090.000	-4.287515e-001	1.411579e+002	-5.896750e+001	2.899379e+001	-2.000000e+002	0.000000e+000	-2.000000e+002	0.000000e+000
59899080.000	-4.338404e-001	1.387080e+002	-5.959785e+001	1.772377e+001	-2.000000e+002	0.000000e+000	-2.000000e+002	0.000000e+000
60549070.000	-4.397443e-001	1.362736e+002	-5.949218e+001	-3.139908e-001	-2.000000e+002	0.000000e+000	-2.000000e+002	0.000000e+000
61199060.000	-4.445922e-001	1.338396e+002	-5.999216e+001	-1.889730e+001	-2.000000e+002	0.000000e+000	-2.000000e+002	0.000000e+000
61849050.000	-4.486010e-001	1.314105e+002	-6.024012e+001	-4.551828e+001	-2.000000e+002	0.000000e+000	-2.000000e+002	0.000000e+000
62499040.000	-4.520818e-001	1.289798e+002	-6.117698e+001	-6.717290e+001	-2.000000e+002	0.000000e+000	-2.000000e+002	0.000000e+000
63149030.000	-4.550290e-001	1.265475e+002	-6.221418e+001	-8.715797e+001	-2.000000e+002	0.000000e+000	-2.000000e+002	0.000000e+000
63799020.000	-4.583413e-001	1.241175e+002	-6.281353e+001	-9.779120e+001	-2.000000e+002	0.000000e+000	-2.000000e+002	0.000000e+000
64449010.000	-4.615188e-001	1.216902e+002	-6.299217e+001	-1.092731e+002	-2.000000e+002	0.000000e+000	-2.000000e+002	0.000000e+000
65099000.000	-4.642598e-001	1.192603e+002	-6.328167e+001	-1.162558e+002	-2.000000e+002	0.000000e+000	-2.000000e+002	0.000000e+000
65748990.000	-4.659936e-001	1.168315e+002	-6.311036e+001	-1.217843e+002	-2.000000e+002	0.000000e+000	-2.000000e+002	0.000000e+000
66398980.000	-4.690148e-001	1.144054e+002	-6.345905e+001	-1.295344e+002	-2.000000e+002	0.000000e+000	-2.000000e+002	0.000000e+000
67048970.000	-4.714328e-001	1.119843e+002	-6.311980e+001	-1.338204e+002	-2.000000e+002	0.000000e+000	-2.000000e+002	0.000000e+000
67698960.000	-4.751738e-001	1.095640e+002	-6.258045e+001	-1.337237e+002	-2.000000e+002	0.000000e+000	-2.000000e+002	0.000000e+000
68348950.000	-4.762406e-001	1.071488e+002	-6.234626e+001	-1.378864e+002	-2.000000e+002	0.000000e+000	-2.000000e+002	0.000000e+000
68998940.000	-4.794795e-001	1.047329e+002	-6.212143e+001	-1.386834e+002	-2.000000e+002	0.000000e+000	-2.000000e+002	0.000000e+000
69648930.000	-4.808959e-001	1.023179e+002	-6.165568e+001	-1.411020e+002	-2.000000e+002	0.000000e+000	-2.000000e+002	0.000000e+000
70298920.000	-4.813504e-001	9.990266e+001	-6.111757e+001	-1.426145e+002	-2.000000e+002	0.000000e+000	-2.000000e+002	0.000000e+000
70948910.000	-4.841332e-001	9.749276e+001	-6.074607e+001	-1.454820e+002	-2.000000e+002	0.000000e+000	-2.000000e+002	0.000000e+000
71598900.000	-4.853817e-001	9.508528e+001	-6.045848e+001	-1.459659e+002	-2.000000e+002	0.000000e+000	-2.000000e+002	0.000000e+000
72248890.000	-4.878927e-001	9.268256e+001	-5.992356e+001	-1.489995e+002	-2.000000e+002	0.000000e+000	-2.000000e+002	0.000000e+000
72898880.000	-4.886729e-001	9.028171e+001	-5.968665e+001	-1.502649e+002	-2.000000e+002	0.000000e+000	-2.000000e+002	0.000000e+000
73548870.000	-4.910505e-001	8.788498e+001	-5.910335e+001	-1.521579e+002	-2.000000e+002	0.000000e+000	-2.000000e+002	0.000000e+000
74198860.000	-4.921017e-001	8.548999e+001	-5.866905e+001	-1.544695e+002	-2.000000e+002	0.000000e+000	-2.000000e+002	0.000000e+000
74848850.000	-4.929702e-001	8.309855e+001	-5.819672e+001	-1.568972e+002	-2.000000e+002	0.000000e+000	-2.000000e+002	0.000000e+000
75498840.000	-4.934529e-001	8.070973e+001	-5.773965e+001	-1.598787e+002	-2.000000e+002	0.000000e+000	-2.000000e+002	0.000000e+000
76148830.000	-4.938856e-001	7.832278e+001	-5.730356e+001	-1.626800e+002	-2.000000e+002	0.000000e+000	-2.000000e+002	0.000000e+000
76798820.000	-4.928167e-001	7.593941e+001	-5.677107e+001	-1.663221e+002	-2.000000e+002	0.000000e+000	-2.000000e+002	0.000000e+000
77448810.000	-4.942525e-001	7.356888e+001	-5.662239e+001	-1.698892e+002	-2.000000e+002	0.000000e+000	-2.000000e+002	0.000000e+000
78098800.000	-4.938837e-001	7.118317e+001	-5.639438e+001	-1.729885e+002	-2.000000e+002	0.000000e+000	-2.000000e+002	0.000000e+000
78748790.000	-4.929058e-001	6.880637e+001	-5.611315e+001	-1.755699e+002	-2.000000e+002	0.000000e+000	-2.000000e+002	0.000000e+000
79398780.000	-4.911812e-001	6.642872e+001	-5.590199e+001	-1.796732e+002	-2.000000e+002	0.000000e+000	-2.000000e+002	0.000000e+000
80048770.000	-4.897741e-001	6.404512e+001	-5.585018e+001	1.774561e+002	-2.000000e+002	0.000000e+000	-2.000000e+002	0.000000e+000
80698760.000	-4.884758e-001	6.166575e+001	-5.575479e+001	1.747073e+002	-2.000000e+002	0.000000e+000	-2.000000e+002	0.000000e+000
81348750.000	-4.864930e-001	5.929126e+001	-5.570937e+001	1.725116e+002	-2.000000e+002	0.000000e+000	-2.000000e+002	0.000000e+000
81998740.000	-4.858905e-001	5.691865e+001	-5.563528e+001	1.706555e+002	-2.000000e+002	0.000000e+000	-2.000000e+002	0.000000e+000
82648730.000	-4.862683e-001	5.455798e+001	-5.554914e+001	1.692376e+002	-2.000000e+002	0.000000e+000	-2.000000e+002	0.000000e+000
83298720.000	-4.849710e-001	5.218691e+001	-5.543437e+001	1.675369e+002	-2.000000e+002	0.000000e+000	-2.000000e+002	0.000000e+000
83948710.000	-4.833432e-001	4.981715e+001	-5.538542e+001	1.645144e+002	-2.000000e+002	0.000000e+000	-2.000000e+002	0.000000e+000
84598700.000	-4.820491e-001	4.745159e+001	-5.519508e+001	1.640784e+002	-2.000000e+002	0.000000e+000	-2.000000e+002	0.000000e+000
85248690.000	-4.807393e-001	4.508908e+001	-5.511250e+001	1.618494e+002	-2.000000e+002	0.000000e+000	-2.000000e+002	0.000000e+000
85898680.000	-4.791239e-001	4.272398e+001	-5.483351e+001	1.614292e+002	-2.000000e+002	0.000000e+000	-2.000000e+002	0.000000e+000
86548670.000	-4.769785e-001	4.036666e+001	-5.452281e+001	1.594935e+002	-2.000000e+002	0.000000e+000	-2.000000e+002	0.000000e+000
87198660.000	-4.750125e-001	3.801406e+001	-5.435038e+001	1.578413e+002	-2.000000e+002	0.000000e+000	-2.000000e+002	0.000000e+000
87848650.000	-4.726809e-001	3.566300e+001	-5.411330e+001	1.561379e+002	-2.000000e+002	0.000000e+000	-2.000000e+002	0.000000e+000
88498640.000	-4.712704e-001	3.331302e+001	-5.398681e+001	1.537861e+002	-2.000000e+002	0.000000e+000	-2.000000e+002	0.000000e+000
89148630.000	-4.688816e-001	3.096351e+001	-5.377726e+001	1.522359e+002	-2.000000e+002	0.000000e+000	-2.000000e+002	0.000000e+000
89798620.000	-4.658021e-001	2.861811e+001	-5.377043e+001	1.503323e+002	-2.000000e+002	0.000000e+000	-2.000000e+002	0.000000e+000
90448610.000	-4.625457e-001	2.626788e+001	-5.349398e+001	1.492283e+002	-2.000000e+002	0.000000e+000	-2.000000e+002	0.000000e+000
91098600.000	-4.608246e-001	2.391059e+001	-5.331575e+001	1.477303e+002	-2.000000e+002	0.000000e+000	-2.000000e+002	0.000000e+000
91748590.000	-4.587894e-001	2.156064e+001	-5.308562e+001	1.471252e+002	-2.000000e+002	0.000000e+000	-2.000000e+002	0.000000e+000
92398580.000	-4.550239e-001	1.921317e+001	-5.285611e+001	1.447098e+002	-2.000000e+002	0.000000e+000	-2.000000e+002	0.000000e+000
93048570.000	-4.529804e-001	1.685784e+001	-5.267282e+001	1.431234e+002	-2.000000e+002	0.000000e+000	-2.000000e+002	0.000000e+000
93698560.000	-4.506725e-001	1.451287e+001	-5.244011e+001	1.424893e+002	-2.000000e+002	0.000000e+000	-2.000000e+002	0.000000e+000
94348550.000	-4.485737e-001	1.216365e+001	-5.221516e+001	1.415008e+002	-2.000000e+002	0.000000e+000	-2.000000e+002	0.000000e+000
94998540.000	-4.459271e-001	9.821180e+000	-5.164432e+001	1.393390e+002	-2.000000e+002	0.000000e+000	-2.000000e+002	0.000000e+000
95648530.000	-4.443743e-001	7.480711e+000	-5.150555e+001	1.394087e+002	-2.000000e+002	0.000000e+000	-2.000000e+002	0.000000e+000
96298520.000	-4.416228e-001	5.141549e+000	-5.118797e+001	1.384765e+002	-2.000000e+002	0.000000e+000	-2.000000e+002	0.000000e+000
96948510.000	-4.408375e-001	2.805190e+000	-5.060568e+001	1.378255e+002	-2.000000e+002	0.000000e+000	-2.000000e+002	0.000000e+000
97598500.000	-4.396803e-001	4.717339e-001	-4.990192e+001	1.362047e+002	-2.000000e+002	0.000000e+000	-2.000000e+002	0.000000e+000
98248490.000	-4.377500e-001	-1.854577e+000	-4.926673e+001	1.325509e+002	-2.000000e+002	0.000000e+000	-2.000000e+002	0.000000e+000
