!Keysight Technologies,E5063A,MY54503115,A.05.08
!Date: Sun Feb 04 18:42:39 2024
!Data & Calibration Information:
!Freq	S11:NONE(--)	S21:NONE(--)	S12:NONE(--)	S22:NONE(--)
# Hz S dB R 50
100000.000	4.792111e-002	-8.112743e-001	-8.376155e+001	4.471305e+001	-2.000000e+002	0.000000e+000	-2.000000e+002	0.000000e+000
749990.000	9.975831e-003	-3.057910e+000	-8.562137e+001	1.588712e+002	-2.000000e+002	0.000000e+000	-2.000000e+002	0.000000e+000
1399980.000	1.177842e-002	-5.367072e+000	-8.251646e+001	1.677598e+002	-2.000000e+002	0.000000e+000	-2.000000e+002	0.000000e+000
2049970.000	1.075403e-002	-7.691318e+000	-8.310564e+001	1.032623e+002	-2.000000e+002	0.000000e+000	-2.000000e+002	0.000000e+000
2699960.000	1.142111e-002	-1.001341e+001	-7.777657e+001	9.245836e+001	-2.000000e+002	0.000000e+000	-2.000000e+002	0.000000e+000
3349950.000	1.492100e-002	-1.235069e+001	-7.738792e+001	8.777275e+001	-2.000000e+002	0.000000e+000	-2.000000e+002	0.000000e+000
3999940.000	1.397361e-002	-1.468802e+001	-7.369784e+001	8.442588e+001	-2.000000e+002	0.000000e+000	-2.000000e+002	0.000000e+000
4649930.000	1.620898e-002	-1.702450e+001	-7.444684e+001	6.007670e+001	-2.000000e+002	0.000000e+000	-2.000000e+002	0.000000e+000
5299920.000	1.387577e-002	-1.936228e+001	-7.225906e+001	6.823370e+001	-2.000000e+002	0.000000e+000	-2.000000e+002	0.000000e+000
5949910.000	1.468917e-002	-2.170517e+001	-7.169804e+001	7.794182e+001	-2.000000e+002	0.000000e+000	-2.000000e+002	0.000000e+000
6599900.000	1.375204e-002	-2.404153e+001	-7.078770e+001	7.203226e+001	-2.000000e+002	0.000000e+000	-2.000000e+002	0.000000e+000
7249890.000	1.430888e-002	-2.637947e+001	-6.944896e+001	6.589986e+001	-2.000000e+002	0.000000e+000	-2.000000e+002	0.000000e+000
7899880.000	1.432809e-002	-2.873209e+001	-6.901337e+001	6.385161e+001	-2.000000e+002	0.000000e+000	-2.000000e+002	0.000000e+000
8549870.000	1.858661e-002	-3.107070e+001	-6.830577e+001	5.966176e+001	-2.000000e+002	0.000000e+000	-2.000000e+002	0.000000e+000
9199860.000	1.711885e-002	-3.341499e+001	-6.743040e+001	5.612372e+001	-2.000000e+002	0.000000e+000	-2.000000e+002	0.000000e+000
9849850.000	1.658065e-002	-3.576342e+001	-6.726847e+001	5.334863e+001	-2.000000e+002	0.000000e+000	-2.000000e+002	0.000000e+000
10499840.000	1.378691e-002	-3.810282e+001	-6.641219e+001	5.432697e+001	-2.000000e+002	0.000000e+000	-2.000000e+002	0.000000e+000
11149830.000	1.109363e-002	-4.044850e+001	-6.559664e+001	5.290718e+001	-2.000000e+002	0.000000e+000	-2.000000e+002	0.000000e+000
11799820.000	9.640696e-003	-4.279518e+001	-6.520997e+001	4.919530e+001	-2.000000e+002	0.000000e+000	-2.000000e+002	0.000000e+000
12449810.000	9.457546e-003	-4.514755e+001	-6.472717e+001	4.620837e+001	-2.000000e+002	0.000000e+000	-2.000000e+002	0.000000e+000
13099800.000	1.070584e-002	-4.749117e+001	-6.507374e+001	4.647141e+001	-2.000000e+002	0.000000e+000	-2.000000e+002	0.000000e+000
13749790.000	8.098664e-003	-4.983592e+001	-6.402529e+001	4.537366e+001	-2.000000e+002	0.000000e+000	-2.000000e+002	0.000000e+000
14399780.000	5.568749e-003	-5.220006e+001	-6.342989e+001	4.072644e+001	-2.000000e+002	0.000000e+000	-2.000000e+002	0.000000e+000
15049770.000	5.405929e-003	-5.455221e+001	-6.327969e+001	3.766136e+001	-2.000000e+002	0.000000e+000	-2.000000e+002	0.000000e+000
15699760.000	4.192643e-003	-5.689934e+001	-6.262940e+001	3.574581e+001	-2.000000e+002	0.000000e+000	-2.000000e+002	0.000000e+000
16349750.000	2.321941e-003	-5.925632e+001	-6.260093e+001	3.332126e+001	-2.000000e+002	0.000000e+000	-2.000000e+002	0.000000e+000
16999740.000	4.350009e-004	-6.162749e+001	-6.212398e+001	3.350347e+001	-2.000000e+002	0.000000e+000	-2.000000e+002	0.000000e+000
17649730.000	4.759730e-003	-6.400231e+001	-6.162750e+001	3.235668e+001	-2.000000e+002	0.000000e+000	-2.000000e+002	0.000000e+000
18299720.000	5.589477e-003	-6.637623e+001	-6.073040e+001	2.962151e+001	-2.000000e+002	0.000000e+000	-2.000000e+002	0.000000e+000
18949710.000	3.329313e-003	-6.874937e+001	-6.037411e+001	2.554175e+001	-2.000000e+002	0.000000e+000	-2.000000e+002	0.000000e+000
19599700.000	-5.177731e-003	-7.112553e+001	-5.993366e+001	2.331497e+001	-2.000000e+002	0.000000e+000	-2.000000e+002	0.000000e+000
20249690.000	-1.140426e-002	-7.350434e+001	-5.972721e+001	1.945355e+001	-2.000000e+002	0.000000e+000	-2.000000e+002	0.000000e+000
20899680.000	-1.539653e-002	-7.591027e+001	-5.940254e+001	1.703651e+001	-2.000000e+002	0.000000e+000	-2.000000e+002	0.000000e+000
21549670.000	-1.934305e-002	-7.830245e+001	-5.912448e+001	1.407741e+001	-2.000000e+002	0.000000e+000	-2.000000e+002	0.000000e+000
22199660.000	-2.442692e-002	-8.068019e+001	-5.907331e+001	1.368989e+001	-2.000000e+002	0.000000e+000	-2.000000e+002	0.000000e+000
22849650.000	-2.943732e-002	-8.304146e+001	-5.891931e+001	1.028809e+001	-2.000000e+002	0.000000e+000	-2.000000e+002	0.000000e+000
23499640.000	-3.574873e-002	-8.543247e+001	-5.846416e+001	1.027149e+001	-2.000000e+002	0.000000e+000	-2.000000e+002	0.000000e+000
24149630.000	-4.228223e-002	-8.783177e+001	-5.816476e+001	9.888906e+000	-2.000000e+002	0.000000e+000	-2.000000e+002	0.000000e+000
24799620.000	-4.810585e-002	-9.022110e+001	-5.747804e+001	7.886700e+000	-2.000000e+002	0.000000e+000	-2.000000e+002	0.000000e+000
25449610.000	-5.272356e-002	-9.260739e+001	-5.710255e+001	5.296029e+000	-2.000000e+002	0.000000e+000	-2.000000e+002	0.000000e+000
26099600.000	-5.926313e-002	-9.499621e+001	-5.672937e+001	1.697578e+000	-2.000000e+002	0.000000e+000	-2.000000e+002	0.000000e+000
26749590.000	-6.576933e-002	-9.739859e+001	-5.641370e+001	-8.736929e-001	-2.000000e+002	0.000000e+000	-2.000000e+002	0.000000e+000
27399580.000	-7.230782e-002	-9.979921e+001	-5.612472e+001	-3.280954e+000	-2.000000e+002	0.000000e+000	-2.000000e+002	0.000000e+000
28049570.000	-7.870481e-002	-1.022033e+002	-5.560804e+001	-5.668390e+000	-2.000000e+002	0.000000e+000	-2.000000e+002	0.000000e+000
28699560.000	-8.546656e-002	-1.046013e+002	-5.525222e+001	-9.043443e+000	-2.000000e+002	0.000000e+000	-2.000000e+002	0.000000e+000
29349550.000	-9.213149e-002	-1.070114e+002	-5.502369e+001	-1.133585e+001	-2.000000e+002	0.000000e+000	-2.000000e+002	0.000000e+000
29999540.000	-9.883723e-002	-1.094233e+002	-5.473461e+001	-1.430666e+001	-2.000000e+002	0.000000e+000	-2.000000e+002	0.000000e+000
30649530.000	-1.062140e-001	-1.118400e+002	-5.439932e+001	-1.710047e+001	-2.000000e+002	0.000000e+000	-2.000000e+002	0.000000e+000
31299520.000	-1.132458e-001	-1.142599e+002	-5.423567e+001	-1.832307e+001	-2.000000e+002	0.000000e+000	-2.000000e+002	0.000000e+000
31949510.000	-1.209285e-001	-1.166838e+002	-5.398085e+001	-2.092838e+001	-2.000000e+002	0.000000e+000	-2.000000e+002	0.000000e+000
32599500.000	-1.292888e-001	-1.191133e+002	-5.397480e+001	-2.180672e+001	-2.000000e+002	0.000000e+000	-2.000000e+002	0.000000e+000
33249490.000	-1.376571e-001	-1.215445e+002	-5.381657e+001	-2.225395e+001	-2.000000e+002	0.000000e+000	-2.000000e+002	0.000000e+000
33899480.000	-1.472040e-001	-1.239788e+002	-5.361308e+001	-1.972809e+001	-2.000000e+002	0.000000e+000	-2.000000e+002	0.000000e+000
34549470.000	-1.584191e-001	-1.264088e+002	-5.283668e+001	-1.511023e+001	-2.000000e+002	0.000000e+000	-2.000000e+002	0.000000e+000
35199460.000	-1.701656e-001	-1.288281e+002	-5.103935e+001	-1.228546e+001	-2.000000e+002	0.000000e+000	-2.000000e+002	0.000000e+000
35849450.000	-1.790253e-001	-1.312353e+002	-4.910248e+001	-1.836643e+001	-2.000000e+002	0.000000e+000	-2.000000e+002	0.000000e+000
36499440.000	-1.852024e-001	-1.336561e+002	-4.805245e+001	-2.704937e+001	-2.000000e+002	0.000000e+000	-2.000000e+002	0.000000e+000
37149430.000	-1.908146e-001	-1.360957e+002	-4.736974e+001	-3.500385e+001	-2.000000e+002	0.000000e+000	-2.000000e+002	0.000000e+000
37799420.000	-1.969678e-001	-1.385469e+002	-4.700545e+001	-4.151102e+001	-2.000000e+002	0.000000e+000	-2.000000e+002	0.000000e+000
38449410.000	-2.045044e-001	-1.410045e+002	-4.660669e+001	-4.635025e+001	-2.000000e+002	0.000000e+000	-2.000000e+002	0.000000e+000
39099400.000	-2.123805e-001	-1.434690e+002	-4.616615e+001	-5.044701e+001	-2.000000e+002	0.000000e+000	-2.000000e+002	0.000000e+000
39749390.000	-2.205985e-001	-1.459393e+002	-4.561885e+001	-5.413057e+001	-2.000000e+002	0.000000e+000	-2.000000e+002	0.000000e+000
40399380.000	-2.294656e-001	-1.484177e+002	-4.497699e+001	-5.750165e+001	-2.000000e+002	0.000000e+000	-2.000000e+002	0.000000e+000
41049370.000	-2.389605e-001	-1.509028e+002	-4.420478e+001	-6.054615e+001	-2.000000e+002	0.000000e+000	-2.000000e+002	0.000000e+000
41699360.000	-2.488327e-001	-1.533969e+002	-4.327987e+001	-6.394630e+001	-2.000000e+002	0.000000e+000	-2.000000e+002	0.000000e+000
42349350.000	-2.593380e-001	-1.559092e+002	-4.214452e+001	-6.759117e+001	-2.000000e+002	0.000000e+000	-2.000000e+002	0.000000e+000
42999340.000	-2.718630e-001	-1.584451e+002	-4.076013e+001	-7.135732e+001	-2.000000e+002	0.000000e+000	-2.000000e+002	0.000000e+000
43649330.000	-2.866058e-001	-1.610161e+002	-3.902835e+001	-7.584403e+001	-2.000000e+002	0.000000e+000	-2.000000e+002	0.000000e+000
44299320.000	-3.080227e-001	-1.636610e+002	-3.679176e+001	-8.231763e+001	-2.000000e+002	0.000000e+000	-2.000000e+002	0.000000e+000
44949310.000	-3.469989e-001	-1.664370e+002	-3.384579e+001	-9.228930e+001	-2.000000e+002	0.000000e+000	-2.000000e+002	0.000000e+000
45599300.000	-4.643002e-001	-1.694360e+002	-2.976842e+001	-1.113988e+002	-2.000000e+002	0.000000e+000	-2.000000e+002	0.000000e+000
46249290.000	-8.205240e-001	-1.709985e+002	-2.570295e+001	-1.591400e+002	-2.000000e+002	0.000000e+000	-2.000000e+002	0.000000e+000
46899280.000	-6.083284e-001	-1.708999e+002	-2.881728e+001	1.428082e+002	-2.000000e+002	0.000000e+000	-2.000000e+002	0.000000e+000
47549270.000	-4.337157e-001	-1.736560e+002	-3.367407e+001	1.185287e+002	-2.000000e+002	0.000000e+000	-2.000000e+002	0.000000e+000
48199260.000	-3.847209e-001	-1.764451e+002	-3.731098e+001	1.067309e+002	-2.000000e+002	0.000000e+000	-2.000000e+002	0.000000e+000
48849250.000	-3.688451e-001	-1.791042e+002	-4.011361e+001	9.896088e+001	-2.000000e+002	0.000000e+000	-2.000000e+002	0.000000e+000
49499240.000	-3.642982e-001	1.783094e+002	-4.246656e+001	9.309734e+001	-2.000000e+002	0.000000e+000	-2.000000e+002	0.000000e+000
50149230.000	-3.639443e-001	1.757613e+002	-4.449290e+001	8.813167e+001	-2.000000e+002	0.000000e+000	-2.000000e+002	0.000000e+000
50799220.000	-3.664701e-001	1.732444e+002	-4.628299e+001	8.387122e+001	-2.000000e+002	0.000000e+000	-2.000000e+002	0.000000e+000
51449210.000	-3.702301e-001	1.707385e+002	-4.783480e+001	7.959977e+001	-2.000000e+002	0.000000e+000	-2.000000e+002	0.000000e+000
52099200.000	-3.746096e-001	1.682455e+002	-4.919357e+001	7.547278e+001	-2.000000e+002	0.000000e+000	-2.000000e+002	0.000000e+000
52749190.000	-3.789226e-001	1.657649e+002	-5.059661e+001	7.037811e+001	-2.000000e+002	0.000000e+000	-2.000000e+002	0.000000e+000
53399180.000	-3.833165e-001	1.632878e+002	-5.206844e+001	6.608776e+001	-2.000000e+002	0.000000e+000	-2.000000e+002	0.000000e+000
54049170.000	-3.882651e-001	1.608147e+002	-5.344881e+001	6.256605e+001	-2.000000e+002	0.000000e+000	-2.000000e+002	0.000000e+000
54699160.000	-3.930427e-001	1.583428e+002	-5.461701e+001	5.959563e+001	-2.000000e+002	0.000000e+000	-2.000000e+002	0.000000e+000
55349150.000	-3.984697e-001	1.558750e+002	-5.583295e+001	5.455062e+001	-2.000000e+002	0.000000e+000	-2.000000e+002	0.000000e+000
55999140.000	-4.036787e-001	1.534129e+002	-5.673257e+001	5.120193e+001	-2.000000e+002	0.000000e+000	-2.000000e+002	0.000000e+000
56649130.000	-4.089873e-001	1.509549e+002	-5.769636e+001	4.520407e+001	-2.000000e+002	0.000000e+000	-2.000000e+002	0.000000e+000
57299120.000	-4.145184e-001	1.484974e+002	-5.845338e+001	4.104574e+001	-2.000000e+002	0.000000e+000	-2.000000e+002	0.000000e+000
57949110.000	-4.201337e-001	1.460412e+002	-5.888375e+001	3.542147e+001	-2.000000e+002	0.000000e+000	-2.000000e+002	0.000000e+000
58599100.000	-4.251238e-001	1.435872e+002	-5.914804e+001	2.616620e+001	-2.000000e+002	0.000000e+000	-2.000000e+002	0.000000e+000
59249090.000	-4.311576e-001	1.411385e+002	-5.907100e+001	1.547641e+001	-2.000000e+002	0.000000e+000	-2.000000e+002	0.000000e+000
59899080.000	-4.366748e-001	1.386939e+002	-5.874259e+001	1.027917e+000	-2.000000e+002	0.000000e+000	-2.000000e+002	0.000000e+000
60549070.000	-4.431168e-001	1.362602e+002	-5.842271e+001	-1.783090e+001	-2.000000e+002	0.000000e+000	-2.000000e+002	0.000000e+000
61199060.000	-4.484363e-001	1.338401e+002	-5.854615e+001	-4.089144e+001	-2.000000e+002	0.000000e+000	-2.000000e+002	0.000000e+000
61849050.000	-4.513076e-001	1.314136e+002	-5.890507e+001	-6.217207e+001	-2.000000e+002	0.000000e+000	-2.000000e+002	0.000000e+000
62499040.000	-4.539692e-001	1.289869e+002	-5.976031e+001	-8.188077e+001	-2.000000e+002	0.000000e+000	-2.000000e+002	0.000000e+000
63149030.000	-4.562502e-001	1.265550e+002	-6.053593e+001	-9.456066e+001	-2.000000e+002	0.000000e+000	-2.000000e+002	0.000000e+000
63799020.000	-4.589416e-001	1.241200e+002	-6.092803e+001	-1.050892e+002	-2.000000e+002	0.000000e+000	-2.000000e+002	0.000000e+000
64449010.000	-4.628451e-001	1.216935e+002	-6.143629e+001	-1.120044e+002	-2.000000e+002	0.000000e+000	-2.000000e+002	0.000000e+000
65099000.000	-4.653160e-001	1.192631e+002	-6.143231e+001	-1.199760e+002	-2.000000e+002	0.000000e+000	-2.000000e+002	0.000000e+000
65748990.000	-4.674919e-001	1.168335e+002	-6.178956e+001	-1.253144e+002	-2.000000e+002	0.000000e+000	-2.000000e+002	0.000000e+000
66398980.000	-4.698893e-001	1.144089e+002	-6.214240e+001	-1.280999e+002	-2.000000e+002	0.000000e+000	-2.000000e+002	0.000000e+000
67048970.000	-4.727426e-001	1.119838e+002	-6.204421e+001	-1.293627e+002	-2.000000e+002	0.000000e+000	-2.000000e+002	0.000000e+000
67698960.000	-4.755184e-001	1.095696e+002	-6.176697e+001	-1.332785e+002	-2.000000e+002	0.000000e+000	-2.000000e+002	0.000000e+000
68348950.000	-4.771705e-001	1.071494e+002	-6.141093e+001	-1.357337e+002	-2.000000e+002	0.000000e+000	-2.000000e+002	0.000000e+000
68998940.000	-4.804629e-001	1.047365e+002	-6.136749e+001	-1.376029e+002	-2.000000e+002	0.000000e+000	-2.000000e+002	0.000000e+000
69648930.000	-4.822039e-001	1.023191e+002	-6.093601e+001	-1.389305e+002	-2.000000e+002	0.000000e+000	-2.000000e+002	0.000000e+000
70298920.000	-4.835590e-001	9.990216e+001	-6.054949e+001	-1.409932e+002	-2.000000e+002	0.000000e+000	-2.000000e+002	0.000000e+000
70948910.000	-4.856083e-001	9.749700e+001	-6.019257e+001	-1.411803e+002	-2.000000e+002	0.000000e+000	-2.000000e+002	0.000000e+000
71598900.000	-4.870775e-001	9.508784e+001	-5.970040e+001	-1.435886e+002	-2.000000e+002	0.000000e+000	-2.000000e+002	0.000000e+000
72248890.000	-4.892385e-001	9.268662e+001	-5.934433e+001	-1.447938e+002	-2.000000e+002	0.000000e+000	-2.000000e+002	0.000000e+000
72898880.000	-4.903939e-001	9.028696e+001	-5.871148e+001	-1.460418e+002	-2.000000e+002	0.000000e+000	-2.000000e+002	0.000000e+000
73548870.000	-4.923430e-001	8.789250e+001	-5.820281e+001	-1.496251e+002	-2.000000e+002	0.000000e+000	-2.000000e+002	0.000000e+000
74198860.000	-4.932890e-001	8.549625e+001	-5.773590e+001	-1.526538e+002	-2.000000e+002	0.000000e+000	-2.000000e+002	0.000000e+000
74848850.000	-4.941991e-001	8.310704e+001	-5.729153e+001	-1.553126e+002	-2.000000e+002	0.000000e+000	-2.000000e+002	0.000000e+000
75498840.000	-4.941507e-001	8.071847e+001	-5.691738e+001	-1.585145e+002	-2.000000e+002	0.000000e+000	-2.000000e+002	0.000000e+000
76148830.000	-4.940066e-001	7.832973e+001	-5.654690e+001	-1.630987e+002	-2.000000e+002	0.000000e+000	-2.000000e+002	0.000000e+000
76798820.000	-4.930039e-001	7.594767e+001	-5.630103e+001	-1.670294e+002	-2.000000e+002	0.000000e+000	-2.000000e+002	0.000000e+000
77448810.000	-4.941125e-001	7.357167e+001	-5.623394e+001	-1.701850e+002	-2.000000e+002	0.000000e+000	-2.000000e+002	0.000000e+000
78098800.000	-4.935784e-001	7.119033e+001	-5.615355e+001	-1.727217e+002	-2.000000e+002	0.000000e+000	-2.000000e+002	0.000000e+000
78748790.000	-4.932654e-001	6.880788e+001	-5.589125e+001	-1.760997e+002	-2.000000e+002	0.000000e+000	-2.000000e+002	0.000000e+000
79398780.000	-4.914921e-001	6.642959e+001	-5.581187e+001	-1.786508e+002	-2.000000e+002	0.000000e+000	-2.000000e+002	0.000000e+000
80048770.000	-4.897566e-001	6.404296e+001	-5.568501e+001	1.781589e+002	-2.000000e+002	0.000000e+000	-2.000000e+002	0.000000e+000
80698760.000	-4.884673e-001	6.166606e+001	-5.559915e+001	1.761193e+002	-2.000000e+002	0.000000e+000	-2.000000e+002	0.000000e+000
81348750.000	-4.870144e-001	5.928837e+001	-5.552029e+001	1.736300e+002	-2.000000e+002	0.000000e+000	-2.000000e+002	0.000000e+000
81998740.000	-4.860719e-001	5.691693e+001	-5.540445e+001	1.718659e+002	-2.000000e+002	0.000000e+000	-2.000000e+002	0.000000e+000
82648730.000	-4.864658e-001	5.455422e+001	-5.529904e+001	1.698401e+002	-2.000000e+002	0.000000e+000	-2.000000e+002	0.000000e+000
83298720.000	-4.854513e-001	5.218640e+001	-5.518689e+001	1.677693e+002	-2.000000e+002	0.000000e+000	-2.000000e+002	0.000000e+000
83948710.000	-4.838021e-001	4.981932e+001	-5.510123e+001	1.663046e+002	-2.000000e+002	0.000000e+000	-2.000000e+002	0.000000e+000
84598700.000	-4.819713e-001	4.744893e+001	-5.495885e+001	1.646721e+002	-2.000000e+002	0.000000e+000	-2.000000e+002	0.000000e+000
85248690.000	-4.812710e-001	4.508827e+001	-5.491034e+001	1.640982e+002	-2.000000e+002	0.000000e+000	-2.000000e+002	0.000000e+000
85898680.000	-4.794262e-001	4.272371e+001	-5.459504e+001	1.618302e+002	-2.000000e+002	0.000000e+000	-2.000000e+002	0.000000e+000
86548670.000	-4.773964e-001	4.036651e+001	-5.436992e+001	1.600673e+002	-2.000000e+002	0.000000e+000	-2.000000e+002	0.000000e+000
87198660.000	-4.755867e-001	3.801152e+001	-5.410398e+001	1.580689e+002	-2.000000e+002	0.000000e+000	-2.000000e+002	0.000000e+000
87848650.000	-4.732912e-001	3.566065e+001	-5.392318e+001	1.556858e+002	-2.000000e+002	0.000000e+000	-2.000000e+002	0.000000e+000
88498640.000	-4.702788e-001	3.330980e+001	-5.378592e+001	1.537572e+002	-2.000000e+002	0.000000e+000	-2.000000e+002	0.000000e+000
89148630.000	-4.689890e-001	3.096159e+001	-5.367799e+001	1.521055e+002	-2.000000e+002	0.000000e+000	-2.000000e+002	0.000000e+000
89798620.000	-4.658681e-001	2.860806e+001	-5.355883e+001	1.504619e+002	-2.000000e+002	0.000000e+000	-2.000000e+002	0.000000e+000
90448610.000	-4.635829e-001	2.625756e+001	-5.321484e+001	1.491753e+002	-2.000000e+002	0.000000e+000	-2.000000e+002	0.000000e+000
91098600.000	-4.619342e-001	2.390621e+001	-5.303782e+001	1.473318e+002	-2.000000e+002	0.000000e+000	-2.000000e+002	0.000000e+000
91748590.000	-4.588739e-001	2.155603e+001	-5.268778e+001	1.451573e+002	-2.000000e+002	0.000000e+000	-2.000000e+002	0.000000e+000
92398580.000	-4.561371e-001	1.920908e+001	-5.247839e+001	1.437918e+002	-2.000000e+002	0.000000e+000	-2.000000e+002	0.000000e+000
93048570.000	-4.545372e-001	1.685488e+001	-5.228349e+001	1.416839e+002	-2.000000e+002	0.000000e+000	-2.000000e+002	0.000000e+000
93698560.000	-4.522795e-001	1.450947e+001	-5.190192e+001	1.407320e+002	-2.000000e+002	0.000000e+000	-2.000000e+002	0.000000e+000
94348550.000	-4.497098e-001	1.216911e+001	-5.164448e+001	1.385285e+002	-2.000000e+002	0.000000e+000	-2.000000e+002	0.000000e+000
94998540.000	-4.485048e-001	9.827705e+000	-5.118677e+001	1.364861e+002	-2.000000e+002	0.000000e+000	-2.000000e+002	0.000000e+000
95648530.000	-4.456178e-001	7.488592e+000	-5.097092e+001	1.339816e+002	-2.000000e+002	0.000000e+000	-2.000000e+002	0.000000e+000
96298520.000	-4.428012e-001	5.153818e+000	-5.072698e+001	1.322955e+002	-2.000000e+002	0.000000e+000	-2.000000e+002	0.000000e+000
96948510.000	-4.414203e-001	2.822202e+000	-5.032448e+001	1.305934e+002	-2.000000e+002	0.000000e+000	-2.000000e+002	0.000000e+000
97598500.000	-4.394022e-001	4.919157e-001	-4.985888e+001	1.280529e+002	-2.000000e+002	0.000000e+000	-2.000000e+002	0.000000e+000
98248490.000	-4.363532e-001	-1.839369e+000	-4.948836e+001	1.247345e+002	-2.000000e+002	0.000000e+000	-2.000000e+002	0.000000e+000
