!Keysight Technologies,E5063A,MY54503115,A.05.08
!Date: Sun Feb 04 18:36:36 2024
!Data & Calibration Information:
!Freq	S11:NONE(--)	S21:NONE(--)	S12:NONE(--)	S22:NONE(--)
# Hz S dB R 50
100000.000	4.626370e-002	-8.015060e-001	-8.028493e+001	5.010453e+001	-2.000000e+002	0.000000e+000	-2.000000e+002	0.000000e+000
749990.000	1.038298e-002	-3.050406e+000	-8.501702e+001	-6.398558e+001	-2.000000e+002	0.000000e+000	-2.000000e+002	0.000000e+000
1399980.000	1.146731e-002	-5.363569e+000	-8.664119e+001	8.869037e+001	-2.000000e+002	0.000000e+000	-2.000000e+002	0.000000e+000
2049970.000	1.002831e-002	-7.688676e+000	-7.660852e+001	1.062247e+002	-2.000000e+002	0.000000e+000	-2.000000e+002	0.000000e+000
2699960.000	1.107900e-002	-1.001873e+001	-7.772761e+001	9.266700e+001	-2.000000e+002	0.000000e+000	-2.000000e+002	0.000000e+000
3349950.000	1.634625e-002	-1.235438e+001	-7.585363e+001	8.218524e+001	-2.000000e+002	0.000000e+000	-2.000000e+002	0.000000e+000
3999940.000	1.378503e-002	-1.468560e+001	-7.389678e+001	6.719085e+001	-2.000000e+002	0.000000e+000	-2.000000e+002	0.000000e+000
4649930.000	1.682975e-002	-1.702416e+001	-7.389938e+001	8.150798e+001	-2.000000e+002	0.000000e+000	-2.000000e+002	0.000000e+000
5299920.000	1.451254e-002	-1.935661e+001	-7.269784e+001	7.260279e+001	-2.000000e+002	0.000000e+000	-2.000000e+002	0.000000e+000
5949910.000	1.420867e-002	-2.169593e+001	-7.061764e+001	6.435393e+001	-2.000000e+002	0.000000e+000	-2.000000e+002	0.000000e+000
6599900.000	1.440971e-002	-2.404123e+001	-6.892149e+001	6.745068e+001	-2.000000e+002	0.000000e+000	-2.000000e+002	0.000000e+000
7249890.000	1.468150e-002	-2.638381e+001	-7.005603e+001	5.657261e+001	-2.000000e+002	0.000000e+000	-2.000000e+002	0.000000e+000
7899880.000	1.459085e-002	-2.871700e+001	-6.967507e+001	6.770751e+001	-2.000000e+002	0.000000e+000	-2.000000e+002	0.000000e+000
8549870.000	1.927797e-002	-3.106819e+001	-6.832284e+001	6.222572e+001	-2.000000e+002	0.000000e+000	-2.000000e+002	0.000000e+000
9199860.000	1.761857e-002	-3.340994e+001	-6.707874e+001	5.952470e+001	-2.000000e+002	0.000000e+000	-2.000000e+002	0.000000e+000
9849850.000	1.683281e-002	-3.575315e+001	-6.689784e+001	5.536206e+001	-2.000000e+002	0.000000e+000	-2.000000e+002	0.000000e+000
10499840.000	1.406745e-002	-3.810227e+001	-6.626532e+001	5.347687e+001	-2.000000e+002	0.000000e+000	-2.000000e+002	0.000000e+000
11149830.000	1.157499e-002	-4.044294e+001	-6.582625e+001	5.425650e+001	-2.000000e+002	0.000000e+000	-2.000000e+002	0.000000e+000
11799820.000	9.578053e-003	-4.278820e+001	-6.545311e+001	4.873470e+001	-2.000000e+002	0.000000e+000	-2.000000e+002	0.000000e+000
12449810.000	9.905244e-003	-4.514476e+001	-6.476187e+001	4.657920e+001	-2.000000e+002	0.000000e+000	-2.000000e+002	0.000000e+000
13099800.000	1.082559e-002	-4.748749e+001	-6.442396e+001	4.536463e+001	-2.000000e+002	0.000000e+000	-2.000000e+002	0.000000e+000
13749790.000	8.485742e-003	-4.983267e+001	-6.422599e+001	4.469135e+001	-2.000000e+002	0.000000e+000	-2.000000e+002	0.000000e+000
14399780.000	6.216438e-003	-5.219885e+001	-6.347414e+001	4.039507e+001	-2.000000e+002	0.000000e+000	-2.000000e+002	0.000000e+000
15049770.000	5.745098e-003	-5.454707e+001	-6.304158e+001	3.945697e+001	-2.000000e+002	0.000000e+000	-2.000000e+002	0.000000e+000
15699760.000	4.630112e-003	-5.689515e+001	-6.286153e+001	3.662364e+001	-2.000000e+002	0.000000e+000	-2.000000e+002	0.000000e+000
16349750.000	2.676656e-003	-5.924991e+001	-6.245974e+001	3.538222e+001	-2.000000e+002	0.000000e+000	-2.000000e+002	0.000000e+000
16999740.000	7.012709e-004	-6.161997e+001	-6.213631e+001	3.399289e+001	-2.000000e+002	0.000000e+000	-2.000000e+002	0.000000e+000
17649730.000	5.333054e-003	-6.399398e+001	-6.108979e+001	3.260965e+001	-2.000000e+002	0.000000e+000	-2.000000e+002	0.000000e+000
18299720.000	6.622341e-003	-6.637080e+001	-6.067441e+001	3.140468e+001	-2.000000e+002	0.000000e+000	-2.000000e+002	0.000000e+000
18949710.000	3.780068e-003	-6.874544e+001	-6.031518e+001	2.458017e+001	-2.000000e+002	0.000000e+000	-2.000000e+002	0.000000e+000
19599700.000	-4.264675e-003	-7.111774e+001	-5.979609e+001	2.140416e+001	-2.000000e+002	0.000000e+000	-2.000000e+002	0.000000e+000
20249690.000	-1.086309e-002	-7.349820e+001	-5.969450e+001	1.950124e+001	-2.000000e+002	0.000000e+000	-2.000000e+002	0.000000e+000
20899680.000	-1.498105e-002	-7.591069e+001	-5.936202e+001	1.595385e+001	-2.000000e+002	0.000000e+000	-2.000000e+002	0.000000e+000
21549670.000	-1.948083e-002	-7.829546e+001	-5.918786e+001	1.461696e+001	-2.000000e+002	0.000000e+000	-2.000000e+002	0.000000e+000
22199660.000	-2.425379e-002	-8.067460e+001	-5.888806e+001	1.213671e+001	-2.000000e+002	0.000000e+000	-2.000000e+002	0.000000e+000
22849650.000	-2.851646e-002	-8.303456e+001	-5.872403e+001	1.056112e+001	-2.000000e+002	0.000000e+000	-2.000000e+002	0.000000e+000
23499640.000	-3.519464e-002	-8.542745e+001	-5.865239e+001	9.422100e+000	-2.000000e+002	0.000000e+000	-2.000000e+002	0.000000e+000
24149630.000	-4.148003e-002	-8.782174e+001	-5.820856e+001	8.346771e+000	-2.000000e+002	0.000000e+000	-2.000000e+002	0.000000e+000
24799620.000	-4.752784e-002	-9.021138e+001	-5.748233e+001	7.517182e+000	-2.000000e+002	0.000000e+000	-2.000000e+002	0.000000e+000
25449610.000	-5.197861e-002	-9.260005e+001	-5.700461e+001	4.802813e+000	-2.000000e+002	0.000000e+000	-2.000000e+002	0.000000e+000
26099600.000	-5.855307e-002	-9.498763e+001	-5.660366e+001	1.763912e+000	-2.000000e+002	0.000000e+000	-2.000000e+002	0.000000e+000
26749590.000	-6.538227e-002	-9.738962e+001	-5.631865e+001	-5.569812e-001	-2.000000e+002	0.000000e+000	-2.000000e+002	0.000000e+000
27399580.000	-7.186821e-002	-9.978985e+001	-5.577935e+001	-3.755520e+000	-2.000000e+002	0.000000e+000	-2.000000e+002	0.000000e+000
28049570.000	-7.793371e-002	-1.021929e+002	-5.550863e+001	-6.400392e+000	-2.000000e+002	0.000000e+000	-2.000000e+002	0.000000e+000
28699560.000	-8.429583e-002	-1.045930e+002	-5.520720e+001	-9.137450e+000	-2.000000e+002	0.000000e+000	-2.000000e+002	0.000000e+000
29349550.000	-9.144914e-002	-1.069979e+002	-5.486235e+001	-1.277027e+001	-2.000000e+002	0.000000e+000	-2.000000e+002	0.000000e+000
29999540.000	-9.819349e-002	-1.094123e+002	-5.469940e+001	-1.454991e+001	-2.000000e+002	0.000000e+000	-2.000000e+002	0.000000e+000
30649530.000	-1.052181e-001	-1.118312e+002	-5.440122e+001	-1.702466e+001	-2.000000e+002	0.000000e+000	-2.000000e+002	0.000000e+000
31299520.000	-1.118022e-001	-1.142522e+002	-5.421404e+001	-1.921292e+001	-2.000000e+002	0.000000e+000	-2.000000e+002	0.000000e+000
31949510.000	-1.201016e-001	-1.166728e+002	-5.397701e+001	-2.135359e+001	-2.000000e+002	0.000000e+000	-2.000000e+002	0.000000e+000
32599500.000	-1.282449e-001	-1.191048e+002	-5.394236e+001	-2.238407e+001	-2.000000e+002	0.000000e+000	-2.000000e+002	0.000000e+000
33249490.000	-1.367972e-001	-1.215354e+002	-5.393488e+001	-2.227035e+001	-2.000000e+002	0.000000e+000	-2.000000e+002	0.000000e+000
33899480.000	-1.463881e-001	-1.239719e+002	-5.353364e+001	-1.907604e+001	-2.000000e+002	0.000000e+000	-2.000000e+002	0.000000e+000
34549470.000	-1.583424e-001	-1.263964e+002	-5.261129e+001	-1.330777e+001	-2.000000e+002	0.000000e+000	-2.000000e+002	0.000000e+000
35199460.000	-1.700790e-001	-1.288114e+002	-5.057116e+001	-1.173753e+001	-2.000000e+002	0.000000e+000	-2.000000e+002	0.000000e+000
35849450.000	-1.775256e-001	-1.312156e+002	-4.868144e+001	-2.007993e+001	-2.000000e+002	0.000000e+000	-2.000000e+002	0.000000e+000
36499440.000	-1.830072e-001	-1.336411e+002	-4.783639e+001	-2.910696e+001	-2.000000e+002	0.000000e+000	-2.000000e+002	0.000000e+000
37149430.000	-1.888314e-001	-1.360859e+002	-4.733914e+001	-3.641841e+001	-2.000000e+002	0.000000e+000	-2.000000e+002	0.000000e+000
37799420.000	-1.955942e-001	-1.385383e+002	-4.695053e+001	-4.245462e+001	-2.000000e+002	0.000000e+000	-2.000000e+002	0.000000e+000
38449410.000	-2.030409e-001	-1.409973e+002	-4.649686e+001	-4.743745e+001	-2.000000e+002	0.000000e+000	-2.000000e+002	0.000000e+000
39099400.000	-2.109643e-001	-1.434651e+002	-4.603205e+001	-5.146482e+001	-2.000000e+002	0.000000e+000	-2.000000e+002	0.000000e+000
39749390.000	-2.196885e-001	-1.459355e+002	-4.546623e+001	-5.494309e+001	-2.000000e+002	0.000000e+000	-2.000000e+002	0.000000e+000
40399380.000	-2.287572e-001	-1.484137e+002	-4.480634e+001	-5.814166e+001	-2.000000e+002	0.000000e+000	-2.000000e+002	0.000000e+000
41049370.000	-2.389339e-001	-1.509020e+002	-4.397604e+001	-6.197991e+001	-2.000000e+002	0.000000e+000	-2.000000e+002	0.000000e+000
41699360.000	-2.486195e-001	-1.533995e+002	-4.291018e+001	-6.497842e+001	-2.000000e+002	0.000000e+000	-2.000000e+002	0.000000e+000
42349350.000	-2.593423e-001	-1.559238e+002	-4.171961e+001	-6.879018e+001	-2.000000e+002	0.000000e+000	-2.000000e+002	0.000000e+000
42999340.000	-2.724252e-001	-1.584713e+002	-4.018810e+001	-7.300903e+001	-2.000000e+002	0.000000e+000	-2.000000e+002	0.000000e+000
43649330.000	-2.893519e-001	-1.610743e+002	-3.821421e+001	-7.846948e+001	-2.000000e+002	0.000000e+000	-2.000000e+002	0.000000e+000
44299320.000	-3.182661e-001	-1.637744e+002	-3.565209e+001	-8.641680e+001	-2.000000e+002	0.000000e+000	-2.000000e+002	0.000000e+000
44949310.000	-3.838157e-001	-1.666575e+002	-3.218007e+001	-1.002464e+002	-2.000000e+002	0.000000e+000	-2.000000e+002	0.000000e+000
45599300.000	-6.183429e-001	-1.694299e+002	-2.768738e+001	-1.314625e+002	-2.000000e+002	0.000000e+000	-2.000000e+002	0.000000e+000
46249290.000	-7.525014e-001	-1.690545e+002	-2.712395e+001	1.661458e+002	-2.000000e+002	0.000000e+000	-2.000000e+002	0.000000e+000
46899280.000	-4.803879e-001	-1.710375e+002	-3.206136e+001	1.286090e+002	-2.000000e+002	0.000000e+000	-2.000000e+002	0.000000e+000
47549270.000	-3.940073e-001	-1.738607e+002	-3.622012e+001	1.125768e+002	-2.000000e+002	0.000000e+000	-2.000000e+002	0.000000e+000
48199260.000	-3.665640e-001	-1.765653e+002	-3.939893e+001	1.033374e+002	-2.000000e+002	0.000000e+000	-2.000000e+002	0.000000e+000
48849250.000	-3.584338e-001	-1.791794e+002	-4.195631e+001	9.671714e+001	-2.000000e+002	0.000000e+000	-2.000000e+002	0.000000e+000
49499240.000	-3.571329e-001	1.782621e+002	-4.415666e+001	9.074846e+001	-2.000000e+002	0.000000e+000	-2.000000e+002	0.000000e+000
50149230.000	-3.588438e-001	1.757354e+002	-4.612213e+001	8.606068e+001	-2.000000e+002	0.000000e+000	-2.000000e+002	0.000000e+000
50799220.000	-3.617028e-001	1.732282e+002	-4.788199e+001	8.225460e+001	-2.000000e+002	0.000000e+000	-2.000000e+002	0.000000e+000
51449210.000	-3.655738e-001	1.707270e+002	-4.948198e+001	7.801268e+001	-2.000000e+002	0.000000e+000	-2.000000e+002	0.000000e+000
52099200.000	-3.697982e-001	1.682430e+002	-5.086975e+001	7.344727e+001	-2.000000e+002	0.000000e+000	-2.000000e+002	0.000000e+000
52749190.000	-3.750554e-001	1.657647e+002	-5.240556e+001	6.952610e+001	-2.000000e+002	0.000000e+000	-2.000000e+002	0.000000e+000
53399180.000	-3.796253e-001	1.632905e+002	-5.382513e+001	6.388186e+001	-2.000000e+002	0.000000e+000	-2.000000e+002	0.000000e+000
54049170.000	-3.846644e-001	1.608205e+002	-5.529971e+001	5.951779e+001	-2.000000e+002	0.000000e+000	-2.000000e+002	0.000000e+000
54699160.000	-3.898581e-001	1.583528e+002	-5.662490e+001	5.662444e+001	-2.000000e+002	0.000000e+000	-2.000000e+002	0.000000e+000
55349150.000	-3.955078e-001	1.558884e+002	-5.806629e+001	5.213788e+001	-2.000000e+002	0.000000e+000	-2.000000e+002	0.000000e+000
55999140.000	-4.004106e-001	1.534270e+002	-5.877808e+001	4.804981e+001	-2.000000e+002	0.000000e+000	-2.000000e+002	0.000000e+000
56649130.000	-4.061271e-001	1.509718e+002	-6.021337e+001	4.156185e+001	-2.000000e+002	0.000000e+000	-2.000000e+002	0.000000e+000
57299120.000	-4.114414e-001	1.485190e+002	-6.135374e+001	3.555381e+001	-2.000000e+002	0.000000e+000	-2.000000e+002	0.000000e+000
57949110.000	-4.166398e-001	1.460665e+002	-6.193404e+001	3.055089e+001	-2.000000e+002	0.000000e+000	-2.000000e+002	0.000000e+000
58599100.000	-4.209528e-001	1.436099e+002	-6.254233e+001	2.343198e+001	-2.000000e+002	0.000000e+000	-2.000000e+002	0.000000e+000
59249090.000	-4.263684e-001	1.411645e+002	-6.254922e+001	1.457124e+001	-2.000000e+002	0.000000e+000	-2.000000e+002	0.000000e+000
59899080.000	-4.313956e-001	1.387185e+002	-6.191107e+001	-3.723956e-001	-2.000000e+002	0.000000e+000	-2.000000e+002	0.000000e+000
60549070.000	-4.376164e-001	1.362864e+002	-6.134033e+001	-2.128409e+001	-2.000000e+002	0.000000e+000	-2.000000e+002	0.000000e+000
61199060.000	-4.430542e-001	1.338512e+002	-5.997364e+001	-3.833646e+001	-2.000000e+002	0.000000e+000	-2.000000e+002	0.000000e+000
61849050.000	-4.469375e-001	1.314240e+002	-5.969076e+001	-5.787166e+001	-2.000000e+002	0.000000e+000	-2.000000e+002	0.000000e+000
62499040.000	-4.511498e-001	1.290016e+002	-5.911022e+001	-7.583088e+001	-2.000000e+002	0.000000e+000	-2.000000e+002	0.000000e+000
63149030.000	-4.534608e-001	1.265756e+002	-5.917405e+001	-9.357845e+001	-2.000000e+002	0.000000e+000	-2.000000e+002	0.000000e+000
63799020.000	-4.557966e-001	1.241442e+002	-5.925484e+001	-1.045969e+002	-2.000000e+002	0.000000e+000	-2.000000e+002	0.000000e+000
64449010.000	-4.592816e-001	1.217194e+002	-5.964558e+001	-1.149192e+002	-2.000000e+002	0.000000e+000	-2.000000e+002	0.000000e+000
65099000.000	-4.615136e-001	1.192916e+002	-5.975279e+001	-1.219100e+002	-2.000000e+002	0.000000e+000	-2.000000e+002	0.000000e+000
65748990.000	-4.639271e-001	1.168656e+002	-5.992410e+001	-1.266432e+002	-2.000000e+002	0.000000e+000	-2.000000e+002	0.000000e+000
66398980.000	-4.666300e-001	1.144406e+002	-5.995839e+001	-1.312690e+002	-2.000000e+002	0.000000e+000	-2.000000e+002	0.000000e+000
67048970.000	-4.690641e-001	1.120174e+002	-5.977078e+001	-1.343290e+002	-2.000000e+002	0.000000e+000	-2.000000e+002	0.000000e+000
67698960.000	-4.724033e-001	1.096004e+002	-5.929867e+001	-1.382529e+002	-2.000000e+002	0.000000e+000	-2.000000e+002	0.000000e+000
68348950.000	-4.735049e-001	1.071855e+002	-5.941492e+001	-1.421639e+002	-2.000000e+002	0.000000e+000	-2.000000e+002	0.000000e+000
68998940.000	-4.760506e-001	1.047735e+002	-5.905259e+001	-1.450379e+002	-2.000000e+002	0.000000e+000	-2.000000e+002	0.000000e+000
69648930.000	-4.777914e-001	1.023583e+002	-5.889252e+001	-1.474444e+002	-2.000000e+002	0.000000e+000	-2.000000e+002	0.000000e+000
70298920.000	-4.786716e-001	9.994438e+001	-5.865808e+001	-1.513198e+002	-2.000000e+002	0.000000e+000	-2.000000e+002	0.000000e+000
70948910.000	-4.813106e-001	9.753602e+001	-5.849749e+001	-1.524371e+002	-2.000000e+002	0.000000e+000	-2.000000e+002	0.000000e+000
71598900.000	-4.815837e-001	9.512846e+001	-5.830562e+001	-1.552317e+002	-2.000000e+002	0.000000e+000	-2.000000e+002	0.000000e+000
72248890.000	-4.835382e-001	9.272595e+001	-5.812882e+001	-1.571552e+002	-2.000000e+002	0.000000e+000	-2.000000e+002	0.000000e+000
72898880.000	-4.854557e-001	9.032442e+001	-5.792000e+001	-1.591862e+002	-2.000000e+002	0.000000e+000	-2.000000e+002	0.000000e+000
73548870.000	-4.863580e-001	8.792755e+001	-5.743622e+001	-1.603719e+002	-2.000000e+002	0.000000e+000	-2.000000e+002	0.000000e+000
74198860.000	-4.868617e-001	8.553339e+001	-5.727983e+001	-1.624131e+002	-2.000000e+002	0.000000e+000	-2.000000e+002	0.000000e+000
74848850.000	-4.883781e-001	8.314276e+001	-5.690148e+001	-1.647706e+002	-2.000000e+002	0.000000e+000	-2.000000e+002	0.000000e+000
75498840.000	-4.889738e-001	8.075237e+001	-5.663880e+001	-1.667494e+002	-2.000000e+002	0.000000e+000	-2.000000e+002	0.000000e+000
76148830.000	-4.889381e-001	7.836315e+001	-5.628036e+001	-1.697901e+002	-2.000000e+002	0.000000e+000	-2.000000e+002	0.000000e+000
76798820.000	-4.880514e-001	7.597603e+001	-5.593517e+001	-1.728007e+002	-2.000000e+002	0.000000e+000	-2.000000e+002	0.000000e+000
77448810.000	-4.893741e-001	7.360766e+001	-5.571422e+001	-1.758641e+002	-2.000000e+002	0.000000e+000	-2.000000e+002	0.000000e+000
78098800.000	-4.888897e-001	7.122564e+001	-5.553189e+001	-1.790810e+002	-2.000000e+002	0.000000e+000	-2.000000e+002	0.000000e+000
78748790.000	-4.883656e-001	6.884813e+001	-5.522007e+001	1.783431e+002	-2.000000e+002	0.000000e+000	-2.000000e+002	0.000000e+000
79398780.000	-4.868143e-001	6.646685e+001	-5.501139e+001	1.742525e+002	-2.000000e+002	0.000000e+000	-2.000000e+002	0.000000e+000
80048770.000	-4.845387e-001	6.408273e+001	-5.500270e+001	1.712389e+002	-2.000000e+002	0.000000e+000	-2.000000e+002	0.000000e+000
80698760.000	-4.833363e-001	6.170740e+001	-5.485140e+001	1.688827e+002	-2.000000e+002	0.000000e+000	-2.000000e+002	0.000000e+000
81348750.000	-4.816868e-001	5.933579e+001	-5.489791e+001	1.659206e+002	-2.000000e+002	0.000000e+000	-2.000000e+002	0.000000e+000
81998740.000	-4.809084e-001	5.696197e+001	-5.484212e+001	1.630982e+002	-2.000000e+002	0.000000e+000	-2.000000e+002	0.000000e+000
82648730.000	-4.805926e-001	5.460248e+001	-5.476002e+001	1.611595e+002	-2.000000e+002	0.000000e+000	-2.000000e+002	0.000000e+000
83298720.000	-4.791163e-001	5.223523e+001	-5.464329e+001	1.596540e+002	-2.000000e+002	0.000000e+000	-2.000000e+002	0.000000e+000
83948710.000	-4.773893e-001	4.986596e+001	-5.466055e+001	1.567812e+002	-2.000000e+002	0.000000e+000	-2.000000e+002	0.000000e+000
84598700.000	-4.762202e-001	4.749778e+001	-5.460848e+001	1.546637e+002	-2.000000e+002	0.000000e+000	-2.000000e+002	0.000000e+000
85248690.000	-4.745909e-001	4.513352e+001	-5.452342e+001	1.535133e+002	-2.000000e+002	0.000000e+000	-2.000000e+002	0.000000e+000
85898680.000	-4.724060e-001	4.277175e+001	-5.444338e+001	1.515205e+002	-2.000000e+002	0.000000e+000	-2.000000e+002	0.000000e+000
86548670.000	-4.704395e-001	4.041395e+001	-5.428949e+001	1.496082e+002	-2.000000e+002	0.000000e+000	-2.000000e+002	0.000000e+000
87198660.000	-4.678334e-001	3.805287e+001	-5.423893e+001	1.477792e+002	-2.000000e+002	0.000000e+000	-2.000000e+002	0.000000e+000
87848650.000	-4.657326e-001	3.570146e+001	-5.416481e+001	1.460158e+002	-2.000000e+002	0.000000e+000	-2.000000e+002	0.000000e+000
88498640.000	-4.636116e-001	3.335139e+001	-5.414701e+001	1.441633e+002	-2.000000e+002	0.000000e+000	-2.000000e+002	0.000000e+000
89148630.000	-4.613970e-001	3.100124e+001	-5.398299e+001	1.427951e+002	-2.000000e+002	0.000000e+000	-2.000000e+002	0.000000e+000
89798620.000	-4.586198e-001	2.864970e+001	-5.389291e+001	1.415176e+002	-2.000000e+002	0.000000e+000	-2.000000e+002	0.000000e+000
90448610.000	-4.567518e-001	2.630066e+001	-5.374965e+001	1.407577e+002	-2.000000e+002	0.000000e+000	-2.000000e+002	0.000000e+000
91098600.000	-4.545329e-001	2.394808e+001	-5.357557e+001	1.395066e+002	-2.000000e+002	0.000000e+000	-2.000000e+002	0.000000e+000
91748590.000	-4.508880e-001	2.159753e+001	-5.349208e+001	1.379537e+002	-2.000000e+002	0.000000e+000	-2.000000e+002	0.000000e+000
92398580.000	-4.488490e-001	1.924675e+001	-5.308615e+001	1.366300e+002	-2.000000e+002	0.000000e+000	-2.000000e+002	0.000000e+000
93048570.000	-4.461051e-001	1.689345e+001	-5.304770e+001	1.341243e+002	-2.000000e+002	0.000000e+000	-2.000000e+002	0.000000e+000
93698560.000	-4.440412e-001	1.454791e+001	-5.283277e+001	1.327970e+002	-2.000000e+002	0.000000e+000	-2.000000e+002	0.000000e+000
94348550.000	-4.410592e-001	1.220582e+001	-5.259743e+001	1.317695e+002	-2.000000e+002	0.000000e+000	-2.000000e+002	0.000000e+000
94998540.000	-4.398053e-001	9.858683e+000	-5.249087e+001	1.303727e+002	-2.000000e+002	0.000000e+000	-2.000000e+002	0.000000e+000
95648530.000	-4.368576e-001	7.521448e+000	-5.214876e+001	1.288216e+002	-2.000000e+002	0.000000e+000	-2.000000e+002	0.000000e+000
96298520.000	-4.339290e-001	5.179876e+000	-5.197792e+001	1.271322e+002	-2.000000e+002	0.000000e+000	-2.000000e+002	0.000000e+000
96948510.000	-4.323636e-001	2.840648e+000	-5.167588e+001	1.266563e+002	-2.000000e+002	0.000000e+000	-2.000000e+002	0.000000e+000
97598500.000	-4.307203e-001	5.037292e-001	-5.121112e+001	1.258176e+002	-2.000000e+002	0.000000e+000	-2.000000e+002	0.000000e+000
98248490.000	-4.282793e-001	-1.828230e+000	-5.081120e+001	1.243444e+002	-2.000000e+002	0.000000e+000	-2.000000e+002	0.000000e+000
