!Keysight Technologies,E5063A,MY54503115,A.05.08
!Date: Sun Feb 04 18:31:32 2024
!Data & Calibration Information:
!Freq	S11:NONE(--)	S21:NONE(--)	S12:NONE(--)	S22:NONE(--)
# Hz S dB R 50
100000.000	4.544776e-002	-7.899658e-001	-8.762008e+001	3.095711e+001	-2.000000e+002	0.000000e+000	-2.000000e+002	0.000000e+000
749990.000	9.477177e-003	-3.040930e+000	-9.103383e+001	8.833411e+001	-2.000000e+002	0.000000e+000	-2.000000e+002	0.000000e+000
1399980.000	1.076285e-002	-5.359452e+000	-7.792977e+001	1.584799e+002	-2.000000e+002	0.000000e+000	-2.000000e+002	0.000000e+000
2049970.000	1.112802e-002	-7.682395e+000	-7.757717e+001	1.603867e+002	-2.000000e+002	0.000000e+000	-2.000000e+002	0.000000e+000
2699960.000	1.121792e-002	-1.000942e+001	-7.689416e+001	6.579358e+001	-2.000000e+002	0.000000e+000	-2.000000e+002	0.000000e+000
3349950.000	1.495483e-002	-1.233850e+001	-7.582156e+001	8.897543e+001	-2.000000e+002	0.000000e+000	-2.000000e+002	0.000000e+000
3999940.000	1.348066e-002	-1.468701e+001	-7.426673e+001	8.513656e+001	-2.000000e+002	0.000000e+000	-2.000000e+002	0.000000e+000
4649930.000	1.555931e-002	-1.701739e+001	-7.510724e+001	7.662414e+001	-2.000000e+002	0.000000e+000	-2.000000e+002	0.000000e+000
5299920.000	1.506836e-002	-1.935437e+001	-7.060308e+001	7.607217e+001	-2.000000e+002	0.000000e+000	-2.000000e+002	0.000000e+000
5949910.000	1.435153e-002	-2.169675e+001	-7.048023e+001	6.145233e+001	-2.000000e+002	0.000000e+000	-2.000000e+002	0.000000e+000
6599900.000	1.406253e-002	-2.403305e+001	-6.921692e+001	6.741447e+001	-2.000000e+002	0.000000e+000	-2.000000e+002	0.000000e+000
7249890.000	1.466377e-002	-2.637340e+001	-6.816141e+001	6.641222e+001	-2.000000e+002	0.000000e+000	-2.000000e+002	0.000000e+000
7899880.000	1.466532e-002	-2.871818e+001	-6.824574e+001	6.203553e+001	-2.000000e+002	0.000000e+000	-2.000000e+002	0.000000e+000
8549870.000	1.873732e-002	-3.106230e+001	-6.796719e+001	6.082696e+001	-2.000000e+002	0.000000e+000	-2.000000e+002	0.000000e+000
9199860.000	1.725933e-002	-3.340665e+001	-6.716223e+001	5.902216e+001	-2.000000e+002	0.000000e+000	-2.000000e+002	0.000000e+000
9849850.000	1.638526e-002	-3.575343e+001	-6.655758e+001	5.150085e+001	-2.000000e+002	0.000000e+000	-2.000000e+002	0.000000e+000
10499840.000	1.314401e-002	-3.810016e+001	-6.623804e+001	5.185234e+001	-2.000000e+002	0.000000e+000	-2.000000e+002	0.000000e+000
11149830.000	1.102467e-002	-4.043912e+001	-6.513667e+001	4.637131e+001	-2.000000e+002	0.000000e+000	-2.000000e+002	0.000000e+000
11799820.000	9.677783e-003	-4.278773e+001	-6.530472e+001	4.924568e+001	-2.000000e+002	0.000000e+000	-2.000000e+002	0.000000e+000
12449810.000	9.373457e-003	-4.513472e+001	-6.467112e+001	4.846477e+001	-2.000000e+002	0.000000e+000	-2.000000e+002	0.000000e+000
13099800.000	1.054763e-002	-4.748238e+001	-6.443369e+001	4.311193e+001	-2.000000e+002	0.000000e+000	-2.000000e+002	0.000000e+000
13749790.000	8.430940e-003	-4.982765e+001	-6.374618e+001	4.167551e+001	-2.000000e+002	0.000000e+000	-2.000000e+002	0.000000e+000
14399780.000	6.061503e-003	-5.219514e+001	-6.323108e+001	4.063276e+001	-2.000000e+002	0.000000e+000	-2.000000e+002	0.000000e+000
15049770.000	5.756128e-003	-5.454603e+001	-6.284578e+001	3.809667e+001	-2.000000e+002	0.000000e+000	-2.000000e+002	0.000000e+000
15699760.000	4.718197e-003	-5.688909e+001	-6.268822e+001	3.731086e+001	-2.000000e+002	0.000000e+000	-2.000000e+002	0.000000e+000
16349750.000	2.522463e-003	-5.924636e+001	-6.243593e+001	3.355134e+001	-2.000000e+002	0.000000e+000	-2.000000e+002	0.000000e+000
16999740.000	3.726431e-004	-6.161770e+001	-6.166835e+001	3.385739e+001	-2.000000e+002	0.000000e+000	-2.000000e+002	0.000000e+000
17649730.000	5.555136e-003	-6.399106e+001	-6.078887e+001	3.147265e+001	-2.000000e+002	0.000000e+000	-2.000000e+002	0.000000e+000
18299720.000	6.128658e-003	-6.636880e+001	-6.046070e+001	2.942489e+001	-2.000000e+002	0.000000e+000	-2.000000e+002	0.000000e+000
18949710.000	3.650523e-003	-6.874081e+001	-5.995611e+001	2.621903e+001	-2.000000e+002	0.000000e+000	-2.000000e+002	0.000000e+000
19599700.000	-4.542425e-003	-7.111463e+001	-5.979044e+001	2.222334e+001	-2.000000e+002	0.000000e+000	-2.000000e+002	0.000000e+000
20249690.000	-1.124167e-002	-7.349646e+001	-5.975001e+001	1.967505e+001	-2.000000e+002	0.000000e+000	-2.000000e+002	0.000000e+000
20899680.000	-1.514023e-002	-7.590262e+001	-5.923981e+001	1.652055e+001	-2.000000e+002	0.000000e+000	-2.000000e+002	0.000000e+000
21549670.000	-1.932932e-002	-7.829423e+001	-5.904279e+001	1.291103e+001	-2.000000e+002	0.000000e+000	-2.000000e+002	0.000000e+000
22199660.000	-2.441611e-002	-8.067082e+001	-5.871306e+001	1.122275e+001	-2.000000e+002	0.000000e+000	-2.000000e+002	0.000000e+000
22849650.000	-2.897192e-002	-8.303070e+001	-5.848947e+001	9.544171e+000	-2.000000e+002	0.000000e+000	-2.000000e+002	0.000000e+000
23499640.000	-3.539857e-002	-8.542363e+001	-5.821837e+001	8.936084e+000	-2.000000e+002	0.000000e+000	-2.000000e+002	0.000000e+000
24149630.000	-4.205523e-002	-8.782191e+001	-5.772988e+001	8.347742e+000	-2.000000e+002	0.000000e+000	-2.000000e+002	0.000000e+000
24799620.000	-4.791461e-002	-9.020961e+001	-5.726922e+001	6.737539e+000	-2.000000e+002	0.000000e+000	-2.000000e+002	0.000000e+000
25449610.000	-5.220932e-002	-9.259361e+001	-5.680104e+001	3.355233e+000	-2.000000e+002	0.000000e+000	-2.000000e+002	0.000000e+000
26099600.000	-5.834956e-002	-9.498762e+001	-5.642871e+001	6.411985e-001	-2.000000e+002	0.000000e+000	-2.000000e+002	0.000000e+000
26749590.000	-6.522271e-002	-9.738915e+001	-5.615431e+001	-1.308752e+000	-2.000000e+002	0.000000e+000	-2.000000e+002	0.000000e+000
27399580.000	-7.144490e-002	-9.978910e+001	-5.579988e+001	-3.443040e+000	-2.000000e+002	0.000000e+000	-2.000000e+002	0.000000e+000
28049570.000	-7.779034e-002	-1.021910e+002	-5.555704e+001	-6.979273e+000	-2.000000e+002	0.000000e+000	-2.000000e+002	0.000000e+000
28699560.000	-8.485157e-002	-1.045930e+002	-5.514797e+001	-9.410716e+000	-2.000000e+002	0.000000e+000	-2.000000e+002	0.000000e+000
29349550.000	-9.147710e-002	-1.070003e+002	-5.496427e+001	-1.305672e+001	-2.000000e+002	0.000000e+000	-2.000000e+002	0.000000e+000
29999540.000	-9.865361e-002	-1.094114e+002	-5.471344e+001	-1.539378e+001	-2.000000e+002	0.000000e+000	-2.000000e+002	0.000000e+000
30649530.000	-1.059151e-001	-1.118307e+002	-5.440059e+001	-1.736568e+001	-2.000000e+002	0.000000e+000	-2.000000e+002	0.000000e+000
31299520.000	-1.123293e-001	-1.142534e+002	-5.424132e+001	-1.931461e+001	-2.000000e+002	0.000000e+000	-2.000000e+002	0.000000e+000
31949510.000	-1.205717e-001	-1.166755e+002	-5.401997e+001	-2.138978e+001	-2.000000e+002	0.000000e+000	-2.000000e+002	0.000000e+000
32599500.000	-1.286984e-001	-1.191052e+002	-5.391878e+001	-2.292077e+001	-2.000000e+002	0.000000e+000	-2.000000e+002	0.000000e+000
33249490.000	-1.374939e-001	-1.215373e+002	-5.387996e+001	-2.264566e+001	-2.000000e+002	0.000000e+000	-2.000000e+002	0.000000e+000
33899480.000	-1.476313e-001	-1.239753e+002	-5.367107e+001	-1.975185e+001	-2.000000e+002	0.000000e+000	-2.000000e+002	0.000000e+000
34549470.000	-1.595446e-001	-1.264016e+002	-5.294632e+001	-1.476814e+001	-2.000000e+002	0.000000e+000	-2.000000e+002	0.000000e+000
35199460.000	-1.721388e-001	-1.288189e+002	-5.110636e+001	-1.116620e+001	-2.000000e+002	0.000000e+000	-2.000000e+002	0.000000e+000
35849450.000	-1.810203e-001	-1.312169e+002	-4.917386e+001	-1.773521e+001	-2.000000e+002	0.000000e+000	-2.000000e+002	0.000000e+000
36499440.000	-1.866663e-001	-1.336332e+002	-4.807998e+001	-2.583345e+001	-2.000000e+002	0.000000e+000	-2.000000e+002	0.000000e+000
37149430.000	-1.920655e-001	-1.360708e+002	-4.739224e+001	-3.361044e+001	-2.000000e+002	0.000000e+000	-2.000000e+002	0.000000e+000
37799420.000	-1.978030e-001	-1.385182e+002	-4.701012e+001	-4.057778e+001	-2.000000e+002	0.000000e+000	-2.000000e+002	0.000000e+000
38449410.000	-2.048487e-001	-1.409751e+002	-4.669446e+001	-4.570160e+001	-2.000000e+002	0.000000e+000	-2.000000e+002	0.000000e+000
39099400.000	-2.125743e-001	-1.434384e+002	-4.623915e+001	-5.029247e+001	-2.000000e+002	0.000000e+000	-2.000000e+002	0.000000e+000
39749390.000	-2.207576e-001	-1.459103e+002	-4.583298e+001	-5.401058e+001	-2.000000e+002	0.000000e+000	-2.000000e+002	0.000000e+000
40399380.000	-2.295225e-001	-1.483829e+002	-4.527609e+001	-5.699047e+001	-2.000000e+002	0.000000e+000	-2.000000e+002	0.000000e+000
41049370.000	-2.392615e-001	-1.508676e+002	-4.455912e+001	-6.014486e+001	-2.000000e+002	0.000000e+000	-2.000000e+002	0.000000e+000
41699360.000	-2.488084e-001	-1.533536e+002	-4.369136e+001	-6.340575e+001	-2.000000e+002	0.000000e+000	-2.000000e+002	0.000000e+000
42349350.000	-2.595468e-001	-1.558635e+002	-4.273343e+001	-6.634695e+001	-2.000000e+002	0.000000e+000	-2.000000e+002	0.000000e+000
42999340.000	-2.714399e-001	-1.583820e+002	-4.155989e+001	-6.988898e+001	-2.000000e+002	0.000000e+000	-2.000000e+002	0.000000e+000
43649330.000	-2.859848e-001	-1.609335e+002	-4.006375e+001	-7.339381e+001	-2.000000e+002	0.000000e+000	-2.000000e+002	0.000000e+000
44299320.000	-3.050613e-001	-1.635271e+002	-3.818888e+001	-7.842230e+001	-2.000000e+002	0.000000e+000	-2.000000e+002	0.000000e+000
44949310.000	-3.342682e-001	-1.662001e+002	-3.575219e+001	-8.510244e+001	-2.000000e+002	0.000000e+000	-2.000000e+002	0.000000e+000
45599300.000	-3.945780e-001	-1.690244e+002	-3.245334e+001	-9.629357e+001	-2.000000e+002	0.000000e+000	-2.000000e+002	0.000000e+000
46249290.000	-5.844967e-001	-1.719352e+002	-2.783646e+001	-1.204004e+002	-2.000000e+002	0.000000e+000	-2.000000e+002	0.000000e+000
46899280.000	-8.678377e-001	-1.717314e+002	-2.497426e+001	1.788175e+002	-2.000000e+002	0.000000e+000	-2.000000e+002	0.000000e+000
47549270.000	-4.999059e-001	-1.731584e+002	-2.986361e+001	1.300905e+002	-2.000000e+002	0.000000e+000	-2.000000e+002	0.000000e+000
48199260.000	-3.929114e-001	-1.761637e+002	-3.449100e+001	1.114224e+002	-2.000000e+002	0.000000e+000	-2.000000e+002	0.000000e+000
48849250.000	-3.663409e-001	-1.789419e+002	-3.789750e+001	1.013250e+002	-2.000000e+002	0.000000e+000	-2.000000e+002	0.000000e+000
49499240.000	-3.599358e-001	1.784167e+002	-4.063184e+001	9.416352e+001	-2.000000e+002	0.000000e+000	-2.000000e+002	0.000000e+000
50149230.000	-3.595221e-001	1.758427e+002	-4.296024e+001	8.882240e+001	-2.000000e+002	0.000000e+000	-2.000000e+002	0.000000e+000
50799220.000	-3.620939e-001	1.733091e+002	-4.494310e+001	8.427413e+001	-2.000000e+002	0.000000e+000	-2.000000e+002	0.000000e+000
51449210.000	-3.656252e-001	1.707920e+002	-4.670920e+001	8.020449e+001	-2.000000e+002	0.000000e+000	-2.000000e+002	0.000000e+000
52099200.000	-3.707756e-001	1.682922e+002	-4.828572e+001	7.641857e+001	-2.000000e+002	0.000000e+000	-2.000000e+002	0.000000e+000
52749190.000	-3.746119e-001	1.658078e+002	-4.982000e+001	7.224057e+001	-2.000000e+002	0.000000e+000	-2.000000e+002	0.000000e+000
53399180.000	-3.797356e-001	1.633284e+002	-5.132104e+001	6.887950e+001	-2.000000e+002	0.000000e+000	-2.000000e+002	0.000000e+000
54049170.000	-3.844493e-001	1.608519e+002	-5.275693e+001	6.595190e+001	-2.000000e+002	0.000000e+000	-2.000000e+002	0.000000e+000
54699160.000	-3.899661e-001	1.583798e+002	-5.390580e+001	6.158094e+001	-2.000000e+002	0.000000e+000	-2.000000e+002	0.000000e+000
55349150.000	-3.955980e-001	1.559114e+002	-5.518222e+001	5.737070e+001	-2.000000e+002	0.000000e+000	-2.000000e+002	0.000000e+000
55999140.000	-4.009313e-001	1.534490e+002	-5.614858e+001	5.404523e+001	-2.000000e+002	0.000000e+000	-2.000000e+002	0.000000e+000
56649130.000	-4.067066e-001	1.509939e+002	-5.745023e+001	5.064865e+001	-2.000000e+002	0.000000e+000	-2.000000e+002	0.000000e+000
57299120.000	-4.115087e-001	1.485383e+002	-5.832484e+001	4.368887e+001	-2.000000e+002	0.000000e+000	-2.000000e+002	0.000000e+000
57949110.000	-4.163811e-001	1.460843e+002	-5.923479e+001	4.075275e+001	-2.000000e+002	0.000000e+000	-2.000000e+002	0.000000e+000
58599100.000	-4.217624e-001	1.436310e+002	-5.997848e+001	3.112340e+001	-2.000000e+002	0.000000e+000	-2.000000e+002	0.000000e+000
59249090.000	-4.267409e-001	1.411828e+002	-6.019983e+001	2.254482e+001	-2.000000e+002	0.000000e+000	-2.000000e+002	0.000000e+000
59899080.000	-4.319803e-001	1.387374e+002	-5.997777e+001	1.249739e+001	-2.000000e+002	0.000000e+000	-2.000000e+002	0.000000e+000
60549070.000	-4.379118e-001	1.362994e+002	-5.994027e+001	-4.869753e+000	-2.000000e+002	0.000000e+000	-2.000000e+002	0.000000e+000
61199060.000	-4.429708e-001	1.338674e+002	-5.956306e+001	-2.204232e+001	-2.000000e+002	0.000000e+000	-2.000000e+002	0.000000e+000
61849050.000	-4.477348e-001	1.314381e+002	-5.880063e+001	-4.584282e+001	-2.000000e+002	0.000000e+000	-2.000000e+002	0.000000e+000
62499040.000	-4.509867e-001	1.290143e+002	-5.907767e+001	-6.431301e+001	-2.000000e+002	0.000000e+000	-2.000000e+002	0.000000e+000
63149030.000	-4.543315e-001	1.265889e+002	-5.956562e+001	-8.284949e+001	-2.000000e+002	0.000000e+000	-2.000000e+002	0.000000e+000
63799020.000	-4.568880e-001	1.241572e+002	-6.023225e+001	-9.653775e+001	-2.000000e+002	0.000000e+000	-2.000000e+002	0.000000e+000
64449010.000	-4.603832e-001	1.217333e+002	-6.056243e+001	-1.063978e+002	-2.000000e+002	0.000000e+000	-2.000000e+002	0.000000e+000
65099000.000	-4.625100e-001	1.193066e+002	-6.025002e+001	-1.144827e+002	-2.000000e+002	0.000000e+000	-2.000000e+002	0.000000e+000
65748990.000	-4.649623e-001	1.168802e+002	-6.020414e+001	-1.228901e+002	-2.000000e+002	0.000000e+000	-2.000000e+002	0.000000e+000
66398980.000	-4.674676e-001	1.144555e+002	-6.023564e+001	-1.280934e+002	-2.000000e+002	0.000000e+000	-2.000000e+002	0.000000e+000
67048970.000	-4.701279e-001	1.120350e+002	-5.988181e+001	-1.340804e+002	-2.000000e+002	0.000000e+000	-2.000000e+002	0.000000e+000
67698960.000	-4.725560e-001	1.096218e+002	-5.977926e+001	-1.378201e+002	-2.000000e+002	0.000000e+000	-2.000000e+002	0.000000e+000
68348950.000	-4.740946e-001	1.072049e+002	-5.955434e+001	-1.422154e+002	-2.000000e+002	0.000000e+000	-2.000000e+002	0.000000e+000
68998940.000	-4.765294e-001	1.047954e+002	-5.948163e+001	-1.454279e+002	-2.000000e+002	0.000000e+000	-2.000000e+002	0.000000e+000
69648930.000	-4.787152e-001	1.023768e+002	-5.937492e+001	-1.492378e+002	-2.000000e+002	0.000000e+000	-2.000000e+002	0.000000e+000
70298920.000	-4.786185e-001	9.996190e+001	-5.924349e+001	-1.506993e+002	-2.000000e+002	0.000000e+000	-2.000000e+002	0.000000e+000
70948910.000	-4.810725e-001	9.755729e+001	-5.886711e+001	-1.542996e+002	-2.000000e+002	0.000000e+000	-2.000000e+002	0.000000e+000
71598900.000	-4.823575e-001	9.514286e+001	-5.902288e+001	-1.569829e+002	-2.000000e+002	0.000000e+000	-2.000000e+002	0.000000e+000
72248890.000	-4.833897e-001	9.274124e+001	-5.866123e+001	-1.587842e+002	-2.000000e+002	0.000000e+000	-2.000000e+002	0.000000e+000
72898880.000	-4.847962e-001	9.033983e+001	-5.843215e+001	-1.606707e+002	-2.000000e+002	0.000000e+000	-2.000000e+002	0.000000e+000
73548870.000	-4.865110e-001	8.794582e+001	-5.813342e+001	-1.634121e+002	-2.000000e+002	0.000000e+000	-2.000000e+002	0.000000e+000
74198860.000	-4.865771e-001	8.554664e+001	-5.787404e+001	-1.647012e+002	-2.000000e+002	0.000000e+000	-2.000000e+002	0.000000e+000
74848850.000	-4.881326e-001	8.315647e+001	-5.774084e+001	-1.668872e+002	-2.000000e+002	0.000000e+000	-2.000000e+002	0.000000e+000
75498840.000	-4.890458e-001	8.076521e+001	-5.739323e+001	-1.687146e+002	-2.000000e+002	0.000000e+000	-2.000000e+002	0.000000e+000
76148830.000	-4.889392e-001	7.837495e+001	-5.716878e+001	-1.700651e+002	-2.000000e+002	0.000000e+000	-2.000000e+002	0.000000e+000
76798820.000	-4.890805e-001	7.598770e+001	-5.681222e+001	-1.725199e+002	-2.000000e+002	0.000000e+000	-2.000000e+002	0.000000e+000
77448810.000	-4.904753e-001	7.361461e+001	-5.641233e+001	-1.745045e+002	-2.000000e+002	0.000000e+000	-2.000000e+002	0.000000e+000
78098800.000	-4.905872e-001	7.123560e+001	-5.611803e+001	-1.772207e+002	-2.000000e+002	0.000000e+000	-2.000000e+002	0.000000e+000
78748790.000	-4.900501e-001	6.885980e+001	-5.561413e+001	1.795229e+002	-2.000000e+002	0.000000e+000	-2.000000e+002	0.000000e+000
79398780.000	-4.884961e-001	6.648041e+001	-5.548665e+001	1.757733e+002	-2.000000e+002	0.000000e+000	-2.000000e+002	0.000000e+000
80048770.000	-4.861410e-001	6.410284e+001	-5.524763e+001	1.721810e+002	-2.000000e+002	0.000000e+000	-2.000000e+002	0.000000e+000
80698760.000	-4.856602e-001	6.173116e+001	-5.512460e+001	1.689379e+002	-2.000000e+002	0.000000e+000	-2.000000e+002	0.000000e+000
81348750.000	-4.834477e-001	5.935668e+001	-5.503416e+001	1.660300e+002	-2.000000e+002	0.000000e+000	-2.000000e+002	0.000000e+000
81998740.000	-4.822478e-001	5.698398e+001	-5.494490e+001	1.627788e+002	-2.000000e+002	0.000000e+000	-2.000000e+002	0.000000e+000
82648730.000	-4.821040e-001	5.462867e+001	-5.482573e+001	1.603874e+002	-2.000000e+002	0.000000e+000	-2.000000e+002	0.000000e+000
83298720.000	-4.810907e-001	5.226031e+001	-5.483569e+001	1.578667e+002	-2.000000e+002	0.000000e+000	-2.000000e+002	0.000000e+000
83948710.000	-4.788340e-001	4.989204e+001	-5.484666e+001	1.550120e+002	-2.000000e+002	0.000000e+000	-2.000000e+002	0.000000e+000
84598700.000	-4.774402e-001	4.752309e+001	-5.481832e+001	1.529609e+002	-2.000000e+002	0.000000e+000	-2.000000e+002	0.000000e+000
85248690.000	-4.756638e-001	4.515796e+001	-5.466928e+001	1.505822e+002	-2.000000e+002	0.000000e+000	-2.000000e+002	0.000000e+000
85898680.000	-4.736596e-001	4.280034e+001	-5.465679e+001	1.487588e+002	-2.000000e+002	0.000000e+000	-2.000000e+002	0.000000e+000
86548670.000	-4.714408e-001	4.044020e+001	-5.463251e+001	1.466014e+002	-2.000000e+002	0.000000e+000	-2.000000e+002	0.000000e+000
87198660.000	-4.689115e-001	3.808583e+001	-5.456639e+001	1.443175e+002	-2.000000e+002	0.000000e+000	-2.000000e+002	0.000000e+000
87848650.000	-4.666777e-001	3.573307e+001	-5.455913e+001	1.430743e+002	-2.000000e+002	0.000000e+000	-2.000000e+002	0.000000e+000
88498640.000	-4.645217e-001	3.338074e+001	-5.454197e+001	1.412160e+002	-2.000000e+002	0.000000e+000	-2.000000e+002	0.000000e+000
89148630.000	-4.623055e-001	3.103589e+001	-5.456785e+001	1.394847e+002	-2.000000e+002	0.000000e+000	-2.000000e+002	0.000000e+000
89798620.000	-4.594671e-001	2.868166e+001	-5.453323e+001	1.381142e+002	-2.000000e+002	0.000000e+000	-2.000000e+002	0.000000e+000
90448610.000	-4.563835e-001	2.633316e+001	-5.439603e+001	1.368608e+002	-2.000000e+002	0.000000e+000	-2.000000e+002	0.000000e+000
91098600.000	-4.546529e-001	2.397855e+001	-5.430063e+001	1.361996e+002	-2.000000e+002	0.000000e+000	-2.000000e+002	0.000000e+000
91748590.000	-4.514966e-001	2.163085e+001	-5.416096e+001	1.339474e+002	-2.000000e+002	0.000000e+000	-2.000000e+002	0.000000e+000
92398580.000	-4.481448e-001	1.928332e+001	-5.396913e+001	1.332356e+002	-2.000000e+002	0.000000e+000	-2.000000e+002	0.000000e+000
93048570.000	-4.455249e-001	1.693526e+001	-5.389781e+001	1.307540e+002	-2.000000e+002	0.000000e+000	-2.000000e+002	0.000000e+000
93698560.000	-4.434160e-001	1.458447e+001	-5.383453e+001	1.303543e+002	-2.000000e+002	0.000000e+000	-2.000000e+002	0.000000e+000
94348550.000	-4.398694e-001	1.223898e+001	-5.367826e+001	1.293053e+002	-2.000000e+002	0.000000e+000	-2.000000e+002	0.000000e+000
94998540.000	-4.385038e-001	9.894499e+000	-5.371618e+001	1.275580e+002	-2.000000e+002	0.000000e+000	-2.000000e+002	0.000000e+000
95648530.000	-4.355559e-001	7.551527e+000	-5.350532e+001	1.267840e+002	-2.000000e+002	0.000000e+000	-2.000000e+002	0.000000e+000
96298520.000	-4.326780e-001	5.212642e+000	-5.341916e+001	1.257867e+002	-2.000000e+002	0.000000e+000	-2.000000e+002	0.000000e+000
96948510.000	-4.300179e-001	2.872744e+000	-5.325916e+001	1.262366e+002	-2.000000e+002	0.000000e+000	-2.000000e+002	0.000000e+000
97598500.000	-4.290769e-001	5.339236e-001	-5.295141e+001	1.264457e+002	-2.000000e+002	0.000000e+000	-2.000000e+002	0.000000e+000
98248490.000	-4.268615e-001	-1.799556e+000	-5.239482e+001	1.261727e+002	-2.000000e+002	0.000000e+000	-2.000000e+002	0.000000e+000
