!Keysight Technologies,E5063A,MY54503115,A.05.08
!Date: Sun Feb 04 18:33:23 2024
!Data & Calibration Information:
!Freq	S11:NONE(--)	S21:NONE(--)	S12:NONE(--)	S22:NONE(--)
# Hz S dB R 50
100000.000	4.584652e-002	-7.926204e-001	-8.063751e+001	-1.291594e+001	-2.000000e+002	0.000000e+000	-2.000000e+002	0.000000e+000
749990.000	9.106642e-003	-3.046845e+000	-8.255004e+001	-1.303787e+002	-2.000000e+002	0.000000e+000	-2.000000e+002	0.000000e+000
1399980.000	1.081459e-002	-5.362679e+000	-8.473963e+001	1.641781e+002	-2.000000e+002	0.000000e+000	-2.000000e+002	0.000000e+000
2049970.000	9.775133e-003	-7.687931e+000	-7.754229e+001	1.465268e+002	-2.000000e+002	0.000000e+000	-2.000000e+002	0.000000e+000
2699960.000	1.178044e-002	-1.000817e+001	-7.724229e+001	1.058704e+002	-2.000000e+002	0.000000e+000	-2.000000e+002	0.000000e+000
3349950.000	1.477126e-002	-1.234217e+001	-7.509049e+001	7.561097e+001	-2.000000e+002	0.000000e+000	-2.000000e+002	0.000000e+000
3999940.000	1.555077e-002	-1.468293e+001	-7.452443e+001	8.333207e+001	-2.000000e+002	0.000000e+000	-2.000000e+002	0.000000e+000
4649930.000	1.711001e-002	-1.701700e+001	-7.363944e+001	7.870047e+001	-2.000000e+002	0.000000e+000	-2.000000e+002	0.000000e+000
5299920.000	1.472566e-002	-1.936016e+001	-7.353796e+001	8.054938e+001	-2.000000e+002	0.000000e+000	-2.000000e+002	0.000000e+000
5949910.000	1.523246e-002	-2.169633e+001	-7.183159e+001	7.156120e+001	-2.000000e+002	0.000000e+000	-2.000000e+002	0.000000e+000
6599900.000	1.423915e-002	-2.403411e+001	-7.008423e+001	7.162898e+001	-2.000000e+002	0.000000e+000	-2.000000e+002	0.000000e+000
7249890.000	1.497081e-002	-2.637698e+001	-6.896990e+001	6.064369e+001	-2.000000e+002	0.000000e+000	-2.000000e+002	0.000000e+000
7899880.000	1.513122e-002	-2.871977e+001	-6.896698e+001	6.579093e+001	-2.000000e+002	0.000000e+000	-2.000000e+002	0.000000e+000
8549870.000	1.903819e-002	-3.106619e+001	-6.847500e+001	6.079638e+001	-2.000000e+002	0.000000e+000	-2.000000e+002	0.000000e+000
9199860.000	1.772500e-002	-3.340810e+001	-6.765086e+001	5.925194e+001	-2.000000e+002	0.000000e+000	-2.000000e+002	0.000000e+000
9849850.000	1.684247e-002	-3.575125e+001	-6.663069e+001	5.704804e+001	-2.000000e+002	0.000000e+000	-2.000000e+002	0.000000e+000
10499840.000	1.410018e-002	-3.809809e+001	-6.621634e+001	5.448036e+001	-2.000000e+002	0.000000e+000	-2.000000e+002	0.000000e+000
11149830.000	1.155363e-002	-4.043972e+001	-6.541044e+001	5.405860e+001	-2.000000e+002	0.000000e+000	-2.000000e+002	0.000000e+000
11799820.000	9.868060e-003	-4.278648e+001	-6.500805e+001	4.946261e+001	-2.000000e+002	0.000000e+000	-2.000000e+002	0.000000e+000
12449810.000	1.027272e-002	-4.514064e+001	-6.481424e+001	4.437445e+001	-2.000000e+002	0.000000e+000	-2.000000e+002	0.000000e+000
13099800.000	1.101860e-002	-4.748278e+001	-6.425648e+001	4.486209e+001	-2.000000e+002	0.000000e+000	-2.000000e+002	0.000000e+000
13749790.000	8.484230e-003	-4.982920e+001	-6.397755e+001	4.207907e+001	-2.000000e+002	0.000000e+000	-2.000000e+002	0.000000e+000
14399780.000	5.609398e-003	-5.219410e+001	-6.349890e+001	3.949661e+001	-2.000000e+002	0.000000e+000	-2.000000e+002	0.000000e+000
15049770.000	5.854678e-003	-5.454293e+001	-6.316633e+001	3.777919e+001	-2.000000e+002	0.000000e+000	-2.000000e+002	0.000000e+000
15699760.000	4.654033e-003	-5.689018e+001	-6.263906e+001	3.704325e+001	-2.000000e+002	0.000000e+000	-2.000000e+002	0.000000e+000
16349750.000	3.499920e-003	-5.924569e+001	-6.242154e+001	3.576585e+001	-2.000000e+002	0.000000e+000	-2.000000e+002	0.000000e+000
16999740.000	7.998667e-004	-6.161465e+001	-6.185500e+001	3.453728e+001	-2.000000e+002	0.000000e+000	-2.000000e+002	0.000000e+000
17649730.000	5.265016e-003	-6.398951e+001	-6.144056e+001	3.355097e+001	-2.000000e+002	0.000000e+000	-2.000000e+002	0.000000e+000
18299720.000	6.648304e-003	-6.636494e+001	-6.052768e+001	3.003699e+001	-2.000000e+002	0.000000e+000	-2.000000e+002	0.000000e+000
18949710.000	3.935853e-003	-6.874178e+001	-6.004073e+001	2.555578e+001	-2.000000e+002	0.000000e+000	-2.000000e+002	0.000000e+000
19599700.000	-4.105204e-003	-7.111592e+001	-5.983036e+001	2.341472e+001	-2.000000e+002	0.000000e+000	-2.000000e+002	0.000000e+000
20249690.000	-1.083542e-002	-7.349406e+001	-5.964483e+001	1.912922e+001	-2.000000e+002	0.000000e+000	-2.000000e+002	0.000000e+000
20899680.000	-1.514071e-002	-7.590099e+001	-5.944619e+001	1.642046e+001	-2.000000e+002	0.000000e+000	-2.000000e+002	0.000000e+000
21549670.000	-1.906479e-002	-7.829356e+001	-5.918707e+001	1.480359e+001	-2.000000e+002	0.000000e+000	-2.000000e+002	0.000000e+000
22199660.000	-2.390152e-002	-8.067074e+001	-5.900688e+001	1.246710e+001	-2.000000e+002	0.000000e+000	-2.000000e+002	0.000000e+000
22849650.000	-2.835136e-002	-8.303170e+001	-5.883527e+001	1.016858e+001	-2.000000e+002	0.000000e+000	-2.000000e+002	0.000000e+000
23499640.000	-3.482814e-002	-8.542105e+001	-5.844084e+001	8.932587e+000	-2.000000e+002	0.000000e+000	-2.000000e+002	0.000000e+000
24149630.000	-4.172268e-002	-8.781983e+001	-5.800614e+001	8.394446e+000	-2.000000e+002	0.000000e+000	-2.000000e+002	0.000000e+000
24799620.000	-4.728051e-002	-9.020738e+001	-5.747562e+001	7.063810e+000	-2.000000e+002	0.000000e+000	-2.000000e+002	0.000000e+000
25449610.000	-5.179043e-002	-9.259281e+001	-5.697066e+001	3.682822e+000	-2.000000e+002	0.000000e+000	-2.000000e+002	0.000000e+000
26099600.000	-5.811122e-002	-9.498469e+001	-5.654961e+001	1.447289e+000	-2.000000e+002	0.000000e+000	-2.000000e+002	0.000000e+000
26749590.000	-6.466203e-002	-9.738389e+001	-5.623892e+001	-5.246846e-001	-2.000000e+002	0.000000e+000	-2.000000e+002	0.000000e+000
27399580.000	-7.176032e-002	-9.978833e+001	-5.590601e+001	-3.917975e+000	-2.000000e+002	0.000000e+000	-2.000000e+002	0.000000e+000
28049570.000	-7.747728e-002	-1.021888e+002	-5.556569e+001	-6.506894e+000	-2.000000e+002	0.000000e+000	-2.000000e+002	0.000000e+000
28699560.000	-8.411122e-002	-1.045879e+002	-5.520320e+001	-9.190576e+000	-2.000000e+002	0.000000e+000	-2.000000e+002	0.000000e+000
29349550.000	-9.062848e-002	-1.069955e+002	-5.494355e+001	-1.197417e+001	-2.000000e+002	0.000000e+000	-2.000000e+002	0.000000e+000
29999540.000	-9.818175e-002	-1.094076e+002	-5.462854e+001	-1.473893e+001	-2.000000e+002	0.000000e+000	-2.000000e+002	0.000000e+000
30649530.000	-1.052200e-001	-1.118255e+002	-5.447547e+001	-1.681925e+001	-2.000000e+002	0.000000e+000	-2.000000e+002	0.000000e+000
31299520.000	-1.120418e-001	-1.142461e+002	-5.431757e+001	-1.905014e+001	-2.000000e+002	0.000000e+000	-2.000000e+002	0.000000e+000
31949510.000	-1.194056e-001	-1.166730e+002	-5.410045e+001	-2.050965e+001	-2.000000e+002	0.000000e+000	-2.000000e+002	0.000000e+000
32599500.000	-1.282704e-001	-1.191018e+002	-5.403376e+001	-2.188360e+001	-2.000000e+002	0.000000e+000	-2.000000e+002	0.000000e+000
33249490.000	-1.370372e-001	-1.215334e+002	-5.403490e+001	-2.105571e+001	-2.000000e+002	0.000000e+000	-2.000000e+002	0.000000e+000
33899480.000	-1.474320e-001	-1.239691e+002	-5.373549e+001	-1.623696e+001	-2.000000e+002	0.000000e+000	-2.000000e+002	0.000000e+000
34549470.000	-1.594931e-001	-1.263947e+002	-5.232330e+001	-1.122468e+001	-2.000000e+002	0.000000e+000	-2.000000e+002	0.000000e+000
35199460.000	-1.716835e-001	-1.287982e+002	-5.015508e+001	-1.115087e+001	-2.000000e+002	0.000000e+000	-2.000000e+002	0.000000e+000
35849450.000	-1.776189e-001	-1.312003e+002	-4.855430e+001	-2.166418e+001	-2.000000e+002	0.000000e+000	-2.000000e+002	0.000000e+000
36499440.000	-1.827641e-001	-1.336295e+002	-4.784632e+001	-3.030643e+001	-2.000000e+002	0.000000e+000	-2.000000e+002	0.000000e+000
37149430.000	-1.889516e-001	-1.360737e+002	-4.744747e+001	-3.671706e+001	-2.000000e+002	0.000000e+000	-2.000000e+002	0.000000e+000
37799420.000	-1.959287e-001	-1.385279e+002	-4.699713e+001	-4.289219e+001	-2.000000e+002	0.000000e+000	-2.000000e+002	0.000000e+000
38449410.000	-2.029766e-001	-1.409848e+002	-4.657007e+001	-4.726954e+001	-2.000000e+002	0.000000e+000	-2.000000e+002	0.000000e+000
39099400.000	-2.112560e-001	-1.434489e+002	-4.610813e+001	-5.155373e+001	-2.000000e+002	0.000000e+000	-2.000000e+002	0.000000e+000
39749390.000	-2.196319e-001	-1.459212e+002	-4.553116e+001	-5.524441e+001	-2.000000e+002	0.000000e+000	-2.000000e+002	0.000000e+000
40399380.000	-2.286104e-001	-1.483978e+002	-4.490157e+001	-5.837731e+001	-2.000000e+002	0.000000e+000	-2.000000e+002	0.000000e+000
41049370.000	-2.374250e-001	-1.508865e+002	-4.405804e+001	-6.173889e+001	-2.000000e+002	0.000000e+000	-2.000000e+002	0.000000e+000
41699360.000	-2.480224e-001	-1.533871e+002	-4.308467e+001	-6.494749e+001	-2.000000e+002	0.000000e+000	-2.000000e+002	0.000000e+000
42349350.000	-2.596656e-001	-1.559074e+002	-4.188968e+001	-6.862187e+001	-2.000000e+002	0.000000e+000	-2.000000e+002	0.000000e+000
42999340.000	-2.727325e-001	-1.584525e+002	-4.040771e+001	-7.277691e+001	-2.000000e+002	0.000000e+000	-2.000000e+002	0.000000e+000
43649330.000	-2.904443e-001	-1.610472e+002	-3.852479e+001	-7.775182e+001	-2.000000e+002	0.000000e+000	-2.000000e+002	0.000000e+000
44299320.000	-3.182473e-001	-1.637306e+002	-3.605737e+001	-8.514542e+001	-2.000000e+002	0.000000e+000	-2.000000e+002	0.000000e+000
44949310.000	-3.795328e-001	-1.665864e+002	-3.266685e+001	-9.746321e+001	-2.000000e+002	0.000000e+000	-2.000000e+002	0.000000e+000
45599300.000	-5.932353e-001	-1.694667e+002	-2.800591e+001	-1.249748e+002	-2.000000e+002	0.000000e+000	-2.000000e+002	0.000000e+000
46249290.000	-7.917209e-001	-1.690259e+002	-2.638604e+001	1.710946e+002	-2.000000e+002	0.000000e+000	-2.000000e+002	0.000000e+000
46899280.000	-4.730494e-001	-1.709140e+002	-3.153129e+001	1.291391e+002	-2.000000e+002	0.000000e+000	-2.000000e+002	0.000000e+000
47549270.000	-3.829849e-001	-1.738189e+002	-3.594560e+001	1.123936e+002	-2.000000e+002	0.000000e+000	-2.000000e+002	0.000000e+000
48199260.000	-3.590880e-001	-1.765543e+002	-3.923266e+001	1.030138e+002	-2.000000e+002	0.000000e+000	-2.000000e+002	0.000000e+000
48849250.000	-3.524815e-001	-1.791762e+002	-4.187247e+001	9.631860e+001	-2.000000e+002	0.000000e+000	-2.000000e+002	0.000000e+000
49499240.000	-3.521949e-001	1.782601e+002	-4.411430e+001	9.052574e+001	-2.000000e+002	0.000000e+000	-2.000000e+002	0.000000e+000
50149230.000	-3.548171e-001	1.757316e+002	-4.614089e+001	8.575762e+001	-2.000000e+002	0.000000e+000	-2.000000e+002	0.000000e+000
50799220.000	-3.586489e-001	1.732279e+002	-4.795018e+001	8.127945e+001	-2.000000e+002	0.000000e+000	-2.000000e+002	0.000000e+000
51449210.000	-3.629286e-001	1.707292e+002	-4.961657e+001	7.729417e+001	-2.000000e+002	0.000000e+000	-2.000000e+002	0.000000e+000
52099200.000	-3.675861e-001	1.682464e+002	-5.120911e+001	7.308810e+001	-2.000000e+002	0.000000e+000	-2.000000e+002	0.000000e+000
52749190.000	-3.724079e-001	1.657689e+002	-5.280677e+001	6.863375e+001	-2.000000e+002	0.000000e+000	-2.000000e+002	0.000000e+000
53399180.000	-3.775871e-001	1.632972e+002	-5.435707e+001	6.326319e+001	-2.000000e+002	0.000000e+000	-2.000000e+002	0.000000e+000
54049170.000	-3.823397e-001	1.608257e+002	-5.566832e+001	6.114461e+001	-2.000000e+002	0.000000e+000	-2.000000e+002	0.000000e+000
54699160.000	-3.876479e-001	1.583583e+002	-5.712321e+001	5.787444e+001	-2.000000e+002	0.000000e+000	-2.000000e+002	0.000000e+000
55349150.000	-3.932233e-001	1.558938e+002	-5.839034e+001	5.289076e+001	-2.000000e+002	0.000000e+000	-2.000000e+002	0.000000e+000
55999140.000	-3.990157e-001	1.534354e+002	-5.954410e+001	5.016592e+001	-2.000000e+002	0.000000e+000	-2.000000e+002	0.000000e+000
56649130.000	-4.041792e-001	1.509800e+002	-6.132301e+001	4.144266e+001	-2.000000e+002	0.000000e+000	-2.000000e+002	0.000000e+000
57299120.000	-4.097624e-001	1.485266e+002	-6.208770e+001	3.604935e+001	-2.000000e+002	0.000000e+000	-2.000000e+002	0.000000e+000
57949110.000	-4.146209e-001	1.460769e+002	-6.278908e+001	3.061489e+001	-2.000000e+002	0.000000e+000	-2.000000e+002	0.000000e+000
58599100.000	-4.190037e-001	1.436232e+002	-6.367890e+001	2.056570e+001	-2.000000e+002	0.000000e+000	-2.000000e+002	0.000000e+000
59249090.000	-4.246762e-001	1.411808e+002	-6.368506e+001	1.077483e+001	-2.000000e+002	0.000000e+000	-2.000000e+002	0.000000e+000
59899080.000	-4.296103e-001	1.387325e+002	-6.315227e+001	-2.317581e+000	-2.000000e+002	0.000000e+000	-2.000000e+002	0.000000e+000
60549070.000	-4.354150e-001	1.362981e+002	-6.209342e+001	-1.749864e+001	-2.000000e+002	0.000000e+000	-2.000000e+002	0.000000e+000
61199060.000	-4.405013e-001	1.338650e+002	-6.100352e+001	-3.539017e+001	-2.000000e+002	0.000000e+000	-2.000000e+002	0.000000e+000
61849050.000	-4.448656e-001	1.314343e+002	-6.019782e+001	-5.523501e+001	-2.000000e+002	0.000000e+000	-2.000000e+002	0.000000e+000
62499040.000	-4.489283e-001	1.290129e+002	-5.885391e+001	-7.337778e+001	-2.000000e+002	0.000000e+000	-2.000000e+002	0.000000e+000
63149030.000	-4.520746e-001	1.265880e+002	-5.870067e+001	-9.072756e+001	-2.000000e+002	0.000000e+000	-2.000000e+002	0.000000e+000
63799020.000	-4.547421e-001	1.241574e+002	-5.893280e+001	-1.054734e+002	-2.000000e+002	0.000000e+000	-2.000000e+002	0.000000e+000
64449010.000	-4.579286e-001	1.217369e+002	-5.876499e+001	-1.136384e+002	-2.000000e+002	0.000000e+000	-2.000000e+002	0.000000e+000
65099000.000	-4.600125e-001	1.193099e+002	-5.901455e+001	-1.208201e+002	-2.000000e+002	0.000000e+000	-2.000000e+002	0.000000e+000
65748990.000	-4.622292e-001	1.168825e+002	-5.882120e+001	-1.270699e+002	-2.000000e+002	0.000000e+000	-2.000000e+002	0.000000e+000
66398980.000	-4.654102e-001	1.144616e+002	-5.863101e+001	-1.323504e+002	-2.000000e+002	0.000000e+000	-2.000000e+002	0.000000e+000
67048970.000	-4.673861e-001	1.120405e+002	-5.846074e+001	-1.362089e+002	-2.000000e+002	0.000000e+000	-2.000000e+002	0.000000e+000
67698960.000	-4.703888e-001	1.096250e+002	-5.825594e+001	-1.397493e+002	-2.000000e+002	0.000000e+000	-2.000000e+002	0.000000e+000
68348950.000	-4.712977e-001	1.072118e+002	-5.816344e+001	-1.438733e+002	-2.000000e+002	0.000000e+000	-2.000000e+002	0.000000e+000
68998940.000	-4.739463e-001	1.047991e+002	-5.795037e+001	-1.495228e+002	-2.000000e+002	0.000000e+000	-2.000000e+002	0.000000e+000
69648930.000	-4.753764e-001	1.023850e+002	-5.786042e+001	-1.512099e+002	-2.000000e+002	0.000000e+000	-2.000000e+002	0.000000e+000
70298920.000	-4.762927e-001	9.996851e+001	-5.774322e+001	-1.549934e+002	-2.000000e+002	0.000000e+000	-2.000000e+002	0.000000e+000
70948910.000	-4.784787e-001	9.756560e+001	-5.753154e+001	-1.580553e+002	-2.000000e+002	0.000000e+000	-2.000000e+002	0.000000e+000
71598900.000	-4.791651e-001	9.515218e+001	-5.739797e+001	-1.602499e+002	-2.000000e+002	0.000000e+000	-2.000000e+002	0.000000e+000
72248890.000	-4.809201e-001	9.275211e+001	-5.726973e+001	-1.620912e+002	-2.000000e+002	0.000000e+000	-2.000000e+002	0.000000e+000
72898880.000	-4.819839e-001	9.035023e+001	-5.707342e+001	-1.634273e+002	-2.000000e+002	0.000000e+000	-2.000000e+002	0.000000e+000
73548870.000	-4.837101e-001	8.795478e+001	-5.683901e+001	-1.662133e+002	-2.000000e+002	0.000000e+000	-2.000000e+002	0.000000e+000
74198860.000	-4.841163e-001	8.555636e+001	-5.667942e+001	-1.689291e+002	-2.000000e+002	0.000000e+000	-2.000000e+002	0.000000e+000
74848850.000	-4.851293e-001	8.316589e+001	-5.645159e+001	-1.709738e+002	-2.000000e+002	0.000000e+000	-2.000000e+002	0.000000e+000
75498840.000	-4.855516e-001	8.077429e+001	-5.618875e+001	-1.726145e+002	-2.000000e+002	0.000000e+000	-2.000000e+002	0.000000e+000
76148830.000	-4.862588e-001	7.838632e+001	-5.604564e+001	-1.755238e+002	-2.000000e+002	0.000000e+000	-2.000000e+002	0.000000e+000
76798820.000	-4.855536e-001	7.599745e+001	-5.576641e+001	-1.770028e+002	-2.000000e+002	0.000000e+000	-2.000000e+002	0.000000e+000
77448810.000	-4.871583e-001	7.362667e+001	-5.556645e+001	-1.789555e+002	-2.000000e+002	0.000000e+000	-2.000000e+002	0.000000e+000
78098800.000	-4.872514e-001	7.125160e+001	-5.521687e+001	1.789441e+002	-2.000000e+002	0.000000e+000	-2.000000e+002	0.000000e+000
78748790.000	-4.868612e-001	6.887008e+001	-5.494072e+001	1.753953e+002	-2.000000e+002	0.000000e+000	-2.000000e+002	0.000000e+000
79398780.000	-4.852853e-001	6.649615e+001	-5.464494e+001	1.720643e+002	-2.000000e+002	0.000000e+000	-2.000000e+002	0.000000e+000
80048770.000	-4.830109e-001	6.411475e+001	-5.447025e+001	1.685835e+002	-2.000000e+002	0.000000e+000	-2.000000e+002	0.000000e+000
80698760.000	-4.825315e-001	6.174420e+001	-5.429355e+001	1.653050e+002	-2.000000e+002	0.000000e+000	-2.000000e+002	0.000000e+000
81348750.000	-4.801322e-001	5.936969e+001	-5.425533e+001	1.621759e+002	-2.000000e+002	0.000000e+000	-2.000000e+002	0.000000e+000
81998740.000	-4.788190e-001	5.699784e+001	-5.418995e+001	1.594285e+002	-2.000000e+002	0.000000e+000	-2.000000e+002	0.000000e+000
82648730.000	-4.791898e-001	5.463764e+001	-5.417943e+001	1.570141e+002	-2.000000e+002	0.000000e+000	-2.000000e+002	0.000000e+000
83298720.000	-4.772801e-001	5.227130e+001	-5.409491e+001	1.548494e+002	-2.000000e+002	0.000000e+000	-2.000000e+002	0.000000e+000
83948710.000	-4.756163e-001	4.990189e+001	-5.403170e+001	1.518294e+002	-2.000000e+002	0.000000e+000	-2.000000e+002	0.000000e+000
84598700.000	-4.735755e-001	4.753844e+001	-5.398359e+001	1.497910e+002	-2.000000e+002	0.000000e+000	-2.000000e+002	0.000000e+000
85248690.000	-4.719070e-001	4.517364e+001	-5.395425e+001	1.479156e+002	-2.000000e+002	0.000000e+000	-2.000000e+002	0.000000e+000
85898680.000	-4.699534e-001	4.281326e+001	-5.382418e+001	1.452375e+002	-2.000000e+002	0.000000e+000	-2.000000e+002	0.000000e+000
86548670.000	-4.679764e-001	4.045898e+001	-5.369950e+001	1.433441e+002	-2.000000e+002	0.000000e+000	-2.000000e+002	0.000000e+000
87198660.000	-4.651662e-001	3.810076e+001	-5.372952e+001	1.409767e+002	-2.000000e+002	0.000000e+000	-2.000000e+002	0.000000e+000
87848650.000	-4.621558e-001	3.575088e+001	-5.367158e+001	1.394373e+002	-2.000000e+002	0.000000e+000	-2.000000e+002	0.000000e+000
88498640.000	-4.600472e-001	3.339574e+001	-5.363932e+001	1.369930e+002	-2.000000e+002	0.000000e+000	-2.000000e+002	0.000000e+000
89148630.000	-4.583966e-001	3.104615e+001	-5.360867e+001	1.354914e+002	-2.000000e+002	0.000000e+000	-2.000000e+002	0.000000e+000
89798620.000	-4.550474e-001	2.869739e+001	-5.358214e+001	1.341593e+002	-2.000000e+002	0.000000e+000	-2.000000e+002	0.000000e+000
90448610.000	-4.528972e-001	2.634623e+001	-5.348914e+001	1.328330e+002	-2.000000e+002	0.000000e+000	-2.000000e+002	0.000000e+000
91098600.000	-4.505870e-001	2.399671e+001	-5.327838e+001	1.313226e+002	-2.000000e+002	0.000000e+000	-2.000000e+002	0.000000e+000
91748590.000	-4.480173e-001	2.164240e+001	-5.312103e+001	1.289400e+002	-2.000000e+002	0.000000e+000	-2.000000e+002	0.000000e+000
92398580.000	-4.451297e-001	1.929746e+001	-5.295107e+001	1.274090e+002	-2.000000e+002	0.000000e+000	-2.000000e+002	0.000000e+000
93048570.000	-4.416591e-001	1.695147e+001	-5.287252e+001	1.250847e+002	-2.000000e+002	0.000000e+000	-2.000000e+002	0.000000e+000
93698560.000	-4.394274e-001	1.460617e+001	-5.271893e+001	1.236975e+002	-2.000000e+002	0.000000e+000	-2.000000e+002	0.000000e+000
94348550.000	-4.361186e-001	1.225835e+001	-5.255065e+001	1.222396e+002	-2.000000e+002	0.000000e+000	-2.000000e+002	0.000000e+000
94998540.000	-4.336936e-001	9.916603e+000	-5.239212e+001	1.198695e+002	-2.000000e+002	0.000000e+000	-2.000000e+002	0.000000e+000
95648530.000	-4.302909e-001	7.572704e+000	-5.230450e+001	1.184685e+002	-2.000000e+002	0.000000e+000	-2.000000e+002	0.000000e+000
96298520.000	-4.276064e-001	5.235349e+000	-5.224194e+001	1.167607e+002	-2.000000e+002	0.000000e+000	-2.000000e+002	0.000000e+000
96948510.000	-4.251736e-001	2.893113e+000	-5.221696e+001	1.154667e+002	-2.000000e+002	0.000000e+000	-2.000000e+002	0.000000e+000
97598500.000	-4.225893e-001	5.591174e-001	-5.199040e+001	1.144534e+002	-2.000000e+002	0.000000e+000	-2.000000e+002	0.000000e+000
98248490.000	-4.200333e-001	-1.776145e+000	-5.174967e+001	1.128065e+002	-2.000000e+002	0.000000e+000	-2.000000e+002	0.000000e+000
