!Keysight Technologies,E5063A,MY54503115,A.05.08
!Date: Sun Feb 04 18:47:08 2024
!Data & Calibration Information:
!Freq	S11:NONE(--)	S21:NONE(--)	S12:NONE(--)	S22:NONE(--)
# Hz S dB R 50
100000.000	4.688533e-002	-8.112945e-001	-9.017278e+001	7.787123e+001	-2.000000e+002	0.000000e+000	-2.000000e+002	0.000000e+000
749990.000	9.524327e-003	-3.056643e+000	-8.510174e+001	-9.285319e+001	-2.000000e+002	0.000000e+000	-2.000000e+002	0.000000e+000
1399980.000	1.124969e-002	-5.362391e+000	-8.606281e+001	-5.684260e+001	-2.000000e+002	0.000000e+000	-2.000000e+002	0.000000e+000
2049970.000	1.025182e-002	-7.693862e+000	-7.663921e+001	1.398891e+002	-2.000000e+002	0.000000e+000	-2.000000e+002	0.000000e+000
2699960.000	1.114466e-002	-1.001825e+001	-8.110522e+001	9.278067e+001	-2.000000e+002	0.000000e+000	-2.000000e+002	0.000000e+000
3349950.000	1.568685e-002	-1.235409e+001	-7.430518e+001	8.526527e+001	-2.000000e+002	0.000000e+000	-2.000000e+002	0.000000e+000
3999940.000	1.308797e-002	-1.468305e+001	-7.507184e+001	9.564526e+001	-2.000000e+002	0.000000e+000	-2.000000e+002	0.000000e+000
4649930.000	1.594812e-002	-1.702714e+001	-7.233363e+001	7.909236e+001	-2.000000e+002	0.000000e+000	-2.000000e+002	0.000000e+000
5299920.000	1.451772e-002	-1.935570e+001	-7.334841e+001	8.541854e+001	-2.000000e+002	0.000000e+000	-2.000000e+002	0.000000e+000
5949910.000	1.367344e-002	-2.170005e+001	-7.044925e+001	6.823692e+001	-2.000000e+002	0.000000e+000	-2.000000e+002	0.000000e+000
6599900.000	1.390235e-002	-2.403248e+001	-7.027039e+001	7.342577e+001	-2.000000e+002	0.000000e+000	-2.000000e+002	0.000000e+000
7249890.000	1.452457e-002	-2.638206e+001	-6.969754e+001	6.725810e+001	-2.000000e+002	0.000000e+000	-2.000000e+002	0.000000e+000
7899880.000	1.342085e-002	-2.871882e+001	-7.011678e+001	6.743270e+001	-2.000000e+002	0.000000e+000	-2.000000e+002	0.000000e+000
8549870.000	1.810190e-002	-3.107293e+001	-6.835297e+001	6.173451e+001	-2.000000e+002	0.000000e+000	-2.000000e+002	0.000000e+000
9199860.000	1.711480e-002	-3.341598e+001	-6.841632e+001	5.725628e+001	-2.000000e+002	0.000000e+000	-2.000000e+002	0.000000e+000
9849850.000	1.640337e-002	-3.576008e+001	-6.737958e+001	5.629554e+001	-2.000000e+002	0.000000e+000	-2.000000e+002	0.000000e+000
10499840.000	1.358332e-002	-3.810818e+001	-6.718282e+001	5.645488e+001	-2.000000e+002	0.000000e+000	-2.000000e+002	0.000000e+000
11149830.000	1.132695e-002	-4.044480e+001	-6.600955e+001	5.123373e+001	-2.000000e+002	0.000000e+000	-2.000000e+002	0.000000e+000
11799820.000	9.258335e-003	-4.279338e+001	-6.560931e+001	5.009576e+001	-2.000000e+002	0.000000e+000	-2.000000e+002	0.000000e+000
12449810.000	1.007302e-002	-4.514216e+001	-6.532993e+001	4.908144e+001	-2.000000e+002	0.000000e+000	-2.000000e+002	0.000000e+000
13099800.000	1.084867e-002	-4.749082e+001	-6.498904e+001	4.646152e+001	-2.000000e+002	0.000000e+000	-2.000000e+002	0.000000e+000
13749790.000	8.138829e-003	-4.983519e+001	-6.449325e+001	4.236362e+001	-2.000000e+002	0.000000e+000	-2.000000e+002	0.000000e+000
14399780.000	5.077134e-003	-5.220035e+001	-6.382311e+001	4.049545e+001	-2.000000e+002	0.000000e+000	-2.000000e+002	0.000000e+000
15049770.000	5.331419e-003	-5.455537e+001	-6.342044e+001	4.026061e+001	-2.000000e+002	0.000000e+000	-2.000000e+002	0.000000e+000
15699760.000	3.905169e-003	-5.689928e+001	-6.326393e+001	3.853514e+001	-2.000000e+002	0.000000e+000	-2.000000e+002	0.000000e+000
16349750.000	2.406509e-003	-5.925528e+001	-6.286986e+001	3.765961e+001	-2.000000e+002	0.000000e+000	-2.000000e+002	0.000000e+000
16999740.000	1.171090e-003	-6.162708e+001	-6.228632e+001	3.739885e+001	-2.000000e+002	0.000000e+000	-2.000000e+002	0.000000e+000
17649730.000	4.631407e-003	-6.399433e+001	-6.156884e+001	3.629861e+001	-2.000000e+002	0.000000e+000	-2.000000e+002	0.000000e+000
18299720.000	5.862206e-003	-6.637484e+001	-6.121265e+001	2.907648e+001	-2.000000e+002	0.000000e+000	-2.000000e+002	0.000000e+000
18949710.000	2.673061e-003	-6.875029e+001	-6.042854e+001	2.630253e+001	-2.000000e+002	0.000000e+000	-2.000000e+002	0.000000e+000
19599700.000	-5.146466e-003	-7.112281e+001	-5.994994e+001	2.255366e+001	-2.000000e+002	0.000000e+000	-2.000000e+002	0.000000e+000
20249690.000	-1.177070e-002	-7.349985e+001	-5.997216e+001	2.123364e+001	-2.000000e+002	0.000000e+000	-2.000000e+002	0.000000e+000
20899680.000	-1.575637e-002	-7.590979e+001	-5.977148e+001	1.773796e+001	-2.000000e+002	0.000000e+000	-2.000000e+002	0.000000e+000
21549670.000	-2.007995e-002	-7.830124e+001	-5.972894e+001	1.511746e+001	-2.000000e+002	0.000000e+000	-2.000000e+002	0.000000e+000
22199660.000	-2.490572e-002	-8.067757e+001	-5.936468e+001	1.332350e+001	-2.000000e+002	0.000000e+000	-2.000000e+002	0.000000e+000
22849650.000	-2.945474e-002	-8.304093e+001	-5.941212e+001	1.198991e+001	-2.000000e+002	0.000000e+000	-2.000000e+002	0.000000e+000
23499640.000	-3.536148e-002	-8.542952e+001	-5.890344e+001	1.126846e+001	-2.000000e+002	0.000000e+000	-2.000000e+002	0.000000e+000
24149630.000	-4.285634e-002	-8.782892e+001	-5.844442e+001	1.103514e+001	-2.000000e+002	0.000000e+000	-2.000000e+002	0.000000e+000
24799620.000	-4.834300e-002	-9.021599e+001	-5.787773e+001	9.112538e+000	-2.000000e+002	0.000000e+000	-2.000000e+002	0.000000e+000
25449610.000	-5.269041e-002	-9.260164e+001	-5.732842e+001	6.286723e+000	-2.000000e+002	0.000000e+000	-2.000000e+002	0.000000e+000
26099600.000	-5.877663e-002	-9.499275e+001	-5.688259e+001	2.383704e+000	-2.000000e+002	0.000000e+000	-2.000000e+002	0.000000e+000
26749590.000	-6.578025e-002	-9.739403e+001	-5.667257e+001	-4.538636e-002	-2.000000e+002	0.000000e+000	-2.000000e+002	0.000000e+000
27399580.000	-7.215838e-002	-9.979379e+001	-5.615275e+001	-1.482945e+000	-2.000000e+002	0.000000e+000	-2.000000e+002	0.000000e+000
28049570.000	-7.850093e-002	-1.021957e+002	-5.571647e+001	-4.084886e+000	-2.000000e+002	0.000000e+000	-2.000000e+002	0.000000e+000
28699560.000	-8.515684e-002	-1.045978e+002	-5.547476e+001	-7.141553e+000	-2.000000e+002	0.000000e+000	-2.000000e+002	0.000000e+000
29349550.000	-9.164495e-002	-1.070077e+002	-5.504833e+001	-8.710449e+000	-2.000000e+002	0.000000e+000	-2.000000e+002	0.000000e+000
29999540.000	-9.876438e-002	-1.094172e+002	-5.480981e+001	-1.328179e+001	-2.000000e+002	0.000000e+000	-2.000000e+002	0.000000e+000
30649530.000	-1.063709e-001	-1.118384e+002	-5.458985e+001	-1.561957e+001	-2.000000e+002	0.000000e+000	-2.000000e+002	0.000000e+000
31299520.000	-1.126454e-001	-1.142560e+002	-5.441985e+001	-1.779824e+001	-2.000000e+002	0.000000e+000	-2.000000e+002	0.000000e+000
31949510.000	-1.207746e-001	-1.166819e+002	-5.420372e+001	-1.934289e+001	-2.000000e+002	0.000000e+000	-2.000000e+002	0.000000e+000
32599500.000	-1.294393e-001	-1.191134e+002	-5.398345e+001	-2.066325e+001	-2.000000e+002	0.000000e+000	-2.000000e+002	0.000000e+000
33249490.000	-1.383782e-001	-1.215402e+002	-5.374289e+001	-1.945649e+001	-2.000000e+002	0.000000e+000	-2.000000e+002	0.000000e+000
33899480.000	-1.475756e-001	-1.239718e+002	-5.310687e+001	-1.722285e+001	-2.000000e+002	0.000000e+000	-2.000000e+002	0.000000e+000
34549470.000	-1.582701e-001	-1.263986e+002	-5.235023e+001	-1.497929e+001	-2.000000e+002	0.000000e+000	-2.000000e+002	0.000000e+000
35199460.000	-1.695740e-001	-1.288184e+002	-5.050494e+001	-1.352199e+001	-2.000000e+002	0.000000e+000	-2.000000e+002	0.000000e+000
35849450.000	-1.776136e-001	-1.312281e+002	-4.872176e+001	-2.008698e+001	-2.000000e+002	0.000000e+000	-2.000000e+002	0.000000e+000
36499440.000	-1.831128e-001	-1.336550e+002	-4.771612e+001	-2.934916e+001	-2.000000e+002	0.000000e+000	-2.000000e+002	0.000000e+000
37149430.000	-1.894522e-001	-1.361002e+002	-4.719921e+001	-3.718731e+001	-2.000000e+002	0.000000e+000	-2.000000e+002	0.000000e+000
37799420.000	-1.961286e-001	-1.385565e+002	-4.680404e+001	-4.333536e+001	-2.000000e+002	0.000000e+000	-2.000000e+002	0.000000e+000
38449410.000	-2.036842e-001	-1.410169e+002	-4.637326e+001	-4.809697e+001	-2.000000e+002	0.000000e+000	-2.000000e+002	0.000000e+000
39099400.000	-2.121749e-001	-1.434862e+002	-4.586451e+001	-5.197952e+001	-2.000000e+002	0.000000e+000	-2.000000e+002	0.000000e+000
39749390.000	-2.207561e-001	-1.459616e+002	-4.516908e+001	-5.554224e+001	-2.000000e+002	0.000000e+000	-2.000000e+002	0.000000e+000
40399380.000	-2.302261e-001	-1.484461e+002	-4.432294e+001	-5.910625e+001	-2.000000e+002	0.000000e+000	-2.000000e+002	0.000000e+000
41049370.000	-2.402840e-001	-1.509412e+002	-4.337572e+001	-6.283123e+001	-2.000000e+002	0.000000e+000	-2.000000e+002	0.000000e+000
41699360.000	-2.509867e-001	-1.534589e+002	-4.215560e+001	-6.688563e+001	-2.000000e+002	0.000000e+000	-2.000000e+002	0.000000e+000
42349350.000	-2.637198e-001	-1.560023e+002	-4.070819e+001	-7.111084e+001	-2.000000e+002	0.000000e+000	-2.000000e+002	0.000000e+000
42999340.000	-2.805198e-001	-1.585905e+002	-3.883344e+001	-7.661881e+001	-2.000000e+002	0.000000e+000	-2.000000e+002	0.000000e+000
43649330.000	-3.065787e-001	-1.612656e+002	-3.638461e+001	-8.451878e+001	-2.000000e+002	0.000000e+000	-2.000000e+002	0.000000e+000
44299320.000	-3.665082e-001	-1.640989e+002	-3.308678e+001	-9.767727e+001	-2.000000e+002	0.000000e+000	-2.000000e+002	0.000000e+000
44949310.000	-5.606051e-001	-1.668868e+002	-2.880692e+001	-1.261755e+002	-2.000000e+002	0.000000e+000	-2.000000e+002	0.000000e+000
45599300.000	-7.433991e-001	-1.670329e+002	-2.750892e+001	1.752292e+002	-2.000000e+002	0.000000e+000	-2.000000e+002	0.000000e+000
46249290.000	-4.915215e-001	-1.686677e+002	-3.199343e+001	1.342363e+002	-2.000000e+002	0.000000e+000	-2.000000e+002	0.000000e+000
46899280.000	-3.956802e-001	-1.714236e+002	-3.620092e+001	1.161916e+002	-2.000000e+002	0.000000e+000	-2.000000e+002	0.000000e+000
47549270.000	-3.642157e-001	-1.741239e+002	-3.945644e+001	1.059044e+002	-2.000000e+002	0.000000e+000	-2.000000e+002	0.000000e+000
48199260.000	-3.532900e-001	-1.767366e+002	-4.207120e+001	9.884211e+001	-2.000000e+002	0.000000e+000	-2.000000e+002	0.000000e+000
48849250.000	-3.511505e-001	-1.792989e+002	-4.425563e+001	9.274557e+001	-2.000000e+002	0.000000e+000	-2.000000e+002	0.000000e+000
49499240.000	-3.524550e-001	1.781717e+002	-4.625181e+001	8.764588e+001	-2.000000e+002	0.000000e+000	-2.000000e+002	0.000000e+000
50149230.000	-3.557949e-001	1.756640e+002	-4.801440e+001	8.318762e+001	-2.000000e+002	0.000000e+000	-2.000000e+002	0.000000e+000
50799220.000	-3.600768e-001	1.731694e+002	-4.960447e+001	7.940388e+001	-2.000000e+002	0.000000e+000	-2.000000e+002	0.000000e+000
51449210.000	-3.641272e-001	1.706818e+002	-5.106380e+001	7.499583e+001	-2.000000e+002	0.000000e+000	-2.000000e+002	0.000000e+000
52099200.000	-3.694770e-001	1.682034e+002	-5.237236e+001	7.065775e+001	-2.000000e+002	0.000000e+000	-2.000000e+002	0.000000e+000
52749190.000	-3.743569e-001	1.657290e+002	-5.373272e+001	6.600252e+001	-2.000000e+002	0.000000e+000	-2.000000e+002	0.000000e+000
53399180.000	-3.794284e-001	1.632597e+002	-5.513932e+001	6.104356e+001	-2.000000e+002	0.000000e+000	-2.000000e+002	0.000000e+000
54049170.000	-3.840538e-001	1.607923e+002	-5.652224e+001	5.677743e+001	-2.000000e+002	0.000000e+000	-2.000000e+002	0.000000e+000
54699160.000	-3.898862e-001	1.583260e+002	-5.762702e+001	5.259255e+001	-2.000000e+002	0.000000e+000	-2.000000e+002	0.000000e+000
55349150.000	-3.951801e-001	1.558651e+002	-5.866800e+001	4.606284e+001	-2.000000e+002	0.000000e+000	-2.000000e+002	0.000000e+000
55999140.000	-4.009790e-001	1.534043e+002	-5.967956e+001	4.110490e+001	-2.000000e+002	0.000000e+000	-2.000000e+002	0.000000e+000
56649130.000	-4.064404e-001	1.509486e+002	-6.080837e+001	3.328808e+001	-2.000000e+002	0.000000e+000	-2.000000e+002	0.000000e+000
57299120.000	-4.117468e-001	1.484965e+002	-6.140993e+001	2.645720e+001	-2.000000e+002	0.000000e+000	-2.000000e+002	0.000000e+000
57949110.000	-4.177309e-001	1.460457e+002	-6.175196e+001	1.895988e+001	-2.000000e+002	0.000000e+000	-2.000000e+002	0.000000e+000
58599100.000	-4.223342e-001	1.435925e+002	-6.161846e+001	9.330982e+000	-2.000000e+002	0.000000e+000	-2.000000e+002	0.000000e+000
59249090.000	-4.280515e-001	1.411491e+002	-6.117774e+001	-1.566175e+000	-2.000000e+002	0.000000e+000	-2.000000e+002	0.000000e+000
59899080.000	-4.338567e-001	1.387093e+002	-6.021224e+001	-1.867525e+001	-2.000000e+002	0.000000e+000	-2.000000e+002	0.000000e+000
60549070.000	-4.395311e-001	1.362785e+002	-5.893791e+001	-3.676416e+001	-2.000000e+002	0.000000e+000	-2.000000e+002	0.000000e+000
61199060.000	-4.443838e-001	1.338614e+002	-5.830802e+001	-5.903156e+001	-2.000000e+002	0.000000e+000	-2.000000e+002	0.000000e+000
61849050.000	-4.474872e-001	1.314336e+002	-5.882098e+001	-7.765564e+001	-2.000000e+002	0.000000e+000	-2.000000e+002	0.000000e+000
62499040.000	-4.497722e-001	1.290033e+002	-5.914492e+001	-9.271346e+001	-2.000000e+002	0.000000e+000	-2.000000e+002	0.000000e+000
63149030.000	-4.527821e-001	1.265684e+002	-5.943511e+001	-1.028878e+002	-2.000000e+002	0.000000e+000	-2.000000e+002	0.000000e+000
63799020.000	-4.549142e-001	1.241423e+002	-6.004569e+001	-1.096793e+002	-2.000000e+002	0.000000e+000	-2.000000e+002	0.000000e+000
64449010.000	-4.592096e-001	1.217144e+002	-5.963206e+001	-1.146796e+002	-2.000000e+002	0.000000e+000	-2.000000e+002	0.000000e+000
65099000.000	-4.611174e-001	1.192884e+002	-5.981876e+001	-1.234102e+002	-2.000000e+002	0.000000e+000	-2.000000e+002	0.000000e+000
65748990.000	-4.633539e-001	1.168581e+002	-5.991825e+001	-1.273248e+002	-2.000000e+002	0.000000e+000	-2.000000e+002	0.000000e+000
66398980.000	-4.663575e-001	1.144352e+002	-6.004792e+001	-1.334179e+002	-2.000000e+002	0.000000e+000	-2.000000e+002	0.000000e+000
67048970.000	-4.686100e-001	1.120120e+002	-5.985760e+001	-1.348165e+002	-2.000000e+002	0.000000e+000	-2.000000e+002	0.000000e+000
67698960.000	-4.713453e-001	1.095961e+002	-5.990900e+001	-1.385107e+002	-2.000000e+002	0.000000e+000	-2.000000e+002	0.000000e+000
68348950.000	-4.726916e-001	1.071799e+002	-5.963522e+001	-1.396852e+002	-2.000000e+002	0.000000e+000	-2.000000e+002	0.000000e+000
68998940.000	-4.757408e-001	1.047672e+002	-5.971585e+001	-1.427988e+002	-2.000000e+002	0.000000e+000	-2.000000e+002	0.000000e+000
69648930.000	-4.774694e-001	1.023531e+002	-5.913501e+001	-1.440882e+002	-2.000000e+002	0.000000e+000	-2.000000e+002	0.000000e+000
70298920.000	-4.785957e-001	9.993369e+001	-5.917052e+001	-1.465681e+002	-2.000000e+002	0.000000e+000	-2.000000e+002	0.000000e+000
70948910.000	-4.811178e-001	9.752650e+001	-5.883663e+001	-1.494925e+002	-2.000000e+002	0.000000e+000	-2.000000e+002	0.000000e+000
71598900.000	-4.822020e-001	9.512175e+001	-5.871461e+001	-1.510682e+002	-2.000000e+002	0.000000e+000	-2.000000e+002	0.000000e+000
72248890.000	-4.840591e-001	9.272035e+001	-5.846797e+001	-1.528065e+002	-2.000000e+002	0.000000e+000	-2.000000e+002	0.000000e+000
72898880.000	-4.854698e-001	9.031706e+001	-5.810594e+001	-1.544662e+002	-2.000000e+002	0.000000e+000	-2.000000e+002	0.000000e+000
73548870.000	-4.869406e-001	8.792562e+001	-5.780121e+001	-1.561211e+002	-2.000000e+002	0.000000e+000	-2.000000e+002	0.000000e+000
74198860.000	-4.877442e-001	8.552912e+001	-5.751827e+001	-1.586753e+002	-2.000000e+002	0.000000e+000	-2.000000e+002	0.000000e+000
74848850.000	-4.889767e-001	8.313640e+001	-5.721850e+001	-1.615709e+002	-2.000000e+002	0.000000e+000	-2.000000e+002	0.000000e+000
75498840.000	-4.892990e-001	8.074831e+001	-5.680165e+001	-1.637597e+002	-2.000000e+002	0.000000e+000	-2.000000e+002	0.000000e+000
76148830.000	-4.893867e-001	7.836371e+001	-5.647729e+001	-1.663091e+002	-2.000000e+002	0.000000e+000	-2.000000e+002	0.000000e+000
76798820.000	-4.884740e-001	7.597834e+001	-5.622060e+001	-1.693102e+002	-2.000000e+002	0.000000e+000	-2.000000e+002	0.000000e+000
77448810.000	-4.904450e-001	7.360363e+001	-5.589305e+001	-1.721537e+002	-2.000000e+002	0.000000e+000	-2.000000e+002	0.000000e+000
78098800.000	-4.900114e-001	7.122568e+001	-5.570852e+001	-1.749425e+002	-2.000000e+002	0.000000e+000	-2.000000e+002	0.000000e+000
78748790.000	-4.893317e-001	6.885088e+001	-5.531139e+001	-1.778035e+002	-2.000000e+002	0.000000e+000	-2.000000e+002	0.000000e+000
79398780.000	-4.875253e-001	6.647371e+001	-5.516599e+001	1.778299e+002	-2.000000e+002	0.000000e+000	-2.000000e+002	0.000000e+000
80048770.000	-4.853150e-001	6.409019e+001	-5.511484e+001	1.745611e+002	-2.000000e+002	0.000000e+000	-2.000000e+002	0.000000e+000
80698760.000	-4.841758e-001	6.171738e+001	-5.502557e+001	1.717344e+002	-2.000000e+002	0.000000e+000	-2.000000e+002	0.000000e+000
81348750.000	-4.826411e-001	5.933916e+001	-5.504359e+001	1.686268e+002	-2.000000e+002	0.000000e+000	-2.000000e+002	0.000000e+000
81998740.000	-4.808750e-001	5.697249e+001	-5.492414e+001	1.660921e+002	-2.000000e+002	0.000000e+000	-2.000000e+002	0.000000e+000
82648730.000	-4.813022e-001	5.461189e+001	-5.490568e+001	1.632314e+002	-2.000000e+002	0.000000e+000	-2.000000e+002	0.000000e+000
83298720.000	-4.796696e-001	5.224615e+001	-5.483009e+001	1.610776e+002	-2.000000e+002	0.000000e+000	-2.000000e+002	0.000000e+000
83948710.000	-4.781993e-001	4.987741e+001	-5.488996e+001	1.589399e+002	-2.000000e+002	0.000000e+000	-2.000000e+002	0.000000e+000
84598700.000	-4.760927e-001	4.751009e+001	-5.482409e+001	1.569336e+002	-2.000000e+002	0.000000e+000	-2.000000e+002	0.000000e+000
85248690.000	-4.739876e-001	4.514453e+001	-5.471620e+001	1.551980e+002	-2.000000e+002	0.000000e+000	-2.000000e+002	0.000000e+000
85898680.000	-4.724083e-001	4.278412e+001	-5.463194e+001	1.530227e+002	-2.000000e+002	0.000000e+000	-2.000000e+002	0.000000e+000
86548670.000	-4.697229e-001	4.042612e+001	-5.462083e+001	1.513911e+002	-2.000000e+002	0.000000e+000	-2.000000e+002	0.000000e+000
87198660.000	-4.677502e-001	3.806945e+001	-5.463682e+001	1.491942e+002	-2.000000e+002	0.000000e+000	-2.000000e+002	0.000000e+000
87848650.000	-4.648092e-001	3.571964e+001	-5.454411e+001	1.476959e+002	-2.000000e+002	0.000000e+000	-2.000000e+002	0.000000e+000
88498640.000	-4.626914e-001	3.336698e+001	-5.448542e+001	1.462758e+002	-2.000000e+002	0.000000e+000	-2.000000e+002	0.000000e+000
89148630.000	-4.608621e-001	3.101608e+001	-5.441288e+001	1.454574e+002	-2.000000e+002	0.000000e+000	-2.000000e+002	0.000000e+000
89798620.000	-4.579457e-001	2.866624e+001	-5.431031e+001	1.444849e+002	-2.000000e+002	0.000000e+000	-2.000000e+002	0.000000e+000
90448610.000	-4.553240e-001	2.631515e+001	-5.404288e+001	1.432160e+002	-2.000000e+002	0.000000e+000	-2.000000e+002	0.000000e+000
91098600.000	-4.542940e-001	2.396637e+001	-5.383149e+001	1.416266e+002	-2.000000e+002	0.000000e+000	-2.000000e+002	0.000000e+000
91748590.000	-4.514906e-001	2.161582e+001	-5.364398e+001	1.395667e+002	-2.000000e+002	0.000000e+000	-2.000000e+002	0.000000e+000
92398580.000	-4.478021e-001	1.926897e+001	-5.343078e+001	1.381262e+002	-2.000000e+002	0.000000e+000	-2.000000e+002	0.000000e+000
93048570.000	-4.452776e-001	1.692992e+001	-5.341215e+001	1.364200e+002	-2.000000e+002	0.000000e+000	-2.000000e+002	0.000000e+000
93698560.000	-4.427914e-001	1.457858e+001	-5.309875e+001	1.340158e+002	-2.000000e+002	0.000000e+000	-2.000000e+002	0.000000e+000
94348550.000	-4.396456e-001	1.223438e+001	-5.294991e+001	1.325638e+002	-2.000000e+002	0.000000e+000	-2.000000e+002	0.000000e+000
94998540.000	-4.380576e-001	9.886329e+000	-5.275801e+001	1.316451e+002	-2.000000e+002	0.000000e+000	-2.000000e+002	0.000000e+000
95648530.000	-4.345227e-001	7.546777e+000	-5.266168e+001	1.293367e+002	-2.000000e+002	0.000000e+000	-2.000000e+002	0.000000e+000
96298520.000	-4.321294e-001	5.208927e+000	-5.249014e+001	1.279594e+002	-2.000000e+002	0.000000e+000	-2.000000e+002	0.000000e+000
96948510.000	-4.299689e-001	2.865704e+000	-5.228298e+001	1.275385e+002	-2.000000e+002	0.000000e+000	-2.000000e+002	0.000000e+000
97598500.000	-4.283474e-001	5.311588e-001	-5.196594e+001	1.267582e+002	-2.000000e+002	0.000000e+000	-2.000000e+002	0.000000e+000
98248490.000	-4.258853e-001	-1.798082e+000	-5.149154e+001	1.257653e+002	-2.000000e+002	0.000000e+000	-2.000000e+002	0.000000e+000
