!Keysight Technologies,E5063A,MY54503115,A.05.08
!Date: Sun Feb 04 18:48:29 2024
!Data & Calibration Information:
!Freq	S11:NONE(--)	S21:NONE(--)	S12:NONE(--)	S22:NONE(--)
# Hz S dB R 50
100000.000	4.794824e-002	-8.068744e-001	-8.437519e+001	1.309749e+002	-2.000000e+002	0.000000e+000	-2.000000e+002	0.000000e+000
749990.000	7.654455e-003	-3.052336e+000	-8.081118e+001	-1.125207e+001	-2.000000e+002	0.000000e+000	-2.000000e+002	0.000000e+000
1399980.000	1.014099e-002	-5.357825e+000	-9.922154e+001	1.267398e+002	-2.000000e+002	0.000000e+000	-2.000000e+002	0.000000e+000
2049970.000	9.057376e-003	-7.684033e+000	-8.398260e+001	1.371828e+002	-2.000000e+002	0.000000e+000	-2.000000e+002	0.000000e+000
2699960.000	1.159413e-002	-1.001276e+001	-7.894924e+001	7.606916e+001	-2.000000e+002	0.000000e+000	-2.000000e+002	0.000000e+000
3349950.000	1.323160e-002	-1.234948e+001	-7.480218e+001	7.929479e+001	-2.000000e+002	0.000000e+000	-2.000000e+002	0.000000e+000
3999940.000	1.299973e-002	-1.468892e+001	-7.519565e+001	7.469029e+001	-2.000000e+002	0.000000e+000	-2.000000e+002	0.000000e+000
4649930.000	1.644167e-002	-1.702922e+001	-7.228490e+001	6.589974e+001	-2.000000e+002	0.000000e+000	-2.000000e+002	0.000000e+000
5299920.000	1.365089e-002	-1.935921e+001	-7.522201e+001	6.575296e+001	-2.000000e+002	0.000000e+000	-2.000000e+002	0.000000e+000
5949910.000	1.421272e-002	-2.170248e+001	-7.102217e+001	7.913818e+001	-2.000000e+002	0.000000e+000	-2.000000e+002	0.000000e+000
6599900.000	1.364359e-002	-2.404097e+001	-7.074340e+001	7.813579e+001	-2.000000e+002	0.000000e+000	-2.000000e+002	0.000000e+000
7249890.000	1.485970e-002	-2.638309e+001	-7.188515e+001	6.582336e+001	-2.000000e+002	0.000000e+000	-2.000000e+002	0.000000e+000
7899880.000	1.429239e-002	-2.872189e+001	-6.915935e+001	7.221301e+001	-2.000000e+002	0.000000e+000	-2.000000e+002	0.000000e+000
8549870.000	1.807548e-002	-3.106995e+001	-6.834691e+001	6.247629e+001	-2.000000e+002	0.000000e+000	-2.000000e+002	0.000000e+000
9199860.000	1.657826e-002	-3.341058e+001	-6.781293e+001	5.887743e+001	-2.000000e+002	0.000000e+000	-2.000000e+002	0.000000e+000
9849850.000	1.641297e-002	-3.575942e+001	-6.707954e+001	6.105294e+001	-2.000000e+002	0.000000e+000	-2.000000e+002	0.000000e+000
10499840.000	1.391755e-002	-3.810236e+001	-6.716362e+001	5.301661e+001	-2.000000e+002	0.000000e+000	-2.000000e+002	0.000000e+000
11149830.000	1.082605e-002	-4.044611e+001	-6.669622e+001	5.149115e+001	-2.000000e+002	0.000000e+000	-2.000000e+002	0.000000e+000
11799820.000	8.578436e-003	-4.279077e+001	-6.578059e+001	4.588436e+001	-2.000000e+002	0.000000e+000	-2.000000e+002	0.000000e+000
12449810.000	9.329154e-003	-4.514536e+001	-6.529281e+001	4.871891e+001	-2.000000e+002	0.000000e+000	-2.000000e+002	0.000000e+000
13099800.000	1.062704e-002	-4.749517e+001	-6.492757e+001	4.831036e+001	-2.000000e+002	0.000000e+000	-2.000000e+002	0.000000e+000
13749790.000	7.948826e-003	-4.983986e+001	-6.467486e+001	4.233828e+001	-2.000000e+002	0.000000e+000	-2.000000e+002	0.000000e+000
14399780.000	5.478435e-003	-5.219876e+001	-6.393157e+001	4.222737e+001	-2.000000e+002	0.000000e+000	-2.000000e+002	0.000000e+000
15049770.000	4.729478e-003	-5.455511e+001	-6.371506e+001	4.063275e+001	-2.000000e+002	0.000000e+000	-2.000000e+002	0.000000e+000
15699760.000	3.782455e-003	-5.690171e+001	-6.326492e+001	3.840296e+001	-2.000000e+002	0.000000e+000	-2.000000e+002	0.000000e+000
16349750.000	2.329654e-003	-5.925254e+001	-6.281239e+001	3.663996e+001	-2.000000e+002	0.000000e+000	-2.000000e+002	0.000000e+000
16999740.000	6.794896e-005	-6.162724e+001	-6.191242e+001	3.418215e+001	-2.000000e+002	0.000000e+000	-2.000000e+002	0.000000e+000
17649730.000	4.623732e-003	-6.399972e+001	-6.171238e+001	3.619486e+001	-2.000000e+002	0.000000e+000	-2.000000e+002	0.000000e+000
18299720.000	5.798426e-003	-6.637313e+001	-6.085752e+001	3.065018e+001	-2.000000e+002	0.000000e+000	-2.000000e+002	0.000000e+000
18949710.000	2.484537e-003	-6.874878e+001	-6.044384e+001	2.730607e+001	-2.000000e+002	0.000000e+000	-2.000000e+002	0.000000e+000
19599700.000	-5.530726e-003	-7.112302e+001	-6.027415e+001	2.411681e+001	-2.000000e+002	0.000000e+000	-2.000000e+002	0.000000e+000
20249690.000	-1.202259e-002	-7.350050e+001	-5.996680e+001	2.067402e+001	-2.000000e+002	0.000000e+000	-2.000000e+002	0.000000e+000
20899680.000	-1.611259e-002	-7.590699e+001	-5.988601e+001	1.931103e+001	-2.000000e+002	0.000000e+000	-2.000000e+002	0.000000e+000
21549670.000	-2.021764e-002	-7.829846e+001	-5.957701e+001	1.547639e+001	-2.000000e+002	0.000000e+000	-2.000000e+002	0.000000e+000
22199660.000	-2.532180e-002	-8.067461e+001	-5.926635e+001	1.415693e+001	-2.000000e+002	0.000000e+000	-2.000000e+002	0.000000e+000
22849650.000	-2.974135e-002	-8.303801e+001	-5.891509e+001	1.144766e+001	-2.000000e+002	0.000000e+000	-2.000000e+002	0.000000e+000
23499640.000	-3.579981e-002	-8.542774e+001	-5.898248e+001	1.148468e+001	-2.000000e+002	0.000000e+000	-2.000000e+002	0.000000e+000
24149630.000	-4.242821e-002	-8.782768e+001	-5.837331e+001	1.033035e+001	-2.000000e+002	0.000000e+000	-2.000000e+002	0.000000e+000
24799620.000	-4.873832e-002	-9.021459e+001	-5.773927e+001	8.839652e+000	-2.000000e+002	0.000000e+000	-2.000000e+002	0.000000e+000
25449610.000	-5.255349e-002	-9.259990e+001	-5.734621e+001	5.541726e+000	-2.000000e+002	0.000000e+000	-2.000000e+002	0.000000e+000
26099600.000	-5.873612e-002	-9.499063e+001	-5.701012e+001	3.487383e+000	-2.000000e+002	0.000000e+000	-2.000000e+002	0.000000e+000
26749590.000	-6.560693e-002	-9.739304e+001	-5.650037e+001	2.932348e-001	-2.000000e+002	0.000000e+000	-2.000000e+002	0.000000e+000
27399580.000	-7.210358e-002	-9.979469e+001	-5.621336e+001	-2.181543e+000	-2.000000e+002	0.000000e+000	-2.000000e+002	0.000000e+000
28049570.000	-7.802386e-002	-1.021954e+002	-5.579062e+001	-4.743994e+000	-2.000000e+002	0.000000e+000	-2.000000e+002	0.000000e+000
28699560.000	-8.505673e-002	-1.045969e+002	-5.532224e+001	-8.189553e+000	-2.000000e+002	0.000000e+000	-2.000000e+002	0.000000e+000
29349550.000	-9.260841e-002	-1.070039e+002	-5.515426e+001	-1.029971e+001	-2.000000e+002	0.000000e+000	-2.000000e+002	0.000000e+000
29999540.000	-9.884633e-002	-1.094162e+002	-5.480795e+001	-1.445048e+001	-2.000000e+002	0.000000e+000	-2.000000e+002	0.000000e+000
30649530.000	-1.061799e-001	-1.118360e+002	-5.455530e+001	-1.616757e+001	-2.000000e+002	0.000000e+000	-2.000000e+002	0.000000e+000
31299520.000	-1.128873e-001	-1.142550e+002	-5.439450e+001	-1.789661e+001	-2.000000e+002	0.000000e+000	-2.000000e+002	0.000000e+000
31949510.000	-1.209205e-001	-1.166826e+002	-5.424267e+001	-1.951542e+001	-2.000000e+002	0.000000e+000	-2.000000e+002	0.000000e+000
32599500.000	-1.296939e-001	-1.191120e+002	-5.411723e+001	-2.029725e+001	-2.000000e+002	0.000000e+000	-2.000000e+002	0.000000e+000
33249490.000	-1.381867e-001	-1.215414e+002	-5.390782e+001	-1.932574e+001	-2.000000e+002	0.000000e+000	-2.000000e+002	0.000000e+000
33899480.000	-1.480501e-001	-1.239712e+002	-5.330077e+001	-1.705815e+001	-2.000000e+002	0.000000e+000	-2.000000e+002	0.000000e+000
34549470.000	-1.586396e-001	-1.263963e+002	-5.246780e+001	-1.474724e+001	-2.000000e+002	0.000000e+000	-2.000000e+002	0.000000e+000
35199460.000	-1.703472e-001	-1.288149e+002	-5.068392e+001	-1.334523e+001	-2.000000e+002	0.000000e+000	-2.000000e+002	0.000000e+000
35849450.000	-1.783334e-001	-1.312245e+002	-4.892792e+001	-1.979760e+001	-2.000000e+002	0.000000e+000	-2.000000e+002	0.000000e+000
36499440.000	-1.841126e-001	-1.336467e+002	-4.784085e+001	-2.824916e+001	-2.000000e+002	0.000000e+000	-2.000000e+002	0.000000e+000
37149430.000	-1.900231e-001	-1.360905e+002	-4.727450e+001	-3.646563e+001	-2.000000e+002	0.000000e+000	-2.000000e+002	0.000000e+000
37799420.000	-1.969217e-001	-1.385462e+002	-4.692441e+001	-4.256098e+001	-2.000000e+002	0.000000e+000	-2.000000e+002	0.000000e+000
38449410.000	-2.038581e-001	-1.410058e+002	-4.643807e+001	-4.749334e+001	-2.000000e+002	0.000000e+000	-2.000000e+002	0.000000e+000
39099400.000	-2.123713e-001	-1.434744e+002	-4.593775e+001	-5.137010e+001	-2.000000e+002	0.000000e+000	-2.000000e+002	0.000000e+000
39749390.000	-2.208059e-001	-1.459485e+002	-4.530901e+001	-5.511234e+001	-2.000000e+002	0.000000e+000	-2.000000e+002	0.000000e+000
40399380.000	-2.299899e-001	-1.484312e+002	-4.452389e+001	-5.922857e+001	-2.000000e+002	0.000000e+000	-2.000000e+002	0.000000e+000
41049370.000	-2.401417e-001	-1.509224e+002	-4.363171e+001	-6.194846e+001	-2.000000e+002	0.000000e+000	-2.000000e+002	0.000000e+000
41699360.000	-2.506877e-001	-1.534351e+002	-4.251278e+001	-6.588722e+001	-2.000000e+002	0.000000e+000	-2.000000e+002	0.000000e+000
42349350.000	-2.631253e-001	-1.559673e+002	-4.113728e+001	-6.991660e+001	-2.000000e+002	0.000000e+000	-2.000000e+002	0.000000e+000
42999340.000	-2.789651e-001	-1.585399e+002	-3.940696e+001	-7.482607e+001	-2.000000e+002	0.000000e+000	-2.000000e+002	0.000000e+000
43649330.000	-3.019961e-001	-1.611799e+002	-3.718735e+001	-8.141855e+001	-2.000000e+002	0.000000e+000	-2.000000e+002	0.000000e+000
44299320.000	-3.460002e-001	-1.639507e+002	-3.420638e+001	-9.179317e+001	-2.000000e+002	0.000000e+000	-2.000000e+002	0.000000e+000
44949310.000	-4.762193e-001	-1.668824e+002	-3.010320e+001	-1.121916e+002	-2.000000e+002	0.000000e+000	-2.000000e+002	0.000000e+000
45599300.000	-7.995913e-001	-1.680498e+002	-2.643002e+001	-1.625995e+002	-2.000000e+002	0.000000e+000	-2.000000e+002	0.000000e+000
46249290.000	-5.524544e-001	-1.684623e+002	-2.991736e+001	1.424315e+002	-2.000000e+002	0.000000e+000	-2.000000e+002	0.000000e+000
46899280.000	-4.056826e-001	-1.712650e+002	-3.464599e+001	1.194037e+002	-2.000000e+002	0.000000e+000	-2.000000e+002	0.000000e+000
47549270.000	-3.648095e-001	-1.740352e+002	-3.823096e+001	1.077104e+002	-2.000000e+002	0.000000e+000	-2.000000e+002	0.000000e+000
48199260.000	-3.522525e-001	-1.766851e+002	-4.102809e+001	9.991632e+001	-2.000000e+002	0.000000e+000	-2.000000e+002	0.000000e+000
48849250.000	-3.495882e-001	-1.792616e+002	-4.335977e+001	9.384977e+001	-2.000000e+002	0.000000e+000	-2.000000e+002	0.000000e+000
49499240.000	-3.508677e-001	1.781972e+002	-4.538161e+001	8.853982e+001	-2.000000e+002	0.000000e+000	-2.000000e+002	0.000000e+000
50149230.000	-3.542234e-001	1.756840e+002	-4.724651e+001	8.381119e+001	-2.000000e+002	0.000000e+000	-2.000000e+002	0.000000e+000
50799220.000	-3.584671e-001	1.731888e+002	-4.889619e+001	7.975178e+001	-2.000000e+002	0.000000e+000	-2.000000e+002	0.000000e+000
51449210.000	-3.631545e-001	1.706941e+002	-5.039344e+001	7.575234e+001	-2.000000e+002	0.000000e+000	-2.000000e+002	0.000000e+000
52099200.000	-3.680914e-001	1.682137e+002	-5.176086e+001	7.156211e+001	-2.000000e+002	0.000000e+000	-2.000000e+002	0.000000e+000
52749190.000	-3.733774e-001	1.657415e+002	-5.309180e+001	6.680908e+001	-2.000000e+002	0.000000e+000	-2.000000e+002	0.000000e+000
53399180.000	-3.782155e-001	1.632713e+002	-5.450437e+001	6.218465e+001	-2.000000e+002	0.000000e+000	-2.000000e+002	0.000000e+000
54049170.000	-3.834174e-001	1.608015e+002	-5.583764e+001	5.873864e+001	-2.000000e+002	0.000000e+000	-2.000000e+002	0.000000e+000
54699160.000	-3.890757e-001	1.583368e+002	-5.701988e+001	5.329313e+001	-2.000000e+002	0.000000e+000	-2.000000e+002	0.000000e+000
55349150.000	-3.946092e-001	1.558750e+002	-5.811764e+001	4.905727e+001	-2.000000e+002	0.000000e+000	-2.000000e+002	0.000000e+000
55999140.000	-4.002557e-001	1.534170e+002	-5.911946e+001	4.135046e+001	-2.000000e+002	0.000000e+000	-2.000000e+002	0.000000e+000
56649130.000	-4.057351e-001	1.509624e+002	-6.003310e+001	3.652076e+001	-2.000000e+002	0.000000e+000	-2.000000e+002	0.000000e+000
57299120.000	-4.111728e-001	1.485083e+002	-6.094943e+001	3.052916e+001	-2.000000e+002	0.000000e+000	-2.000000e+002	0.000000e+000
57949110.000	-4.163605e-001	1.460572e+002	-6.121628e+001	2.079093e+001	-2.000000e+002	0.000000e+000	-2.000000e+002	0.000000e+000
58599100.000	-4.216680e-001	1.436059e+002	-6.116213e+001	1.232055e+001	-2.000000e+002	0.000000e+000	-2.000000e+002	0.000000e+000
59249090.000	-4.273882e-001	1.411614e+002	-6.091201e+001	5.518230e-001	-2.000000e+002	0.000000e+000	-2.000000e+002	0.000000e+000
59899080.000	-4.333303e-001	1.387182e+002	-6.005813e+001	-1.519575e+001	-2.000000e+002	0.000000e+000	-2.000000e+002	0.000000e+000
60549070.000	-4.387275e-001	1.362913e+002	-5.927294e+001	-3.560531e+001	-2.000000e+002	0.000000e+000	-2.000000e+002	0.000000e+000
61199060.000	-4.435192e-001	1.338679e+002	-5.860999e+001	-5.564822e+001	-2.000000e+002	0.000000e+000	-2.000000e+002	0.000000e+000
61849050.000	-4.462760e-001	1.314440e+002	-5.896848e+001	-7.639815e+001	-2.000000e+002	0.000000e+000	-2.000000e+002	0.000000e+000
62499040.000	-4.490254e-001	1.290135e+002	-5.943871e+001	-9.043494e+001	-2.000000e+002	0.000000e+000	-2.000000e+002	0.000000e+000
63149030.000	-4.516586e-001	1.265808e+002	-5.974451e+001	-1.018931e+002	-2.000000e+002	0.000000e+000	-2.000000e+002	0.000000e+000
63799020.000	-4.543981e-001	1.241512e+002	-6.019683e+001	-1.106045e+002	-2.000000e+002	0.000000e+000	-2.000000e+002	0.000000e+000
64449010.000	-4.575974e-001	1.217230e+002	-6.027496e+001	-1.164574e+002	-2.000000e+002	0.000000e+000	-2.000000e+002	0.000000e+000
65099000.000	-4.601605e-001	1.192966e+002	-6.019226e+001	-1.219830e+002	-2.000000e+002	0.000000e+000	-2.000000e+002	0.000000e+000
65748990.000	-4.625778e-001	1.168702e+002	-6.020242e+001	-1.275052e+002	-2.000000e+002	0.000000e+000	-2.000000e+002	0.000000e+000
66398980.000	-4.654376e-001	1.144498e+002	-6.022079e+001	-1.326945e+002	-2.000000e+002	0.000000e+000	-2.000000e+002	0.000000e+000
67048970.000	-4.678136e-001	1.120221e+002	-6.010098e+001	-1.352531e+002	-2.000000e+002	0.000000e+000	-2.000000e+002	0.000000e+000
67698960.000	-4.708028e-001	1.096095e+002	-5.970961e+001	-1.382992e+002	-2.000000e+002	0.000000e+000	-2.000000e+002	0.000000e+000
68348950.000	-4.726078e-001	1.071929e+002	-5.966240e+001	-1.416408e+002	-2.000000e+002	0.000000e+000	-2.000000e+002	0.000000e+000
68998940.000	-4.747853e-001	1.047820e+002	-5.946625e+001	-1.442269e+002	-2.000000e+002	0.000000e+000	-2.000000e+002	0.000000e+000
69648930.000	-4.768102e-001	1.023677e+002	-5.932721e+001	-1.460646e+002	-2.000000e+002	0.000000e+000	-2.000000e+002	0.000000e+000
70298920.000	-4.776620e-001	9.994953e+001	-5.906599e+001	-1.487931e+002	-2.000000e+002	0.000000e+000	-2.000000e+002	0.000000e+000
70948910.000	-4.799857e-001	9.754250e+001	-5.881252e+001	-1.518293e+002	-2.000000e+002	0.000000e+000	-2.000000e+002	0.000000e+000
71598900.000	-4.808695e-001	9.513587e+001	-5.850134e+001	-1.527274e+002	-2.000000e+002	0.000000e+000	-2.000000e+002	0.000000e+000
72248890.000	-4.829062e-001	9.273310e+001	-5.852638e+001	-1.557776e+002	-2.000000e+002	0.000000e+000	-2.000000e+002	0.000000e+000
72898880.000	-4.843025e-001	9.033172e+001	-5.821299e+001	-1.572045e+002	-2.000000e+002	0.000000e+000	-2.000000e+002	0.000000e+000
73548870.000	-4.855874e-001	8.793577e+001	-5.789952e+001	-1.588968e+002	-2.000000e+002	0.000000e+000	-2.000000e+002	0.000000e+000
74198860.000	-4.868269e-001	8.554379e+001	-5.760283e+001	-1.613620e+002	-2.000000e+002	0.000000e+000	-2.000000e+002	0.000000e+000
74848850.000	-4.879336e-001	8.314993e+001	-5.729778e+001	-1.642011e+002	-2.000000e+002	0.000000e+000	-2.000000e+002	0.000000e+000
75498840.000	-4.882084e-001	8.076138e+001	-5.694585e+001	-1.656122e+002	-2.000000e+002	0.000000e+000	-2.000000e+002	0.000000e+000
76148830.000	-4.880808e-001	7.837410e+001	-5.681105e+001	-1.676033e+002	-2.000000e+002	0.000000e+000	-2.000000e+002	0.000000e+000
76798820.000	-4.877222e-001	7.598604e+001	-5.641436e+001	-1.702932e+002	-2.000000e+002	0.000000e+000	-2.000000e+002	0.000000e+000
77448810.000	-4.895100e-001	7.361948e+001	-5.612252e+001	-1.734004e+002	-2.000000e+002	0.000000e+000	-2.000000e+002	0.000000e+000
78098800.000	-4.893489e-001	7.124081e+001	-5.572632e+001	-1.755769e+002	-2.000000e+002	0.000000e+000	-2.000000e+002	0.000000e+000
78748790.000	-4.886975e-001	6.886371e+001	-5.542713e+001	-1.794700e+002	-2.000000e+002	0.000000e+000	-2.000000e+002	0.000000e+000
79398780.000	-4.865773e-001	6.649074e+001	-5.523842e+001	1.762375e+002	-2.000000e+002	0.000000e+000	-2.000000e+002	0.000000e+000
80048770.000	-4.845949e-001	6.410738e+001	-5.516661e+001	1.730758e+002	-2.000000e+002	0.000000e+000	-2.000000e+002	0.000000e+000
80698760.000	-4.832801e-001	6.172972e+001	-5.509951e+001	1.697194e+002	-2.000000e+002	0.000000e+000	-2.000000e+002	0.000000e+000
81348750.000	-4.815349e-001	5.935674e+001	-5.508971e+001	1.662095e+002	-2.000000e+002	0.000000e+000	-2.000000e+002	0.000000e+000
81998740.000	-4.801628e-001	5.698215e+001	-5.500236e+001	1.642631e+002	-2.000000e+002	0.000000e+000	-2.000000e+002	0.000000e+000
82648730.000	-4.799675e-001	5.463051e+001	-5.489598e+001	1.611900e+002	-2.000000e+002	0.000000e+000	-2.000000e+002	0.000000e+000
83298720.000	-4.788176e-001	5.225821e+001	-5.489845e+001	1.590828e+002	-2.000000e+002	0.000000e+000	-2.000000e+002	0.000000e+000
83948710.000	-4.766970e-001	4.989377e+001	-5.489886e+001	1.569099e+002	-2.000000e+002	0.000000e+000	-2.000000e+002	0.000000e+000
84598700.000	-4.752116e-001	4.752762e+001	-5.478629e+001	1.547172e+002	-2.000000e+002	0.000000e+000	-2.000000e+002	0.000000e+000
85248690.000	-4.729504e-001	4.516583e+001	-5.478704e+001	1.528639e+002	-2.000000e+002	0.000000e+000	-2.000000e+002	0.000000e+000
85898680.000	-4.707862e-001	4.280281e+001	-5.477525e+001	1.501611e+002	-2.000000e+002	0.000000e+000	-2.000000e+002	0.000000e+000
86548670.000	-4.684878e-001	4.044317e+001	-5.465552e+001	1.479541e+002	-2.000000e+002	0.000000e+000	-2.000000e+002	0.000000e+000
87198660.000	-4.662378e-001	3.808868e+001	-5.466844e+001	1.458701e+002	-2.000000e+002	0.000000e+000	-2.000000e+002	0.000000e+000
87848650.000	-4.641716e-001	3.573798e+001	-5.469928e+001	1.447262e+002	-2.000000e+002	0.000000e+000	-2.000000e+002	0.000000e+000
88498640.000	-4.610772e-001	3.338688e+001	-5.463060e+001	1.428754e+002	-2.000000e+002	0.000000e+000	-2.000000e+002	0.000000e+000
89148630.000	-4.590304e-001	3.103618e+001	-5.452681e+001	1.416184e+002	-2.000000e+002	0.000000e+000	-2.000000e+002	0.000000e+000
89798620.000	-4.566296e-001	2.868820e+001	-5.448144e+001	1.405151e+002	-2.000000e+002	0.000000e+000	-2.000000e+002	0.000000e+000
90448610.000	-4.538347e-001	2.633596e+001	-5.431543e+001	1.392565e+002	-2.000000e+002	0.000000e+000	-2.000000e+002	0.000000e+000
91098600.000	-4.520928e-001	2.398477e+001	-5.403690e+001	1.377294e+002	-2.000000e+002	0.000000e+000	-2.000000e+002	0.000000e+000
91748590.000	-4.490121e-001	2.163654e+001	-5.386406e+001	1.351588e+002	-2.000000e+002	0.000000e+000	-2.000000e+002	0.000000e+000
92398580.000	-4.463552e-001	1.928887e+001	-5.375280e+001	1.335161e+002	-2.000000e+002	0.000000e+000	-2.000000e+002	0.000000e+000
93048570.000	-4.427163e-001	1.693888e+001	-5.339412e+001	1.309273e+002	-2.000000e+002	0.000000e+000	-2.000000e+002	0.000000e+000
93698560.000	-4.406650e-001	1.459291e+001	-5.349931e+001	1.298036e+002	-2.000000e+002	0.000000e+000	-2.000000e+002	0.000000e+000
94348550.000	-4.374760e-001	1.224833e+001	-5.350724e+001	1.284565e+002	-2.000000e+002	0.000000e+000	-2.000000e+002	0.000000e+000
94998540.000	-4.358101e-001	9.904902e+000	-5.315986e+001	1.271395e+002	-2.000000e+002	0.000000e+000	-2.000000e+002	0.000000e+000
95648530.000	-4.321577e-001	7.563310e+000	-5.323675e+001	1.244538e+002	-2.000000e+002	0.000000e+000	-2.000000e+002	0.000000e+000
96298520.000	-4.291920e-001	5.222938e+000	-5.319759e+001	1.234062e+002	-2.000000e+002	0.000000e+000	-2.000000e+002	0.000000e+000
96948510.000	-4.275204e-001	2.883743e+000	-5.312049e+001	1.230552e+002	-2.000000e+002	0.000000e+000	-2.000000e+002	0.000000e+000
97598500.000	-4.243624e-001	5.470535e-001	-5.274398e+001	1.228862e+002	-2.000000e+002	0.000000e+000	-2.000000e+002	0.000000e+000
98248490.000	-4.222380e-001	-1.791258e+000	-5.235510e+001	1.222203e+002	-2.000000e+002	0.000000e+000	-2.000000e+002	0.000000e+000
