!Keysight Technologies,E5063A,MY54503115,A.05.08
!Date: Sun Feb 04 18:51:20 2024
!Data & Calibration Information:
!Freq	S11:NONE(--)	S21:NONE(--)	S12:NONE(--)	S22:NONE(--)
# Hz S dB R 50
100000.000	4.654495e-002	-8.084946e-001	-8.494963e+001	8.662727e+001	-2.000000e+002	0.000000e+000	-2.000000e+002	0.000000e+000
749990.000	8.792005e-003	-3.058975e+000	-9.896894e+001	-2.104265e+001	-2.000000e+002	0.000000e+000	-2.000000e+002	0.000000e+000
1399980.000	1.088967e-002	-5.368477e+000	-7.723867e+001	1.704978e+002	-2.000000e+002	0.000000e+000	-2.000000e+002	0.000000e+000
2049970.000	1.000009e-002	-7.694181e+000	-7.883817e+001	1.497800e+002	-2.000000e+002	0.000000e+000	-2.000000e+002	0.000000e+000
2699960.000	1.113332e-002	-1.001955e+001	-7.746163e+001	4.853533e+001	-2.000000e+002	0.000000e+000	-2.000000e+002	0.000000e+000
3349950.000	1.515755e-002	-1.235220e+001	-7.665497e+001	5.713074e+001	-2.000000e+002	0.000000e+000	-2.000000e+002	0.000000e+000
3999940.000	1.311143e-002	-1.469396e+001	-7.653043e+001	7.631122e+001	-2.000000e+002	0.000000e+000	-2.000000e+002	0.000000e+000
4649930.000	1.619031e-002	-1.703496e+001	-7.652949e+001	8.873858e+001	-2.000000e+002	0.000000e+000	-2.000000e+002	0.000000e+000
5299920.000	1.435545e-002	-1.936399e+001	-7.366780e+001	7.921209e+001	-2.000000e+002	0.000000e+000	-2.000000e+002	0.000000e+000
5949910.000	1.377109e-002	-2.170615e+001	-7.111184e+001	6.993670e+001	-2.000000e+002	0.000000e+000	-2.000000e+002	0.000000e+000
6599900.000	1.456587e-002	-2.404199e+001	-7.229155e+001	7.048379e+001	-2.000000e+002	0.000000e+000	-2.000000e+002	0.000000e+000
7249890.000	1.479758e-002	-2.637725e+001	-6.997973e+001	7.372668e+001	-2.000000e+002	0.000000e+000	-2.000000e+002	0.000000e+000
7899880.000	1.458920e-002	-2.872449e+001	-6.971246e+001	6.495358e+001	-2.000000e+002	0.000000e+000	-2.000000e+002	0.000000e+000
8549870.000	1.827709e-002	-3.107214e+001	-6.866287e+001	5.981920e+001	-2.000000e+002	0.000000e+000	-2.000000e+002	0.000000e+000
9199860.000	1.676675e-002	-3.341357e+001	-6.833032e+001	5.908922e+001	-2.000000e+002	0.000000e+000	-2.000000e+002	0.000000e+000
9849850.000	1.636672e-002	-3.576294e+001	-6.777633e+001	5.817033e+001	-2.000000e+002	0.000000e+000	-2.000000e+002	0.000000e+000
10499840.000	1.333085e-002	-3.810504e+001	-6.706773e+001	5.355760e+001	-2.000000e+002	0.000000e+000	-2.000000e+002	0.000000e+000
11149830.000	1.074556e-002	-4.044769e+001	-6.650493e+001	4.918302e+001	-2.000000e+002	0.000000e+000	-2.000000e+002	0.000000e+000
11799820.000	9.327225e-003	-4.279270e+001	-6.523160e+001	5.292520e+001	-2.000000e+002	0.000000e+000	-2.000000e+002	0.000000e+000
12449810.000	9.478205e-003	-4.514574e+001	-6.568191e+001	5.185889e+001	-2.000000e+002	0.000000e+000	-2.000000e+002	0.000000e+000
13099800.000	1.060455e-002	-4.749241e+001	-6.486479e+001	4.692306e+001	-2.000000e+002	0.000000e+000	-2.000000e+002	0.000000e+000
13749790.000	8.256927e-003	-4.983950e+001	-6.448463e+001	4.396107e+001	-2.000000e+002	0.000000e+000	-2.000000e+002	0.000000e+000
14399780.000	5.674481e-003	-5.220070e+001	-6.373435e+001	4.390577e+001	-2.000000e+002	0.000000e+000	-2.000000e+002	0.000000e+000
15049770.000	5.119514e-003	-5.455443e+001	-6.362008e+001	4.025017e+001	-2.000000e+002	0.000000e+000	-2.000000e+002	0.000000e+000
15699760.000	3.945413e-003	-5.690184e+001	-6.286979e+001	3.719105e+001	-2.000000e+002	0.000000e+000	-2.000000e+002	0.000000e+000
16349750.000	2.720036e-003	-5.925890e+001	-6.265958e+001	3.634085e+001	-2.000000e+002	0.000000e+000	-2.000000e+002	0.000000e+000
16999740.000	2.147941e-004	-6.162682e+001	-6.239262e+001	3.554919e+001	-2.000000e+002	0.000000e+000	-2.000000e+002	0.000000e+000
17649730.000	4.733622e-003	-6.399813e+001	-6.190713e+001	3.611010e+001	-2.000000e+002	0.000000e+000	-2.000000e+002	0.000000e+000
18299720.000	5.723451e-003	-6.637530e+001	-6.089999e+001	3.109644e+001	-2.000000e+002	0.000000e+000	-2.000000e+002	0.000000e+000
18949710.000	3.055121e-003	-6.874932e+001	-6.033755e+001	2.546745e+001	-2.000000e+002	0.000000e+000	-2.000000e+002	0.000000e+000
19599700.000	-5.509250e-003	-7.112361e+001	-6.039485e+001	2.419849e+001	-2.000000e+002	0.000000e+000	-2.000000e+002	0.000000e+000
20249690.000	-1.181395e-002	-7.350426e+001	-6.000993e+001	1.942972e+001	-2.000000e+002	0.000000e+000	-2.000000e+002	0.000000e+000
20899680.000	-1.586935e-002	-7.590945e+001	-5.964495e+001	1.612769e+001	-2.000000e+002	0.000000e+000	-2.000000e+002	0.000000e+000
21549670.000	-2.038222e-002	-7.829831e+001	-5.940331e+001	1.468024e+001	-2.000000e+002	0.000000e+000	-2.000000e+002	0.000000e+000
22199660.000	-2.480867e-002	-8.067696e+001	-5.922059e+001	1.438237e+001	-2.000000e+002	0.000000e+000	-2.000000e+002	0.000000e+000
22849650.000	-2.961430e-002	-8.304171e+001	-5.897247e+001	1.164375e+001	-2.000000e+002	0.000000e+000	-2.000000e+002	0.000000e+000
23499640.000	-3.531011e-002	-8.542937e+001	-5.886282e+001	1.125478e+001	-2.000000e+002	0.000000e+000	-2.000000e+002	0.000000e+000
24149630.000	-4.249815e-002	-8.782759e+001	-5.844180e+001	9.495495e+000	-2.000000e+002	0.000000e+000	-2.000000e+002	0.000000e+000
24799620.000	-4.821395e-002	-9.021648e+001	-5.781203e+001	9.124605e+000	-2.000000e+002	0.000000e+000	-2.000000e+002	0.000000e+000
25449610.000	-5.281444e-002	-9.260152e+001	-5.738461e+001	5.792835e+000	-2.000000e+002	0.000000e+000	-2.000000e+002	0.000000e+000
26099600.000	-5.862799e-002	-9.499366e+001	-5.690848e+001	2.977132e+000	-2.000000e+002	0.000000e+000	-2.000000e+002	0.000000e+000
26749590.000	-6.559403e-002	-9.739153e+001	-5.651059e+001	6.228398e-001	-2.000000e+002	0.000000e+000	-2.000000e+002	0.000000e+000
27399580.000	-7.195652e-002	-9.979336e+001	-5.609942e+001	-2.971985e+000	-2.000000e+002	0.000000e+000	-2.000000e+002	0.000000e+000
28049570.000	-7.824355e-002	-1.021960e+002	-5.581092e+001	-5.163269e+000	-2.000000e+002	0.000000e+000	-2.000000e+002	0.000000e+000
28699560.000	-8.487946e-002	-1.045973e+002	-5.540812e+001	-8.564163e+000	-2.000000e+002	0.000000e+000	-2.000000e+002	0.000000e+000
29349550.000	-9.199802e-002	-1.070058e+002	-5.501167e+001	-1.112038e+001	-2.000000e+002	0.000000e+000	-2.000000e+002	0.000000e+000
29999540.000	-9.851342e-002	-1.094155e+002	-5.476160e+001	-1.275553e+001	-2.000000e+002	0.000000e+000	-2.000000e+002	0.000000e+000
30649530.000	-1.058758e-001	-1.118354e+002	-5.461719e+001	-1.601497e+001	-2.000000e+002	0.000000e+000	-2.000000e+002	0.000000e+000
31299520.000	-1.127349e-001	-1.142585e+002	-5.446182e+001	-1.866859e+001	-2.000000e+002	0.000000e+000	-2.000000e+002	0.000000e+000
31949510.000	-1.206226e-001	-1.166808e+002	-5.422066e+001	-1.947981e+001	-2.000000e+002	0.000000e+000	-2.000000e+002	0.000000e+000
32599500.000	-1.291853e-001	-1.191111e+002	-5.407763e+001	-2.036252e+001	-2.000000e+002	0.000000e+000	-2.000000e+002	0.000000e+000
33249490.000	-1.379674e-001	-1.215420e+002	-5.387432e+001	-1.957294e+001	-2.000000e+002	0.000000e+000	-2.000000e+002	0.000000e+000
33899480.000	-1.480822e-001	-1.239762e+002	-5.340340e+001	-1.662573e+001	-2.000000e+002	0.000000e+000	-2.000000e+002	0.000000e+000
34549470.000	-1.595204e-001	-1.263981e+002	-5.230092e+001	-1.451784e+001	-2.000000e+002	0.000000e+000	-2.000000e+002	0.000000e+000
35199460.000	-1.713429e-001	-1.288098e+002	-5.040745e+001	-1.379870e+001	-2.000000e+002	0.000000e+000	-2.000000e+002	0.000000e+000
35849450.000	-1.780561e-001	-1.312183e+002	-4.887943e+001	-2.127998e+001	-2.000000e+002	0.000000e+000	-2.000000e+002	0.000000e+000
36499440.000	-1.840727e-001	-1.336462e+002	-4.791786e+001	-2.901575e+001	-2.000000e+002	0.000000e+000	-2.000000e+002	0.000000e+000
37149430.000	-1.901461e-001	-1.360905e+002	-4.726386e+001	-3.626939e+001	-2.000000e+002	0.000000e+000	-2.000000e+002	0.000000e+000
37799420.000	-1.971305e-001	-1.385436e+002	-4.689269e+001	-4.267257e+001	-2.000000e+002	0.000000e+000	-2.000000e+002	0.000000e+000
38449410.000	-2.043885e-001	-1.410035e+002	-4.642692e+001	-4.746773e+001	-2.000000e+002	0.000000e+000	-2.000000e+002	0.000000e+000
39099400.000	-2.129037e-001	-1.434724e+002	-4.594506e+001	-5.170575e+001	-2.000000e+002	0.000000e+000	-2.000000e+002	0.000000e+000
39749390.000	-2.211974e-001	-1.459471e+002	-4.533294e+001	-5.524167e+001	-2.000000e+002	0.000000e+000	-2.000000e+002	0.000000e+000
40399380.000	-2.310441e-001	-1.484293e+002	-4.452071e+001	-5.887365e+001	-2.000000e+002	0.000000e+000	-2.000000e+002	0.000000e+000
41049370.000	-2.408484e-001	-1.509237e+002	-4.367547e+001	-6.220214e+001	-2.000000e+002	0.000000e+000	-2.000000e+002	0.000000e+000
41699360.000	-2.516535e-001	-1.534307e+002	-4.251164e+001	-6.594856e+001	-2.000000e+002	0.000000e+000	-2.000000e+002	0.000000e+000
42349350.000	-2.643723e-001	-1.559663e+002	-4.115853e+001	-6.993679e+001	-2.000000e+002	0.000000e+000	-2.000000e+002	0.000000e+000
42999340.000	-2.803896e-001	-1.585386e+002	-3.947059e+001	-7.510540e+001	-2.000000e+002	0.000000e+000	-2.000000e+002	0.000000e+000
43649330.000	-3.036378e-001	-1.611754e+002	-3.724246e+001	-8.161407e+001	-2.000000e+002	0.000000e+000	-2.000000e+002	0.000000e+000
44299320.000	-3.488591e-001	-1.639406e+002	-3.428620e+001	-9.190993e+001	-2.000000e+002	0.000000e+000	-2.000000e+002	0.000000e+000
44949310.000	-4.790028e-001	-1.668536e+002	-3.019629e+001	-1.120349e+002	-2.000000e+002	0.000000e+000	-2.000000e+002	0.000000e+000
45599300.000	-7.988775e-001	-1.680261e+002	-2.647669e+001	-1.617681e+002	-2.000000e+002	0.000000e+000	-2.000000e+002	0.000000e+000
46249290.000	-5.495999e-001	-1.684317e+002	-2.989545e+001	1.428764e+002	-2.000000e+002	0.000000e+000	-2.000000e+002	0.000000e+000
46899280.000	-4.025263e-001	-1.712580e+002	-3.461525e+001	1.195423e+002	-2.000000e+002	0.000000e+000	-2.000000e+002	0.000000e+000
47549270.000	-3.627588e-001	-1.740346e+002	-3.821517e+001	1.078254e+002	-2.000000e+002	0.000000e+000	-2.000000e+002	0.000000e+000
48199260.000	-3.506089e-001	-1.766850e+002	-4.102530e+001	1.001495e+002	-2.000000e+002	0.000000e+000	-2.000000e+002	0.000000e+000
48849250.000	-3.481455e-001	-1.792646e+002	-4.332338e+001	9.371065e+001	-2.000000e+002	0.000000e+000	-2.000000e+002	0.000000e+000
49499240.000	-3.499783e-001	1.781974e+002	-4.543730e+001	8.833105e+001	-2.000000e+002	0.000000e+000	-2.000000e+002	0.000000e+000
50149230.000	-3.535578e-001	1.756865e+002	-4.732096e+001	8.364154e+001	-2.000000e+002	0.000000e+000	-2.000000e+002	0.000000e+000
50799220.000	-3.579757e-001	1.731873e+002	-4.899242e+001	7.935938e+001	-2.000000e+002	0.000000e+000	-2.000000e+002	0.000000e+000
51449210.000	-3.627161e-001	1.706969e+002	-5.050063e+001	7.542280e+001	-2.000000e+002	0.000000e+000	-2.000000e+002	0.000000e+000
52099200.000	-3.673390e-001	1.682154e+002	-5.188598e+001	7.146778e+001	-2.000000e+002	0.000000e+000	-2.000000e+002	0.000000e+000
52749190.000	-3.730573e-001	1.657398e+002	-5.333892e+001	6.630551e+001	-2.000000e+002	0.000000e+000	-2.000000e+002	0.000000e+000
53399180.000	-3.779499e-001	1.632709e+002	-5.482192e+001	6.210948e+001	-2.000000e+002	0.000000e+000	-2.000000e+002	0.000000e+000
54049170.000	-3.834651e-001	1.608037e+002	-5.616169e+001	5.906072e+001	-2.000000e+002	0.000000e+000	-2.000000e+002	0.000000e+000
54699160.000	-3.887517e-001	1.583369e+002	-5.724264e+001	5.467624e+001	-2.000000e+002	0.000000e+000	-2.000000e+002	0.000000e+000
55349150.000	-3.946586e-001	1.558737e+002	-5.843853e+001	5.041383e+001	-2.000000e+002	0.000000e+000	-2.000000e+002	0.000000e+000
55999140.000	-4.002068e-001	1.534178e+002	-5.947974e+001	4.328770e+001	-2.000000e+002	0.000000e+000	-2.000000e+002	0.000000e+000
56649130.000	-4.055905e-001	1.509630e+002	-6.026139e+001	3.480307e+001	-2.000000e+002	0.000000e+000	-2.000000e+002	0.000000e+000
57299120.000	-4.112843e-001	1.485097e+002	-6.136426e+001	3.084224e+001	-2.000000e+002	0.000000e+000	-2.000000e+002	0.000000e+000
57949110.000	-4.164446e-001	1.460574e+002	-6.177136e+001	2.222378e+001	-2.000000e+002	0.000000e+000	-2.000000e+002	0.000000e+000
58599100.000	-4.213311e-001	1.436057e+002	-6.191772e+001	1.443706e+001	-2.000000e+002	0.000000e+000	-2.000000e+002	0.000000e+000
59249090.000	-4.273155e-001	1.411643e+002	-6.132874e+001	1.460544e+000	-2.000000e+002	0.000000e+000	-2.000000e+002	0.000000e+000
59899080.000	-4.327769e-001	1.387218e+002	-6.041396e+001	-1.567159e+001	-2.000000e+002	0.000000e+000	-2.000000e+002	0.000000e+000
60549070.000	-4.383427e-001	1.362882e+002	-5.965252e+001	-3.249078e+001	-2.000000e+002	0.000000e+000	-2.000000e+002	0.000000e+000
61199060.000	-4.433838e-001	1.338672e+002	-5.900350e+001	-5.637518e+001	-2.000000e+002	0.000000e+000	-2.000000e+002	0.000000e+000
61849050.000	-4.466831e-001	1.314398e+002	-5.918868e+001	-7.804346e+001	-2.000000e+002	0.000000e+000	-2.000000e+002	0.000000e+000
62499040.000	-4.491146e-001	1.290083e+002	-5.948076e+001	-9.161935e+001	-2.000000e+002	0.000000e+000	-2.000000e+002	0.000000e+000
63149030.000	-4.517884e-001	1.265780e+002	-5.992244e+001	-1.022693e+002	-2.000000e+002	0.000000e+000	-2.000000e+002	0.000000e+000
63799020.000	-4.549203e-001	1.241478e+002	-5.979868e+001	-1.094744e+002	-2.000000e+002	0.000000e+000	-2.000000e+002	0.000000e+000
64449010.000	-4.583911e-001	1.217228e+002	-5.973125e+001	-1.173072e+002	-2.000000e+002	0.000000e+000	-2.000000e+002	0.000000e+000
65099000.000	-4.603694e-001	1.192963e+002	-5.997256e+001	-1.219865e+002	-2.000000e+002	0.000000e+000	-2.000000e+002	0.000000e+000
65748990.000	-4.630309e-001	1.168686e+002	-5.959400e+001	-1.283418e+002	-2.000000e+002	0.000000e+000	-2.000000e+002	0.000000e+000
66398980.000	-4.657206e-001	1.144467e+002	-5.989934e+001	-1.322266e+002	-2.000000e+002	0.000000e+000	-2.000000e+002	0.000000e+000
67048970.000	-4.683476e-001	1.120274e+002	-5.937638e+001	-1.352411e+002	-2.000000e+002	0.000000e+000	-2.000000e+002	0.000000e+000
67698960.000	-4.708617e-001	1.096079e+002	-5.948567e+001	-1.400773e+002	-2.000000e+002	0.000000e+000	-2.000000e+002	0.000000e+000
68348950.000	-4.727844e-001	1.071926e+002	-5.900866e+001	-1.426559e+002	-2.000000e+002	0.000000e+000	-2.000000e+002	0.000000e+000
68998940.000	-4.752167e-001	1.047814e+002	-5.900535e+001	-1.462646e+002	-2.000000e+002	0.000000e+000	-2.000000e+002	0.000000e+000
69648930.000	-4.773264e-001	1.023675e+002	-5.887084e+001	-1.479029e+002	-2.000000e+002	0.000000e+000	-2.000000e+002	0.000000e+000
70298920.000	-4.779581e-001	9.994885e+001	-5.861860e+001	-1.509799e+002	-2.000000e+002	0.000000e+000	-2.000000e+002	0.000000e+000
70948910.000	-4.805679e-001	9.754236e+001	-5.850177e+001	-1.537148e+002	-2.000000e+002	0.000000e+000	-2.000000e+002	0.000000e+000
71598900.000	-4.807699e-001	9.513676e+001	-5.837127e+001	-1.563992e+002	-2.000000e+002	0.000000e+000	-2.000000e+002	0.000000e+000
72248890.000	-4.827412e-001	9.273424e+001	-5.805963e+001	-1.580122e+002	-2.000000e+002	0.000000e+000	-2.000000e+002	0.000000e+000
72898880.000	-4.843127e-001	9.033286e+001	-5.789645e+001	-1.610614e+002	-2.000000e+002	0.000000e+000	-2.000000e+002	0.000000e+000
73548870.000	-4.859226e-001	8.793744e+001	-5.759718e+001	-1.633886e+002	-2.000000e+002	0.000000e+000	-2.000000e+002	0.000000e+000
74198860.000	-4.866613e-001	8.553982e+001	-5.754258e+001	-1.655166e+002	-2.000000e+002	0.000000e+000	-2.000000e+002	0.000000e+000
74848850.000	-4.876086e-001	8.314624e+001	-5.724930e+001	-1.673994e+002	-2.000000e+002	0.000000e+000	-2.000000e+002	0.000000e+000
75498840.000	-4.879324e-001	8.075637e+001	-5.696654e+001	-1.694256e+002	-2.000000e+002	0.000000e+000	-2.000000e+002	0.000000e+000
76148830.000	-4.878547e-001	7.836948e+001	-5.669308e+001	-1.716946e+002	-2.000000e+002	0.000000e+000	-2.000000e+002	0.000000e+000
76798820.000	-4.876438e-001	7.598647e+001	-5.637543e+001	-1.742635e+002	-2.000000e+002	0.000000e+000	-2.000000e+002	0.000000e+000
77448810.000	-4.891571e-001	7.361678e+001	-5.612794e+001	-1.758704e+002	-2.000000e+002	0.000000e+000	-2.000000e+002	0.000000e+000
78098800.000	-4.889660e-001	7.123754e+001	-5.576943e+001	-1.782990e+002	-2.000000e+002	0.000000e+000	-2.000000e+002	0.000000e+000
78748790.000	-4.889620e-001	6.886252e+001	-5.541047e+001	1.781381e+002	-2.000000e+002	0.000000e+000	-2.000000e+002	0.000000e+000
79398780.000	-4.868324e-001	6.648461e+001	-5.517130e+001	1.745085e+002	-2.000000e+002	0.000000e+000	-2.000000e+002	0.000000e+000
80048770.000	-4.848900e-001	6.410439e+001	-5.506441e+001	1.705017e+002	-2.000000e+002	0.000000e+000	-2.000000e+002	0.000000e+000
80698760.000	-4.833939e-001	6.172614e+001	-5.496399e+001	1.673887e+002	-2.000000e+002	0.000000e+000	-2.000000e+002	0.000000e+000
81348750.000	-4.814140e-001	5.935774e+001	-5.495295e+001	1.646000e+002	-2.000000e+002	0.000000e+000	-2.000000e+002	0.000000e+000
81998740.000	-4.800013e-001	5.698387e+001	-5.487561e+001	1.613689e+002	-2.000000e+002	0.000000e+000	-2.000000e+002	0.000000e+000
82648730.000	-4.803326e-001	5.462532e+001	-5.480041e+001	1.594253e+002	-2.000000e+002	0.000000e+000	-2.000000e+002	0.000000e+000
83298720.000	-4.787032e-001	5.226051e+001	-5.472607e+001	1.560418e+002	-2.000000e+002	0.000000e+000	-2.000000e+002	0.000000e+000
83948710.000	-4.773029e-001	4.989574e+001	-5.470616e+001	1.541703e+002	-2.000000e+002	0.000000e+000	-2.000000e+002	0.000000e+000
84598700.000	-4.745887e-001	4.752512e+001	-5.467086e+001	1.517532e+002	-2.000000e+002	0.000000e+000	-2.000000e+002	0.000000e+000
85248690.000	-4.731664e-001	4.516337e+001	-5.445024e+001	1.498593e+002	-2.000000e+002	0.000000e+000	-2.000000e+002	0.000000e+000
85898680.000	-4.711263e-001	4.280525e+001	-5.446844e+001	1.470831e+002	-2.000000e+002	0.000000e+000	-2.000000e+002	0.000000e+000
86548670.000	-4.684677e-001	4.044775e+001	-5.444194e+001	1.447484e+002	-2.000000e+002	0.000000e+000	-2.000000e+002	0.000000e+000
87198660.000	-4.659397e-001	3.809085e+001	-5.441345e+001	1.425000e+002	-2.000000e+002	0.000000e+000	-2.000000e+002	0.000000e+000
87848650.000	-4.633666e-001	3.574070e+001	-5.438306e+001	1.400303e+002	-2.000000e+002	0.000000e+000	-2.000000e+002	0.000000e+000
88498640.000	-4.607590e-001	3.338720e+001	-5.442409e+001	1.382698e+002	-2.000000e+002	0.000000e+000	-2.000000e+002	0.000000e+000
89148630.000	-4.588626e-001	3.104004e+001	-5.436796e+001	1.372742e+002	-2.000000e+002	0.000000e+000	-2.000000e+002	0.000000e+000
89798620.000	-4.560384e-001	2.868600e+001	-5.428208e+001	1.358263e+002	-2.000000e+002	0.000000e+000	-2.000000e+002	0.000000e+000
90448610.000	-4.531980e-001	2.633813e+001	-5.417506e+001	1.342454e+002	-2.000000e+002	0.000000e+000	-2.000000e+002	0.000000e+000
91098600.000	-4.514534e-001	2.398848e+001	-5.394954e+001	1.328316e+002	-2.000000e+002	0.000000e+000	-2.000000e+002	0.000000e+000
91748590.000	-4.481753e-001	2.163809e+001	-5.392236e+001	1.305394e+002	-2.000000e+002	0.000000e+000	-2.000000e+002	0.000000e+000
92398580.000	-4.449352e-001	1.929204e+001	-5.369315e+001	1.285992e+002	-2.000000e+002	0.000000e+000	-2.000000e+002	0.000000e+000
93048570.000	-4.423530e-001	1.694737e+001	-5.363400e+001	1.258134e+002	-2.000000e+002	0.000000e+000	-2.000000e+002	0.000000e+000
93698560.000	-4.393229e-001	1.459845e+001	-5.349766e+001	1.244743e+002	-2.000000e+002	0.000000e+000	-2.000000e+002	0.000000e+000
94348550.000	-4.358993e-001	1.225093e+001	-5.340547e+001	1.228784e+002	-2.000000e+002	0.000000e+000	-2.000000e+002	0.000000e+000
94998540.000	-4.334377e-001	9.908642e+000	-5.331253e+001	1.208398e+002	-2.000000e+002	0.000000e+000	-2.000000e+002	0.000000e+000
95648530.000	-4.306700e-001	7.567272e+000	-5.330253e+001	1.191044e+002	-2.000000e+002	0.000000e+000	-2.000000e+002	0.000000e+000
96298520.000	-4.273327e-001	5.231672e+000	-5.330177e+001	1.169554e+002	-2.000000e+002	0.000000e+000	-2.000000e+002	0.000000e+000
96948510.000	-4.252803e-001	2.888922e+000	-5.323630e+001	1.162364e+002	-2.000000e+002	0.000000e+000	-2.000000e+002	0.000000e+000
97598500.000	-4.231792e-001	5.510469e-001	-5.310852e+001	1.159901e+002	-2.000000e+002	0.000000e+000	-2.000000e+002	0.000000e+000
98248490.000	-4.194246e-001	-1.784189e+000	-5.284016e+001	1.151115e+002	-2.000000e+002	0.000000e+000	-2.000000e+002	0.000000e+000
