!Keysight Technologies,E5063A,MY54503115,A.05.08
!Date: Sun Feb 04 18:55:45 2024
!Data & Calibration Information:
!Freq	S11:NONE(--)	S21:NONE(--)	S12:NONE(--)	S22:NONE(--)
# Hz S dB R 50
100000.000	4.812999e-002	-8.209147e-001	-8.037002e+001	-4.023195e+001	-2.000000e+002	0.000000e+000	-2.000000e+002	0.000000e+000
749990.000	8.929228e-003	-3.061263e+000	-8.248266e+001	-8.681590e+001	-2.000000e+002	0.000000e+000	-2.000000e+002	0.000000e+000
1399980.000	1.048764e-002	-5.372504e+000	-8.246272e+001	-1.777030e+002	-2.000000e+002	0.000000e+000	-2.000000e+002	0.000000e+000
2049970.000	1.024713e-002	-7.691877e+000	-8.351382e+001	1.110614e+002	-2.000000e+002	0.000000e+000	-2.000000e+002	0.000000e+000
2699960.000	1.113684e-002	-1.002682e+001	-8.152415e+001	9.995222e+001	-2.000000e+002	0.000000e+000	-2.000000e+002	0.000000e+000
3349950.000	1.477654e-002	-1.236272e+001	-8.090600e+001	1.002198e+002	-2.000000e+002	0.000000e+000	-2.000000e+002	0.000000e+000
3999940.000	1.398105e-002	-1.470235e+001	-7.691415e+001	5.828083e+001	-2.000000e+002	0.000000e+000	-2.000000e+002	0.000000e+000
4649930.000	1.666035e-002	-1.704011e+001	-7.780903e+001	1.015252e+002	-2.000000e+002	0.000000e+000	-2.000000e+002	0.000000e+000
5299920.000	1.426538e-002	-1.937389e+001	-7.406323e+001	7.456807e+001	-2.000000e+002	0.000000e+000	-2.000000e+002	0.000000e+000
5949910.000	1.448819e-002	-2.171743e+001	-7.174607e+001	8.536513e+001	-2.000000e+002	0.000000e+000	-2.000000e+002	0.000000e+000
6599900.000	1.386331e-002	-2.405908e+001	-7.239148e+001	6.744524e+001	-2.000000e+002	0.000000e+000	-2.000000e+002	0.000000e+000
7249890.000	1.404769e-002	-2.639362e+001	-7.118651e+001	7.710924e+001	-2.000000e+002	0.000000e+000	-2.000000e+002	0.000000e+000
7899880.000	1.329128e-002	-2.873995e+001	-7.095868e+001	6.351396e+001	-2.000000e+002	0.000000e+000	-2.000000e+002	0.000000e+000
8549870.000	1.781874e-002	-3.109116e+001	-7.064071e+001	6.826540e+001	-2.000000e+002	0.000000e+000	-2.000000e+002	0.000000e+000
9199860.000	1.678468e-002	-3.343442e+001	-6.955692e+001	6.538731e+001	-2.000000e+002	0.000000e+000	-2.000000e+002	0.000000e+000
9849850.000	1.612139e-002	-3.578208e+001	-6.922700e+001	5.716224e+001	-2.000000e+002	0.000000e+000	-2.000000e+002	0.000000e+000
10499840.000	1.270530e-002	-3.812261e+001	-6.816479e+001	5.934668e+001	-2.000000e+002	0.000000e+000	-2.000000e+002	0.000000e+000
11149830.000	1.038037e-002	-4.046972e+001	-6.731797e+001	5.312734e+001	-2.000000e+002	0.000000e+000	-2.000000e+002	0.000000e+000
11799820.000	8.890571e-003	-4.281570e+001	-6.757224e+001	5.539354e+001	-2.000000e+002	0.000000e+000	-2.000000e+002	0.000000e+000
12449810.000	8.813453e-003	-4.516996e+001	-6.635994e+001	5.367203e+001	-2.000000e+002	0.000000e+000	-2.000000e+002	0.000000e+000
13099800.000	9.999385e-003	-4.751762e+001	-6.619245e+001	5.000260e+001	-2.000000e+002	0.000000e+000	-2.000000e+002	0.000000e+000
13749790.000	7.024574e-003	-4.986266e+001	-6.553963e+001	5.137495e+001	-2.000000e+002	0.000000e+000	-2.000000e+002	0.000000e+000
14399780.000	4.485354e-003	-5.222685e+001	-6.526816e+001	4.729644e+001	-2.000000e+002	0.000000e+000	-2.000000e+002	0.000000e+000
15049770.000	4.559799e-003	-5.458024e+001	-6.480770e+001	4.558907e+001	-2.000000e+002	0.000000e+000	-2.000000e+002	0.000000e+000
15699760.000	2.835886e-003	-5.692920e+001	-6.451102e+001	4.273114e+001	-2.000000e+002	0.000000e+000	-2.000000e+002	0.000000e+000
16349750.000	1.597312e-003	-5.928535e+001	-6.407485e+001	4.373259e+001	-2.000000e+002	0.000000e+000	-2.000000e+002	0.000000e+000
16999740.000	-5.509938e-004	-6.165510e+001	-6.360639e+001	4.299106e+001	-2.000000e+002	0.000000e+000	-2.000000e+002	0.000000e+000
17649730.000	4.249748e-003	-6.402950e+001	-6.240910e+001	3.941888e+001	-2.000000e+002	0.000000e+000	-2.000000e+002	0.000000e+000
18299720.000	4.753672e-003	-6.640653e+001	-6.167326e+001	3.477459e+001	-2.000000e+002	0.000000e+000	-2.000000e+002	0.000000e+000
18949710.000	1.975460e-003	-6.878222e+001	-6.150983e+001	3.124272e+001	-2.000000e+002	0.000000e+000	-2.000000e+002	0.000000e+000
19599700.000	-6.474686e-003	-7.115658e+001	-6.095506e+001	2.704618e+001	-2.000000e+002	0.000000e+000	-2.000000e+002	0.000000e+000
20249690.000	-1.271738e-002	-7.353424e+001	-6.099248e+001	2.422489e+001	-2.000000e+002	0.000000e+000	-2.000000e+002	0.000000e+000
20899680.000	-1.705804e-002	-7.594377e+001	-6.090883e+001	2.057371e+001	-2.000000e+002	0.000000e+000	-2.000000e+002	0.000000e+000
21549670.000	-2.161829e-002	-7.833363e+001	-6.045917e+001	1.844830e+001	-2.000000e+002	0.000000e+000	-2.000000e+002	0.000000e+000
22199660.000	-2.672992e-002	-8.071326e+001	-6.015683e+001	1.816486e+001	-2.000000e+002	0.000000e+000	-2.000000e+002	0.000000e+000
22849650.000	-3.103263e-002	-8.307721e+001	-6.017692e+001	1.682264e+001	-2.000000e+002	0.000000e+000	-2.000000e+002	0.000000e+000
23499640.000	-3.777346e-002	-8.546994e+001	-5.997996e+001	1.630878e+001	-2.000000e+002	0.000000e+000	-2.000000e+002	0.000000e+000
24149630.000	-4.455778e-002	-8.786641e+001	-5.931102e+001	1.522449e+001	-2.000000e+002	0.000000e+000	-2.000000e+002	0.000000e+000
24799620.000	-5.042102e-002	-9.025435e+001	-5.849161e+001	1.413846e+001	-2.000000e+002	0.000000e+000	-2.000000e+002	0.000000e+000
25449610.000	-5.512999e-002	-9.264285e+001	-5.797305e+001	1.066985e+001	-2.000000e+002	0.000000e+000	-2.000000e+002	0.000000e+000
26099600.000	-6.137156e-002	-9.503742e+001	-5.751855e+001	8.330462e+000	-2.000000e+002	0.000000e+000	-2.000000e+002	0.000000e+000
26749590.000	-6.798824e-002	-9.743586e+001	-5.710024e+001	5.126096e+000	-2.000000e+002	0.000000e+000	-2.000000e+002	0.000000e+000
27399580.000	-7.440194e-002	-9.983960e+001	-5.669491e+001	2.125669e+000	-2.000000e+002	0.000000e+000	-2.000000e+002	0.000000e+000
28049570.000	-8.093259e-002	-1.022431e+002	-5.617812e+001	-1.287881e+000	-2.000000e+002	0.000000e+000	-2.000000e+002	0.000000e+000
28699560.000	-8.792448e-002	-1.046439e+002	-5.593369e+001	-4.270786e+000	-2.000000e+002	0.000000e+000	-2.000000e+002	0.000000e+000
29349550.000	-9.474270e-002	-1.070551e+002	-5.549401e+001	-5.226493e+000	-2.000000e+002	0.000000e+000	-2.000000e+002	0.000000e+000
29999540.000	-1.017847e-001	-1.094670e+002	-5.528252e+001	-1.012844e+001	-2.000000e+002	0.000000e+000	-2.000000e+002	0.000000e+000
30649530.000	-1.088452e-001	-1.118888e+002	-5.509250e+001	-1.255967e+001	-2.000000e+002	0.000000e+000	-2.000000e+002	0.000000e+000
31299520.000	-1.161763e-001	-1.143085e+002	-5.498033e+001	-1.438597e+001	-2.000000e+002	0.000000e+000	-2.000000e+002	0.000000e+000
31949510.000	-1.242783e-001	-1.167369e+002	-5.467682e+001	-1.559989e+001	-2.000000e+002	0.000000e+000	-2.000000e+002	0.000000e+000
32599500.000	-1.330654e-001	-1.191703e+002	-5.464210e+001	-1.589885e+001	-2.000000e+002	0.000000e+000	-2.000000e+002	0.000000e+000
33249490.000	-1.423793e-001	-1.216040e+002	-5.433394e+001	-1.474982e+001	-2.000000e+002	0.000000e+000	-2.000000e+002	0.000000e+000
33899480.000	-1.529995e-001	-1.240381e+002	-5.353672e+001	-1.055818e+001	-2.000000e+002	0.000000e+000	-2.000000e+002	0.000000e+000
34549470.000	-1.654144e-001	-1.264610e+002	-5.212394e+001	-7.857497e+000	-2.000000e+002	0.000000e+000	-2.000000e+002	0.000000e+000
35199460.000	-1.773260e-001	-1.288698e+002	-4.993402e+001	-9.592246e+000	-2.000000e+002	0.000000e+000	-2.000000e+002	0.000000e+000
35849450.000	-1.839669e-001	-1.312774e+002	-4.839865e+001	-1.912368e+001	-2.000000e+002	0.000000e+000	-2.000000e+002	0.000000e+000
36499440.000	-1.893476e-001	-1.337041e+002	-4.751969e+001	-2.832605e+001	-2.000000e+002	0.000000e+000	-2.000000e+002	0.000000e+000
37149430.000	-1.949955e-001	-1.361517e+002	-4.698981e+001	-3.587983e+001	-2.000000e+002	0.000000e+000	-2.000000e+002	0.000000e+000
37799420.000	-2.018960e-001	-1.386132e+002	-4.656778e+001	-4.244673e+001	-2.000000e+002	0.000000e+000	-2.000000e+002	0.000000e+000
38449410.000	-2.095281e-001	-1.410794e+002	-4.604155e+001	-4.713270e+001	-2.000000e+002	0.000000e+000	-2.000000e+002	0.000000e+000
39099400.000	-2.183798e-001	-1.435526e+002	-4.546021e+001	-5.177587e+001	-2.000000e+002	0.000000e+000	-2.000000e+002	0.000000e+000
39749390.000	-2.273983e-001	-1.460381e+002	-4.472998e+001	-5.570034e+001	-2.000000e+002	0.000000e+000	-2.000000e+002	0.000000e+000
40399380.000	-2.378703e-001	-1.485311e+002	-4.381344e+001	-5.935135e+001	-2.000000e+002	0.000000e+000	-2.000000e+002	0.000000e+000
41049370.000	-2.491913e-001	-1.510426e+002	-4.274750e+001	-6.362675e+001	-2.000000e+002	0.000000e+000	-2.000000e+002	0.000000e+000
41699360.000	-2.627595e-001	-1.535723e+002	-4.134363e+001	-6.796437e+001	-2.000000e+002	0.000000e+000	-2.000000e+002	0.000000e+000
42349350.000	-2.802426e-001	-1.561439e+002	-3.964525e+001	-7.312031e+001	-2.000000e+002	0.000000e+000	-2.000000e+002	0.000000e+000
42999340.000	-3.056056e-001	-1.587729e+002	-3.743864e+001	-7.993893e+001	-2.000000e+002	0.000000e+000	-2.000000e+002	0.000000e+000
43649330.000	-3.539833e-001	-1.615098e+002	-3.449266e+001	-9.041948e+001	-2.000000e+002	0.000000e+000	-2.000000e+002	0.000000e+000
44299320.000	-4.849081e-001	-1.643362e+002	-3.042953e+001	-1.107136e+002	-2.000000e+002	0.000000e+000	-2.000000e+002	0.000000e+000
44949310.000	-7.691947e-001	-1.654561e+002	-2.674610e+001	-1.596980e+002	-2.000000e+002	0.000000e+000	-2.000000e+002	0.000000e+000
45599300.000	-5.270287e-001	-1.660782e+002	-2.990930e+001	1.454388e+002	-2.000000e+002	0.000000e+000	-2.000000e+002	0.000000e+000
46249290.000	-3.892957e-001	-1.689139e+002	-3.449709e+001	1.212869e+002	-2.000000e+002	0.000000e+000	-2.000000e+002	0.000000e+000
46899280.000	-3.538578e-001	-1.716838e+002	-3.802495e+001	1.088652e+002	-2.000000e+002	0.000000e+000	-2.000000e+002	0.000000e+000
47549270.000	-3.440436e-001	-1.743303e+002	-4.080091e+001	1.004689e+002	-2.000000e+002	0.000000e+000	-2.000000e+002	0.000000e+000
48199260.000	-3.425217e-001	-1.769066e+002	-4.303788e+001	9.393316e+001	-2.000000e+002	0.000000e+000	-2.000000e+002	0.000000e+000
48849250.000	-3.451669e-001	-1.794421e+002	-4.498381e+001	8.825438e+001	-2.000000e+002	0.000000e+000	-2.000000e+002	0.000000e+000
49499240.000	-3.490425e-001	1.780440e+002	-4.672609e+001	8.284967e+001	-2.000000e+002	0.000000e+000	-2.000000e+002	0.000000e+000
50149230.000	-3.541609e-001	1.755444e+002	-4.830920e+001	7.838113e+001	-2.000000e+002	0.000000e+000	-2.000000e+002	0.000000e+000
50799220.000	-3.592318e-001	1.730596e+002	-4.984343e+001	7.412238e+001	-2.000000e+002	0.000000e+000	-2.000000e+002	0.000000e+000
51449210.000	-3.652361e-001	1.705733e+002	-5.107927e+001	6.996707e+001	-2.000000e+002	0.000000e+000	-2.000000e+002	0.000000e+000
52099200.000	-3.709481e-001	1.680994e+002	-5.229436e+001	6.520223e+001	-2.000000e+002	0.000000e+000	-2.000000e+002	0.000000e+000
52749190.000	-3.764654e-001	1.656278e+002	-5.326653e+001	6.052690e+001	-2.000000e+002	0.000000e+000	-2.000000e+002	0.000000e+000
53399180.000	-3.820594e-001	1.631603e+002	-5.442734e+001	5.408498e+001	-2.000000e+002	0.000000e+000	-2.000000e+002	0.000000e+000
54049170.000	-3.874786e-001	1.606957e+002	-5.546384e+001	4.919249e+001	-2.000000e+002	0.000000e+000	-2.000000e+002	0.000000e+000
54699160.000	-3.933024e-001	1.582296e+002	-5.649422e+001	4.600731e+001	-2.000000e+002	0.000000e+000	-2.000000e+002	0.000000e+000
55349150.000	-3.994983e-001	1.557712e+002	-5.728338e+001	3.993712e+001	-2.000000e+002	0.000000e+000	-2.000000e+002	0.000000e+000
55999140.000	-4.049303e-001	1.533142e+002	-5.774163e+001	3.329312e+001	-2.000000e+002	0.000000e+000	-2.000000e+002	0.000000e+000
56649130.000	-4.108409e-001	1.508604e+002	-5.833550e+001	2.732610e+001	-2.000000e+002	0.000000e+000	-2.000000e+002	0.000000e+000
57299120.000	-4.162188e-001	1.484093e+002	-5.928231e+001	2.154446e+001	-2.000000e+002	0.000000e+000	-2.000000e+002	0.000000e+000
57949110.000	-4.215556e-001	1.459587e+002	-5.919225e+001	1.432779e+001	-2.000000e+002	0.000000e+000	-2.000000e+002	0.000000e+000
58599100.000	-4.272960e-001	1.435051e+002	-5.902784e+001	6.336239e+000	-2.000000e+002	0.000000e+000	-2.000000e+002	0.000000e+000
59249090.000	-4.324640e-001	1.410648e+002	-5.900962e+001	-4.193926e+000	-2.000000e+002	0.000000e+000	-2.000000e+002	0.000000e+000
59899080.000	-4.379847e-001	1.386214e+002	-5.811343e+001	-1.814544e+001	-2.000000e+002	0.000000e+000	-2.000000e+002	0.000000e+000
60549070.000	-4.437171e-001	1.361931e+002	-5.733689e+001	-3.425747e+001	-2.000000e+002	0.000000e+000	-2.000000e+002	0.000000e+000
61199060.000	-4.485531e-001	1.337691e+002	-5.742265e+001	-5.084569e+001	-2.000000e+002	0.000000e+000	-2.000000e+002	0.000000e+000
61849050.000	-4.514965e-001	1.313397e+002	-5.807210e+001	-6.755006e+001	-2.000000e+002	0.000000e+000	-2.000000e+002	0.000000e+000
62499040.000	-4.540372e-001	1.289074e+002	-5.897428e+001	-8.043191e+001	-2.000000e+002	0.000000e+000	-2.000000e+002	0.000000e+000
63149030.000	-4.571615e-001	1.264759e+002	-5.959876e+001	-8.843656e+001	-2.000000e+002	0.000000e+000	-2.000000e+002	0.000000e+000
63799020.000	-4.598795e-001	1.240437e+002	-5.993352e+001	-9.557024e+001	-2.000000e+002	0.000000e+000	-2.000000e+002	0.000000e+000
64449010.000	-4.637339e-001	1.216186e+002	-6.033181e+001	-1.014197e+002	-2.000000e+002	0.000000e+000	-2.000000e+002	0.000000e+000
65099000.000	-4.660450e-001	1.191872e+002	-6.063502e+001	-1.080173e+002	-2.000000e+002	0.000000e+000	-2.000000e+002	0.000000e+000
65748990.000	-4.683900e-001	1.167604e+002	-6.106187e+001	-1.120576e+002	-2.000000e+002	0.000000e+000	-2.000000e+002	0.000000e+000
66398980.000	-4.715686e-001	1.143357e+002	-6.107097e+001	-1.159019e+002	-2.000000e+002	0.000000e+000	-2.000000e+002	0.000000e+000
67048970.000	-4.736989e-001	1.119106e+002	-6.152160e+001	-1.192019e+002	-2.000000e+002	0.000000e+000	-2.000000e+002	0.000000e+000
67698960.000	-4.769716e-001	1.094969e+002	-6.115112e+001	-1.216251e+002	-2.000000e+002	0.000000e+000	-2.000000e+002	0.000000e+000
68348950.000	-4.788451e-001	1.070769e+002	-6.116444e+001	-1.240415e+002	-2.000000e+002	0.000000e+000	-2.000000e+002	0.000000e+000
68998940.000	-4.815849e-001	1.046648e+002	-6.092847e+001	-1.251505e+002	-2.000000e+002	0.000000e+000	-2.000000e+002	0.000000e+000
69648930.000	-4.830879e-001	1.022466e+002	-6.082599e+001	-1.278395e+002	-2.000000e+002	0.000000e+000	-2.000000e+002	0.000000e+000
70298920.000	-4.845138e-001	9.983160e+001	-6.034012e+001	-1.295689e+002	-2.000000e+002	0.000000e+000	-2.000000e+002	0.000000e+000
70948910.000	-4.868871e-001	9.741950e+001	-6.020871e+001	-1.326427e+002	-2.000000e+002	0.000000e+000	-2.000000e+002	0.000000e+000
71598900.000	-4.879414e-001	9.501486e+001	-6.008283e+001	-1.343148e+002	-2.000000e+002	0.000000e+000	-2.000000e+002	0.000000e+000
72248890.000	-4.897750e-001	9.260974e+001	-5.956160e+001	-1.353465e+002	-2.000000e+002	0.000000e+000	-2.000000e+002	0.000000e+000
72898880.000	-4.915531e-001	9.021152e+001	-5.916955e+001	-1.382233e+002	-2.000000e+002	0.000000e+000	-2.000000e+002	0.000000e+000
73548870.000	-4.931829e-001	8.781372e+001	-5.891612e+001	-1.393659e+002	-2.000000e+002	0.000000e+000	-2.000000e+002	0.000000e+000
74198860.000	-4.942018e-001	8.541907e+001	-5.847984e+001	-1.428021e+002	-2.000000e+002	0.000000e+000	-2.000000e+002	0.000000e+000
74848850.000	-4.951733e-001	8.302486e+001	-5.811957e+001	-1.450814e+002	-2.000000e+002	0.000000e+000	-2.000000e+002	0.000000e+000
75498840.000	-4.960529e-001	8.063517e+001	-5.781954e+001	-1.469447e+002	-2.000000e+002	0.000000e+000	-2.000000e+002	0.000000e+000
76148830.000	-4.958061e-001	7.824852e+001	-5.730591e+001	-1.512837e+002	-2.000000e+002	0.000000e+000	-2.000000e+002	0.000000e+000
76798820.000	-4.952560e-001	7.586192e+001	-5.703588e+001	-1.541315e+002	-2.000000e+002	0.000000e+000	-2.000000e+002	0.000000e+000
77448810.000	-4.969620e-001	7.349204e+001	-5.680999e+001	-1.573803e+002	-2.000000e+002	0.000000e+000	-2.000000e+002	0.000000e+000
78098800.000	-4.969392e-001	7.111134e+001	-5.653434e+001	-1.607613e+002	-2.000000e+002	0.000000e+000	-2.000000e+002	0.000000e+000
78748790.000	-4.962045e-001	6.873498e+001	-5.617356e+001	-1.648972e+002	-2.000000e+002	0.000000e+000	-2.000000e+002	0.000000e+000
79398780.000	-4.940013e-001	6.635622e+001	-5.598083e+001	-1.692033e+002	-2.000000e+002	0.000000e+000	-2.000000e+002	0.000000e+000
80048770.000	-4.925859e-001	6.397198e+001	-5.597834e+001	-1.731412e+002	-2.000000e+002	0.000000e+000	-2.000000e+002	0.000000e+000
80698760.000	-4.907465e-001	6.159589e+001	-5.600121e+001	-1.764238e+002	-2.000000e+002	0.000000e+000	-2.000000e+002	0.000000e+000
81348750.000	-4.898088e-001	5.922321e+001	-5.597412e+001	-1.788939e+002	-2.000000e+002	0.000000e+000	-2.000000e+002	0.000000e+000
81998740.000	-4.884054e-001	5.684632e+001	-5.604473e+001	1.786799e+002	-2.000000e+002	0.000000e+000	-2.000000e+002	0.000000e+000
82648730.000	-4.881216e-001	5.448964e+001	-5.598450e+001	1.766147e+002	-2.000000e+002	0.000000e+000	-2.000000e+002	0.000000e+000
83298720.000	-4.869193e-001	5.212055e+001	-5.598732e+001	1.734979e+002	-2.000000e+002	0.000000e+000	-2.000000e+002	0.000000e+000
83948710.000	-4.856699e-001	4.975445e+001	-5.587121e+001	1.718663e+002	-2.000000e+002	0.000000e+000	-2.000000e+002	0.000000e+000
84598700.000	-4.832908e-001	4.738451e+001	-5.586206e+001	1.703896e+002	-2.000000e+002	0.000000e+000	-2.000000e+002	0.000000e+000
85248690.000	-4.813515e-001	4.501949e+001	-5.579310e+001	1.691361e+002	-2.000000e+002	0.000000e+000	-2.000000e+002	0.000000e+000
85898680.000	-4.796192e-001	4.266130e+001	-5.561469e+001	1.665753e+002	-2.000000e+002	0.000000e+000	-2.000000e+002	0.000000e+000
86548670.000	-4.774132e-001	4.030245e+001	-5.546230e+001	1.644109e+002	-2.000000e+002	0.000000e+000	-2.000000e+002	0.000000e+000
87198660.000	-4.749709e-001	3.794309e+001	-5.552044e+001	1.627621e+002	-2.000000e+002	0.000000e+000	-2.000000e+002	0.000000e+000
87848650.000	-4.727983e-001	3.559212e+001	-5.552016e+001	1.613467e+002	-2.000000e+002	0.000000e+000	-2.000000e+002	0.000000e+000
88498640.000	-4.714078e-001	3.323720e+001	-5.525672e+001	1.602609e+002	-2.000000e+002	0.000000e+000	-2.000000e+002	0.000000e+000
89148630.000	-4.685867e-001	3.089017e+001	-5.527874e+001	1.590509e+002	-2.000000e+002	0.000000e+000	-2.000000e+002	0.000000e+000
89798620.000	-4.657998e-001	2.853740e+001	-5.500285e+001	1.578901e+002	-2.000000e+002	0.000000e+000	-2.000000e+002	0.000000e+000
90448610.000	-4.640380e-001	2.618490e+001	-5.478778e+001	1.571351e+002	-2.000000e+002	0.000000e+000	-2.000000e+002	0.000000e+000
91098600.000	-4.621462e-001	2.383713e+001	-5.442276e+001	1.554812e+002	-2.000000e+002	0.000000e+000	-2.000000e+002	0.000000e+000
91748590.000	-4.589801e-001	2.148782e+001	-5.421081e+001	1.535336e+002	-2.000000e+002	0.000000e+000	-2.000000e+002	0.000000e+000
92398580.000	-4.565958e-001	1.913778e+001	-5.395581e+001	1.514749e+002	-2.000000e+002	0.000000e+000	-2.000000e+002	0.000000e+000
93048570.000	-4.538757e-001	1.678931e+001	-5.396739e+001	1.498686e+002	-2.000000e+002	0.000000e+000	-2.000000e+002	0.000000e+000
93698560.000	-4.512141e-001	1.444165e+001	-5.355983e+001	1.472067e+002	-2.000000e+002	0.000000e+000	-2.000000e+002	0.000000e+000
94348550.000	-4.485806e-001	1.209536e+001	-5.334930e+001	1.452445e+002	-2.000000e+002	0.000000e+000	-2.000000e+002	0.000000e+000
94998540.000	-4.468228e-001	9.754484e+000	-5.324593e+001	1.431443e+002	-2.000000e+002	0.000000e+000	-2.000000e+002	0.000000e+000
95648530.000	-4.442938e-001	7.413108e+000	-5.297989e+001	1.412241e+002	-2.000000e+002	0.000000e+000	-2.000000e+002	0.000000e+000
96298520.000	-4.418230e-001	5.073298e+000	-5.282778e+001	1.401328e+002	-2.000000e+002	0.000000e+000	-2.000000e+002	0.000000e+000
96948510.000	-4.396168e-001	2.736924e+000	-5.258655e+001	1.395515e+002	-2.000000e+002	0.000000e+000	-2.000000e+002	0.000000e+000
97598500.000	-4.375317e-001	4.001018e-001	-5.215391e+001	1.374749e+002	-2.000000e+002	0.000000e+000	-2.000000e+002	0.000000e+000
98248490.000	-4.348358e-001	-1.936097e+000	-5.173949e+001	1.346474e+002	-2.000000e+002	0.000000e+000	-2.000000e+002	0.000000e+000
