!Keysight Technologies,E5063A,MY54503115,A.05.08
!Date: Sun Feb 04 18:26:55 2024
!Data & Calibration Information:
!Freq	S11:NONE(--)	S21:NONE(--)	S12:NONE(--)	S22:NONE(--)
# Hz S dB R 50
100000.000	4.571455e-002	-7.757094e-001	-8.485499e+001	9.071038e+001	-2.000000e+002	0.000000e+000	-2.000000e+002	0.000000e+000
749990.000	9.946037e-003	-3.047176e+000	-1.060653e+002	-1.557653e+002	-2.000000e+002	0.000000e+000	-2.000000e+002	0.000000e+000
1399980.000	1.186733e-002	-5.360371e+000	-7.944677e+001	1.414922e+002	-2.000000e+002	0.000000e+000	-2.000000e+002	0.000000e+000
2049970.000	1.115542e-002	-7.684806e+000	-7.562447e+001	9.720917e+001	-2.000000e+002	0.000000e+000	-2.000000e+002	0.000000e+000
2699960.000	1.140867e-002	-1.000558e+001	-7.794517e+001	8.070436e+001	-2.000000e+002	0.000000e+000	-2.000000e+002	0.000000e+000
3349950.000	1.513116e-002	-1.234353e+001	-7.629335e+001	9.540501e+001	-2.000000e+002	0.000000e+000	-2.000000e+002	0.000000e+000
3999940.000	1.493269e-002	-1.467520e+001	-7.506303e+001	6.850419e+001	-2.000000e+002	0.000000e+000	-2.000000e+002	0.000000e+000
4649930.000	1.737066e-002	-1.701498e+001	-7.349217e+001	8.720092e+001	-2.000000e+002	0.000000e+000	-2.000000e+002	0.000000e+000
5299920.000	1.416117e-002	-1.935524e+001	-7.209861e+001	7.382400e+001	-2.000000e+002	0.000000e+000	-2.000000e+002	0.000000e+000
5949910.000	1.463047e-002	-2.169036e+001	-7.200651e+001	6.951212e+001	-2.000000e+002	0.000000e+000	-2.000000e+002	0.000000e+000
6599900.000	1.511595e-002	-2.403269e+001	-7.147341e+001	6.392981e+001	-2.000000e+002	0.000000e+000	-2.000000e+002	0.000000e+000
7249890.000	1.530786e-002	-2.637686e+001	-6.850490e+001	6.418595e+001	-2.000000e+002	0.000000e+000	-2.000000e+002	0.000000e+000
7899880.000	1.440508e-002	-2.871362e+001	-6.927879e+001	6.296916e+001	-2.000000e+002	0.000000e+000	-2.000000e+002	0.000000e+000
8549870.000	1.919352e-002	-3.105918e+001	-6.781802e+001	5.887173e+001	-2.000000e+002	0.000000e+000	-2.000000e+002	0.000000e+000
9199860.000	1.812559e-002	-3.340557e+001	-6.734851e+001	5.618734e+001	-2.000000e+002	0.000000e+000	-2.000000e+002	0.000000e+000
9849850.000	1.707419e-002	-3.575137e+001	-6.672463e+001	5.488758e+001	-2.000000e+002	0.000000e+000	-2.000000e+002	0.000000e+000
10499840.000	1.485410e-002	-3.809590e+001	-6.640782e+001	5.456422e+001	-2.000000e+002	0.000000e+000	-2.000000e+002	0.000000e+000
11149830.000	1.152744e-002	-4.043517e+001	-6.544225e+001	5.279635e+001	-2.000000e+002	0.000000e+000	-2.000000e+002	0.000000e+000
11799820.000	9.948191e-003	-4.278352e+001	-6.541665e+001	4.660762e+001	-2.000000e+002	0.000000e+000	-2.000000e+002	0.000000e+000
12449810.000	9.816643e-003	-4.513472e+001	-6.509616e+001	4.960217e+001	-2.000000e+002	0.000000e+000	-2.000000e+002	0.000000e+000
13099800.000	1.117874e-002	-4.748074e+001	-6.395219e+001	4.461818e+001	-2.000000e+002	0.000000e+000	-2.000000e+002	0.000000e+000
13749790.000	8.862573e-003	-4.982272e+001	-6.375588e+001	4.278618e+001	-2.000000e+002	0.000000e+000	-2.000000e+002	0.000000e+000
14399780.000	5.673960e-003	-5.218727e+001	-6.334581e+001	4.006351e+001	-2.000000e+002	0.000000e+000	-2.000000e+002	0.000000e+000
15049770.000	6.051469e-003	-5.453809e+001	-6.317147e+001	3.908727e+001	-2.000000e+002	0.000000e+000	-2.000000e+002	0.000000e+000
15699760.000	4.372559e-003	-5.688659e+001	-6.256581e+001	3.501606e+001	-2.000000e+002	0.000000e+000	-2.000000e+002	0.000000e+000
16349750.000	3.288722e-003	-5.924308e+001	-6.237777e+001	3.527120e+001	-2.000000e+002	0.000000e+000	-2.000000e+002	0.000000e+000
16999740.000	1.196604e-003	-6.161469e+001	-6.182933e+001	3.131401e+001	-2.000000e+002	0.000000e+000	-2.000000e+002	0.000000e+000
17649730.000	5.987392e-003	-6.399080e+001	-6.128869e+001	3.188284e+001	-2.000000e+002	0.000000e+000	-2.000000e+002	0.000000e+000
18299720.000	6.614480e-003	-6.636385e+001	-6.043668e+001	2.874607e+001	-2.000000e+002	0.000000e+000	-2.000000e+002	0.000000e+000
18949710.000	3.969250e-003	-6.873953e+001	-5.996193e+001	2.522111e+001	-2.000000e+002	0.000000e+000	-2.000000e+002	0.000000e+000
19599700.000	-4.427386e-003	-7.111526e+001	-5.971059e+001	2.146778e+001	-2.000000e+002	0.000000e+000	-2.000000e+002	0.000000e+000
20249690.000	-1.119900e-002	-7.349419e+001	-5.959430e+001	1.923871e+001	-2.000000e+002	0.000000e+000	-2.000000e+002	0.000000e+000
20899680.000	-1.476473e-002	-7.590015e+001	-5.924709e+001	1.682700e+001	-2.000000e+002	0.000000e+000	-2.000000e+002	0.000000e+000
21549670.000	-1.915249e-002	-7.829348e+001	-5.918471e+001	1.438375e+001	-2.000000e+002	0.000000e+000	-2.000000e+002	0.000000e+000
22199660.000	-2.424234e-002	-8.066972e+001	-5.888496e+001	1.097124e+001	-2.000000e+002	0.000000e+000	-2.000000e+002	0.000000e+000
22849650.000	-2.890434e-002	-8.303435e+001	-5.878853e+001	1.044596e+001	-2.000000e+002	0.000000e+000	-2.000000e+002	0.000000e+000
23499640.000	-3.525690e-002	-8.542587e+001	-5.833937e+001	9.614188e+000	-2.000000e+002	0.000000e+000	-2.000000e+002	0.000000e+000
24149630.000	-4.217932e-002	-8.782239e+001	-5.803484e+001	8.651993e+000	-2.000000e+002	0.000000e+000	-2.000000e+002	0.000000e+000
24799620.000	-4.812080e-002	-9.020794e+001	-5.755663e+001	7.449510e+000	-2.000000e+002	0.000000e+000	-2.000000e+002	0.000000e+000
25449610.000	-5.216013e-002	-9.259412e+001	-5.711753e+001	4.439492e+000	-2.000000e+002	0.000000e+000	-2.000000e+002	0.000000e+000
26099600.000	-5.882194e-002	-9.498852e+001	-5.664797e+001	8.670302e-001	-2.000000e+002	0.000000e+000	-2.000000e+002	0.000000e+000
26749590.000	-6.579568e-002	-9.738676e+001	-5.636084e+001	-5.907368e-002	-2.000000e+002	0.000000e+000	-2.000000e+002	0.000000e+000
27399580.000	-7.235168e-002	-9.979241e+001	-5.600207e+001	-3.361514e+000	-2.000000e+002	0.000000e+000	-2.000000e+002	0.000000e+000
28049570.000	-7.824263e-002	-1.021927e+002	-5.561490e+001	-6.431026e+000	-2.000000e+002	0.000000e+000	-2.000000e+002	0.000000e+000
28699560.000	-8.526572e-002	-1.045935e+002	-5.518428e+001	-8.621785e+000	-2.000000e+002	0.000000e+000	-2.000000e+002	0.000000e+000
29349550.000	-9.176312e-002	-1.069999e+002	-5.507335e+001	-1.025992e+001	-2.000000e+002	0.000000e+000	-2.000000e+002	0.000000e+000
29999540.000	-9.925850e-002	-1.094115e+002	-5.468227e+001	-1.309093e+001	-2.000000e+002	0.000000e+000	-2.000000e+002	0.000000e+000
30649530.000	-1.060629e-001	-1.118336e+002	-5.458941e+001	-1.690139e+001	-2.000000e+002	0.000000e+000	-2.000000e+002	0.000000e+000
31299520.000	-1.132203e-001	-1.142526e+002	-5.445490e+001	-1.828231e+001	-2.000000e+002	0.000000e+000	-2.000000e+002	0.000000e+000
31949510.000	-1.207962e-001	-1.166767e+002	-5.438836e+001	-2.051801e+001	-2.000000e+002	0.000000e+000	-2.000000e+002	0.000000e+000
32599500.000	-1.292462e-001	-1.191081e+002	-5.419233e+001	-2.171166e+001	-2.000000e+002	0.000000e+000	-2.000000e+002	0.000000e+000
33249490.000	-1.381900e-001	-1.215362e+002	-5.418101e+001	-2.075695e+001	-2.000000e+002	0.000000e+000	-2.000000e+002	0.000000e+000
33899480.000	-1.483083e-001	-1.239733e+002	-5.393889e+001	-1.672673e+001	-2.000000e+002	0.000000e+000	-2.000000e+002	0.000000e+000
34549470.000	-1.600150e-001	-1.264020e+002	-5.303389e+001	-1.172262e+001	-2.000000e+002	0.000000e+000	-2.000000e+002	0.000000e+000
35199460.000	-1.728233e-001	-1.288114e+002	-5.100761e+001	-8.832717e+000	-2.000000e+002	0.000000e+000	-2.000000e+002	0.000000e+000
35849450.000	-1.805258e-001	-1.312115e+002	-4.904142e+001	-1.785844e+001	-2.000000e+002	0.000000e+000	-2.000000e+002	0.000000e+000
36499440.000	-1.859994e-001	-1.336304e+002	-4.825137e+001	-2.691528e+001	-2.000000e+002	0.000000e+000	-2.000000e+002	0.000000e+000
37149430.000	-1.917106e-001	-1.360706e+002	-4.767090e+001	-3.424190e+001	-2.000000e+002	0.000000e+000	-2.000000e+002	0.000000e+000
37799420.000	-1.977904e-001	-1.385202e+002	-4.728925e+001	-4.033794e+001	-2.000000e+002	0.000000e+000	-2.000000e+002	0.000000e+000
38449410.000	-2.051213e-001	-1.409751e+002	-4.701815e+001	-4.518148e+001	-2.000000e+002	0.000000e+000	-2.000000e+002	0.000000e+000
39099400.000	-2.127596e-001	-1.434383e+002	-4.662287e+001	-4.919861e+001	-2.000000e+002	0.000000e+000	-2.000000e+002	0.000000e+000
39749390.000	-2.210078e-001	-1.459049e+002	-4.624121e+001	-5.316042e+001	-2.000000e+002	0.000000e+000	-2.000000e+002	0.000000e+000
40399380.000	-2.296715e-001	-1.483758e+002	-4.565296e+001	-5.607493e+001	-2.000000e+002	0.000000e+000	-2.000000e+002	0.000000e+000
41049370.000	-2.388246e-001	-1.508549e+002	-4.507091e+001	-5.900292e+001	-2.000000e+002	0.000000e+000	-2.000000e+002	0.000000e+000
41699360.000	-2.482535e-001	-1.533389e+002	-4.428894e+001	-6.178168e+001	-2.000000e+002	0.000000e+000	-2.000000e+002	0.000000e+000
42349350.000	-2.592194e-001	-1.558332e+002	-4.340182e+001	-6.461463e+001	-2.000000e+002	0.000000e+000	-2.000000e+002	0.000000e+000
42999340.000	-2.702018e-001	-1.583437e+002	-4.239183e+001	-6.782349e+001	-2.000000e+002	0.000000e+000	-2.000000e+002	0.000000e+000
43649330.000	-2.828945e-001	-1.608730e+002	-4.106365e+001	-7.092166e+001	-2.000000e+002	0.000000e+000	-2.000000e+002	0.000000e+000
44299320.000	-2.983032e-001	-1.634307e+002	-3.943746e+001	-7.491925e+001	-2.000000e+002	0.000000e+000	-2.000000e+002	0.000000e+000
44949310.000	-3.182822e-001	-1.660438e+002	-3.737014e+001	-8.022773e+001	-2.000000e+002	0.000000e+000	-2.000000e+002	0.000000e+000
45599300.000	-3.508711e-001	-1.687521e+002	-3.470469e+001	-8.818058e+001	-2.000000e+002	0.000000e+000	-2.000000e+002	0.000000e+000
46249290.000	-4.272871e-001	-1.716585e+002	-3.106839e+001	-1.019395e+002	-2.000000e+002	0.000000e+000	-2.000000e+002	0.000000e+000
46899280.000	-7.052856e-001	-1.744286e+002	-2.615196e+001	-1.334900e+002	-2.000000e+002	0.000000e+000	-2.000000e+002	0.000000e+000
47549270.000	-7.873394e-001	-1.732557e+002	-2.567567e+001	1.582884e+002	-2.000000e+002	0.000000e+000	-2.000000e+002	0.000000e+000
48199260.000	-4.650735e-001	-1.757243e+002	-3.118225e+001	1.216638e+002	-2.000000e+002	0.000000e+000	-2.000000e+002	0.000000e+000
48849250.000	-3.900445e-001	-1.786887e+002	-3.544534e+001	1.069701e+002	-2.000000e+002	0.000000e+000	-2.000000e+002	0.000000e+000
49499240.000	-3.700799e-001	1.785679e+002	-3.865982e+001	9.841250e+001	-2.000000e+002	0.000000e+000	-2.000000e+002	0.000000e+000
50149230.000	-3.647256e-001	1.759390e+002	-4.120501e+001	9.224839e+001	-2.000000e+002	0.000000e+000	-2.000000e+002	0.000000e+000
50799220.000	-3.653308e-001	1.733743e+002	-4.335650e+001	8.724829e+001	-2.000000e+002	0.000000e+000	-2.000000e+002	0.000000e+000
51449210.000	-3.680389e-001	1.708354e+002	-4.517115e+001	8.292991e+001	-2.000000e+002	0.000000e+000	-2.000000e+002	0.000000e+000
52099200.000	-3.717156e-001	1.683252e+002	-4.690404e+001	7.864003e+001	-2.000000e+002	0.000000e+000	-2.000000e+002	0.000000e+000
52749190.000	-3.761472e-001	1.658307e+002	-4.843701e+001	7.516684e+001	-2.000000e+002	0.000000e+000	-2.000000e+002	0.000000e+000
53399180.000	-3.807501e-001	1.633437e+002	-4.996729e+001	7.078579e+001	-2.000000e+002	0.000000e+000	-2.000000e+002	0.000000e+000
54049170.000	-3.856505e-001	1.608610e+002	-5.143890e+001	6.783066e+001	-2.000000e+002	0.000000e+000	-2.000000e+002	0.000000e+000
54699160.000	-3.909140e-001	1.583860e+002	-5.271248e+001	6.428548e+001	-2.000000e+002	0.000000e+000	-2.000000e+002	0.000000e+000
55349150.000	-3.963689e-001	1.559135e+002	-5.387873e+001	6.057383e+001	-2.000000e+002	0.000000e+000	-2.000000e+002	0.000000e+000
55999140.000	-4.020561e-001	1.534501e+002	-5.516749e+001	5.638868e+001	-2.000000e+002	0.000000e+000	-2.000000e+002	0.000000e+000
56649130.000	-4.069648e-001	1.509912e+002	-5.599540e+001	5.338542e+001	-2.000000e+002	0.000000e+000	-2.000000e+002	0.000000e+000
57299120.000	-4.126237e-001	1.485321e+002	-5.704854e+001	4.864116e+001	-2.000000e+002	0.000000e+000	-2.000000e+002	0.000000e+000
57949110.000	-4.174540e-001	1.460769e+002	-5.808145e+001	4.440790e+001	-2.000000e+002	0.000000e+000	-2.000000e+002	0.000000e+000
58599100.000	-4.225359e-001	1.436211e+002	-5.847402e+001	3.514785e+001	-2.000000e+002	0.000000e+000	-2.000000e+002	0.000000e+000
59249090.000	-4.277038e-001	1.411732e+002	-5.907000e+001	2.905680e+001	-2.000000e+002	0.000000e+000	-2.000000e+002	0.000000e+000
59899080.000	-4.331417e-001	1.387271e+002	-5.921399e+001	1.689360e+001	-2.000000e+002	0.000000e+000	-2.000000e+002	0.000000e+000
60549070.000	-4.383941e-001	1.362884e+002	-5.899189e+001	5.149547e-001	-2.000000e+002	0.000000e+000	-2.000000e+002	0.000000e+000
61199060.000	-4.440181e-001	1.338575e+002	-5.939607e+001	-2.184550e+001	-2.000000e+002	0.000000e+000	-2.000000e+002	0.000000e+000
61849050.000	-4.478557e-001	1.314299e+002	-6.018344e+001	-4.786876e+001	-2.000000e+002	0.000000e+000	-2.000000e+002	0.000000e+000
62499040.000	-4.513883e-001	1.289993e+002	-6.088481e+001	-7.049478e+001	-2.000000e+002	0.000000e+000	-2.000000e+002	0.000000e+000
63149030.000	-4.536684e-001	1.265687e+002	-6.155312e+001	-8.553326e+001	-2.000000e+002	0.000000e+000	-2.000000e+002	0.000000e+000
63799020.000	-4.570253e-001	1.241402e+002	-6.279803e+001	-9.846059e+001	-2.000000e+002	0.000000e+000	-2.000000e+002	0.000000e+000
64449010.000	-4.606054e-001	1.217143e+002	-6.277869e+001	-1.081988e+002	-2.000000e+002	0.000000e+000	-2.000000e+002	0.000000e+000
65099000.000	-4.626789e-001	1.192856e+002	-6.226585e+001	-1.157925e+002	-2.000000e+002	0.000000e+000	-2.000000e+002	0.000000e+000
65748990.000	-4.645379e-001	1.168546e+002	-6.280238e+001	-1.211636e+002	-2.000000e+002	0.000000e+000	-2.000000e+002	0.000000e+000
66398980.000	-4.678636e-001	1.144318e+002	-6.243674e+001	-1.285117e+002	-2.000000e+002	0.000000e+000	-2.000000e+002	0.000000e+000
67048970.000	-4.703535e-001	1.120093e+002	-6.265179e+001	-1.300535e+002	-2.000000e+002	0.000000e+000	-2.000000e+002	0.000000e+000
67698960.000	-4.732496e-001	1.095938e+002	-6.238232e+001	-1.349092e+002	-2.000000e+002	0.000000e+000	-2.000000e+002	0.000000e+000
68348950.000	-4.749709e-001	1.071755e+002	-6.202129e+001	-1.400146e+002	-2.000000e+002	0.000000e+000	-2.000000e+002	0.000000e+000
68998940.000	-4.775268e-001	1.047611e+002	-6.171670e+001	-1.418317e+002	-2.000000e+002	0.000000e+000	-2.000000e+002	0.000000e+000
69648930.000	-4.792934e-001	1.023446e+002	-6.131367e+001	-1.433153e+002	-2.000000e+002	0.000000e+000	-2.000000e+002	0.000000e+000
70298920.000	-4.801169e-001	9.992956e+001	-6.102889e+001	-1.460709e+002	-2.000000e+002	0.000000e+000	-2.000000e+002	0.000000e+000
70948910.000	-4.823720e-001	9.752329e+001	-6.059418e+001	-1.491849e+002	-2.000000e+002	0.000000e+000	-2.000000e+002	0.000000e+000
71598900.000	-4.836250e-001	9.511398e+001	-6.011490e+001	-1.502192e+002	-2.000000e+002	0.000000e+000	-2.000000e+002	0.000000e+000
72248890.000	-4.856588e-001	9.271202e+001	-5.996127e+001	-1.520453e+002	-2.000000e+002	0.000000e+000	-2.000000e+002	0.000000e+000
72898880.000	-4.868123e-001	9.031061e+001	-5.968283e+001	-1.541324e+002	-2.000000e+002	0.000000e+000	-2.000000e+002	0.000000e+000
73548870.000	-4.885822e-001	8.791146e+001	-5.925705e+001	-1.553345e+002	-2.000000e+002	0.000000e+000	-2.000000e+002	0.000000e+000
74198860.000	-4.891132e-001	8.551781e+001	-5.876177e+001	-1.588270e+002	-2.000000e+002	0.000000e+000	-2.000000e+002	0.000000e+000
74848850.000	-4.902517e-001	8.312406e+001	-5.835986e+001	-1.607433e+002	-2.000000e+002	0.000000e+000	-2.000000e+002	0.000000e+000
75498840.000	-4.908889e-001	8.073479e+001	-5.790107e+001	-1.623299e+002	-2.000000e+002	0.000000e+000	-2.000000e+002	0.000000e+000
76148830.000	-4.910311e-001	7.834881e+001	-5.765649e+001	-1.645089e+002	-2.000000e+002	0.000000e+000	-2.000000e+002	0.000000e+000
76798820.000	-4.909130e-001	7.596474e+001	-5.720935e+001	-1.674225e+002	-2.000000e+002	0.000000e+000	-2.000000e+002	0.000000e+000
77448810.000	-4.921362e-001	7.358970e+001	-5.682010e+001	-1.701993e+002	-2.000000e+002	0.000000e+000	-2.000000e+002	0.000000e+000
78098800.000	-4.919391e-001	7.121154e+001	-5.659142e+001	-1.737344e+002	-2.000000e+002	0.000000e+000	-2.000000e+002	0.000000e+000
78748790.000	-4.911450e-001	6.883408e+001	-5.624483e+001	-1.759973e+002	-2.000000e+002	0.000000e+000	-2.000000e+002	0.000000e+000
79398780.000	-4.899514e-001	6.645246e+001	-5.598145e+001	1.793109e+002	-2.000000e+002	0.000000e+000	-2.000000e+002	0.000000e+000
80048770.000	-4.875150e-001	6.407425e+001	-5.584644e+001	1.758207e+002	-2.000000e+002	0.000000e+000	-2.000000e+002	0.000000e+000
80698760.000	-4.864330e-001	6.169928e+001	-5.575833e+001	1.735176e+002	-2.000000e+002	0.000000e+000	-2.000000e+002	0.000000e+000
81348750.000	-4.849945e-001	5.931975e+001	-5.568695e+001	1.710932e+002	-2.000000e+002	0.000000e+000	-2.000000e+002	0.000000e+000
81998740.000	-4.840195e-001	5.695044e+001	-5.574430e+001	1.675400e+002	-2.000000e+002	0.000000e+000	-2.000000e+002	0.000000e+000
82648730.000	-4.834378e-001	5.458884e+001	-5.563119e+001	1.662342e+002	-2.000000e+002	0.000000e+000	-2.000000e+002	0.000000e+000
83298720.000	-4.826587e-001	5.222268e+001	-5.557115e+001	1.637254e+002	-2.000000e+002	0.000000e+000	-2.000000e+002	0.000000e+000
83948710.000	-4.808540e-001	4.985498e+001	-5.547335e+001	1.613648e+002	-2.000000e+002	0.000000e+000	-2.000000e+002	0.000000e+000
84598700.000	-4.793540e-001	4.748709e+001	-5.553454e+001	1.602555e+002	-2.000000e+002	0.000000e+000	-2.000000e+002	0.000000e+000
85248690.000	-4.782476e-001	4.511559e+001	-5.537389e+001	1.590726e+002	-2.000000e+002	0.000000e+000	-2.000000e+002	0.000000e+000
85898680.000	-4.766228e-001	4.275705e+001	-5.522188e+001	1.578278e+002	-2.000000e+002	0.000000e+000	-2.000000e+002	0.000000e+000
86548670.000	-4.743946e-001	4.040312e+001	-5.500450e+001	1.560764e+002	-2.000000e+002	0.000000e+000	-2.000000e+002	0.000000e+000
87198660.000	-4.720089e-001	3.804758e+001	-5.496260e+001	1.546342e+002	-2.000000e+002	0.000000e+000	-2.000000e+002	0.000000e+000
87848650.000	-4.700740e-001	3.569410e+001	-5.474719e+001	1.531381e+002	-2.000000e+002	0.000000e+000	-2.000000e+002	0.000000e+000
88498640.000	-4.675912e-001	3.334687e+001	-5.454986e+001	1.514301e+002	-2.000000e+002	0.000000e+000	-2.000000e+002	0.000000e+000
89148630.000	-4.661590e-001	3.099755e+001	-5.442174e+001	1.497039e+002	-2.000000e+002	0.000000e+000	-2.000000e+002	0.000000e+000
89798620.000	-4.629922e-001	2.865019e+001	-5.432270e+001	1.476009e+002	-2.000000e+002	0.000000e+000	-2.000000e+002	0.000000e+000
90448610.000	-4.601705e-001	2.629829e+001	-5.419567e+001	1.473785e+002	-2.000000e+002	0.000000e+000	-2.000000e+002	0.000000e+000
91098600.000	-4.578317e-001	2.394291e+001	-5.396242e+001	1.454753e+002	-2.000000e+002	0.000000e+000	-2.000000e+002	0.000000e+000
91748590.000	-4.552292e-001	2.159449e+001	-5.366041e+001	1.443946e+002	-2.000000e+002	0.000000e+000	-2.000000e+002	0.000000e+000
92398580.000	-4.523217e-001	1.924482e+001	-5.356952e+001	1.425986e+002	-2.000000e+002	0.000000e+000	-2.000000e+002	0.000000e+000
93048570.000	-4.494242e-001	1.689402e+001	-5.348608e+001	1.415063e+002	-2.000000e+002	0.000000e+000	-2.000000e+002	0.000000e+000
93698560.000	-4.474697e-001	1.454517e+001	-5.333538e+001	1.408773e+002	-2.000000e+002	0.000000e+000	-2.000000e+002	0.000000e+000
94348550.000	-4.446866e-001	1.219985e+001	-5.308832e+001	1.402045e+002	-2.000000e+002	0.000000e+000	-2.000000e+002	0.000000e+000
94998540.000	-4.429165e-001	9.858199e+000	-5.305419e+001	1.404933e+002	-2.000000e+002	0.000000e+000	-2.000000e+002	0.000000e+000
95648530.000	-4.401920e-001	7.512006e+000	-5.262017e+001	1.383786e+002	-2.000000e+002	0.000000e+000	-2.000000e+002	0.000000e+000
96298520.000	-4.385246e-001	5.171923e+000	-5.228833e+001	1.381096e+002	-2.000000e+002	0.000000e+000	-2.000000e+002	0.000000e+000
96948510.000	-4.366232e-001	2.834346e+000	-5.179755e+001	1.383832e+002	-2.000000e+002	0.000000e+000	-2.000000e+002	0.000000e+000
97598500.000	-4.356264e-001	4.993716e-001	-5.113241e+001	1.375860e+002	-2.000000e+002	0.000000e+000	-2.000000e+002	0.000000e+000
98248490.000	-4.339517e-001	-1.831420e+000	-5.053495e+001	1.354138e+002	-2.000000e+002	0.000000e+000	-2.000000e+002	0.000000e+000
