!Keysight Technologies,E5063A,MY54503115,A.05.08
!Date: Sun Feb 04 18:19:40 2024
!Data & Calibration Information:
!Freq	S11:NONE(--)	S21:NONE(--)	S12:NONE(--)	S22:NONE(--)
# Hz S dB R 50
100000.000	4.352030e-002	-7.651427e-001	-8.717982e+001	3.749194e+001	-2.000000e+002	0.000000e+000	-2.000000e+002	0.000000e+000
749990.000	9.401958e-003	-3.050363e+000	-9.235719e+001	-6.929907e+001	-2.000000e+002	0.000000e+000	-2.000000e+002	0.000000e+000
1399980.000	1.163345e-002	-5.356655e+000	-9.705163e+001	1.523712e+002	-2.000000e+002	0.000000e+000	-2.000000e+002	0.000000e+000
2049970.000	1.055541e-002	-7.679250e+000	-7.835842e+001	1.176414e+002	-2.000000e+002	0.000000e+000	-2.000000e+002	0.000000e+000
2699960.000	1.190191e-002	-1.000381e+001	-7.824682e+001	7.761271e+001	-2.000000e+002	0.000000e+000	-2.000000e+002	0.000000e+000
3349950.000	1.588660e-002	-1.234920e+001	-7.326261e+001	8.330481e+001	-2.000000e+002	0.000000e+000	-2.000000e+002	0.000000e+000
3999940.000	1.531317e-002	-1.468220e+001	-7.459323e+001	8.339266e+001	-2.000000e+002	0.000000e+000	-2.000000e+002	0.000000e+000
4649930.000	1.726734e-002	-1.701366e+001	-7.465392e+001	8.310648e+001	-2.000000e+002	0.000000e+000	-2.000000e+002	0.000000e+000
5299920.000	1.604423e-002	-1.934856e+001	-7.568421e+001	6.824522e+001	-2.000000e+002	0.000000e+000	-2.000000e+002	0.000000e+000
5949910.000	1.508256e-002	-2.169195e+001	-7.206806e+001	5.258861e+001	-2.000000e+002	0.000000e+000	-2.000000e+002	0.000000e+000
6599900.000	1.569670e-002	-2.402827e+001	-7.048613e+001	6.774661e+001	-2.000000e+002	0.000000e+000	-2.000000e+002	0.000000e+000
7249890.000	1.608663e-002	-2.637595e+001	-6.796917e+001	6.952887e+001	-2.000000e+002	0.000000e+000	-2.000000e+002	0.000000e+000
7899880.000	1.600839e-002	-2.871570e+001	-6.771356e+001	5.903675e+001	-2.000000e+002	0.000000e+000	-2.000000e+002	0.000000e+000
8549870.000	1.903008e-002	-3.105979e+001	-6.825251e+001	6.020857e+001	-2.000000e+002	0.000000e+000	-2.000000e+002	0.000000e+000
9199860.000	1.821598e-002	-3.340555e+001	-6.736985e+001	5.688055e+001	-2.000000e+002	0.000000e+000	-2.000000e+002	0.000000e+000
9849850.000	1.742050e-002	-3.574765e+001	-6.639912e+001	5.544085e+001	-2.000000e+002	0.000000e+000	-2.000000e+002	0.000000e+000
10499840.000	1.439825e-002	-3.809792e+001	-6.610562e+001	5.622283e+001	-2.000000e+002	0.000000e+000	-2.000000e+002	0.000000e+000
11149830.000	1.165458e-002	-4.044025e+001	-6.560343e+001	5.259649e+001	-2.000000e+002	0.000000e+000	-2.000000e+002	0.000000e+000
11799820.000	1.024624e-002	-4.278460e+001	-6.503767e+001	4.831209e+001	-2.000000e+002	0.000000e+000	-2.000000e+002	0.000000e+000
12449810.000	1.039190e-002	-4.513587e+001	-6.439530e+001	4.666960e+001	-2.000000e+002	0.000000e+000	-2.000000e+002	0.000000e+000
13099800.000	1.116785e-002	-4.747901e+001	-6.390987e+001	4.377608e+001	-2.000000e+002	0.000000e+000	-2.000000e+002	0.000000e+000
13749790.000	9.008423e-003	-4.982555e+001	-6.374067e+001	4.288793e+001	-2.000000e+002	0.000000e+000	-2.000000e+002	0.000000e+000
14399780.000	5.934945e-003	-5.219023e+001	-6.320499e+001	3.887876e+001	-2.000000e+002	0.000000e+000	-2.000000e+002	0.000000e+000
15049770.000	6.413120e-003	-5.454120e+001	-6.267119e+001	3.849182e+001	-2.000000e+002	0.000000e+000	-2.000000e+002	0.000000e+000
15699760.000	5.062035e-003	-5.688768e+001	-6.217371e+001	3.640796e+001	-2.000000e+002	0.000000e+000	-2.000000e+002	0.000000e+000
16349750.000	3.928180e-003	-5.924440e+001	-6.215946e+001	3.382472e+001	-2.000000e+002	0.000000e+000	-2.000000e+002	0.000000e+000
16999740.000	1.264045e-003	-6.161515e+001	-6.175933e+001	3.388086e+001	-2.000000e+002	0.000000e+000	-2.000000e+002	0.000000e+000
17649730.000	5.440657e-003	-6.399102e+001	-6.110902e+001	3.195384e+001	-2.000000e+002	0.000000e+000	-2.000000e+002	0.000000e+000
18299720.000	6.564919e-003	-6.636769e+001	-5.998860e+001	3.017020e+001	-2.000000e+002	0.000000e+000	-2.000000e+002	0.000000e+000
18949710.000	4.467553e-003	-6.874110e+001	-5.996302e+001	2.683256e+001	-2.000000e+002	0.000000e+000	-2.000000e+002	0.000000e+000
19599700.000	-3.952754e-003	-7.111734e+001	-5.959879e+001	2.100496e+001	-2.000000e+002	0.000000e+000	-2.000000e+002	0.000000e+000
20249690.000	-1.038847e-002	-7.349969e+001	-5.934492e+001	1.923036e+001	-2.000000e+002	0.000000e+000	-2.000000e+002	0.000000e+000
20899680.000	-1.475365e-002	-7.590871e+001	-5.918947e+001	1.681304e+001	-2.000000e+002	0.000000e+000	-2.000000e+002	0.000000e+000
21549670.000	-1.923823e-002	-7.830230e+001	-5.904800e+001	1.414312e+001	-2.000000e+002	0.000000e+000	-2.000000e+002	0.000000e+000
22199660.000	-2.381696e-002	-8.068036e+001	-5.896277e+001	1.236110e+001	-2.000000e+002	0.000000e+000	-2.000000e+002	0.000000e+000
22849650.000	-2.896777e-002	-8.304174e+001	-5.841890e+001	9.322152e+000	-2.000000e+002	0.000000e+000	-2.000000e+002	0.000000e+000
23499640.000	-3.531721e-002	-8.543709e+001	-5.839426e+001	7.790809e+000	-2.000000e+002	0.000000e+000	-2.000000e+002	0.000000e+000
24149630.000	-4.277064e-002	-8.783328e+001	-5.796333e+001	8.617484e+000	-2.000000e+002	0.000000e+000	-2.000000e+002	0.000000e+000
24799620.000	-4.814894e-002	-9.022287e+001	-5.738998e+001	6.814719e+000	-2.000000e+002	0.000000e+000	-2.000000e+002	0.000000e+000
25449610.000	-5.322293e-002	-9.260888e+001	-5.706329e+001	3.632161e+000	-2.000000e+002	0.000000e+000	-2.000000e+002	0.000000e+000
26099600.000	-5.933938e-002	-9.500357e+001	-5.656813e+001	1.147172e+000	-2.000000e+002	0.000000e+000	-2.000000e+002	0.000000e+000
26749590.000	-6.671320e-002	-9.740389e+001	-5.643313e+001	-1.463439e+000	-2.000000e+002	0.000000e+000	-2.000000e+002	0.000000e+000
27399580.000	-7.339897e-002	-9.980256e+001	-5.596315e+001	-4.027185e+000	-2.000000e+002	0.000000e+000	-2.000000e+002	0.000000e+000
28049570.000	-7.991005e-002	-1.022043e+002	-5.544058e+001	-5.589239e+000	-2.000000e+002	0.000000e+000	-2.000000e+002	0.000000e+000
28699560.000	-8.659149e-002	-1.046080e+002	-5.515640e+001	-8.499807e+000	-2.000000e+002	0.000000e+000	-2.000000e+002	0.000000e+000
29349550.000	-9.306461e-002	-1.070172e+002	-5.497673e+001	-1.114051e+001	-2.000000e+002	0.000000e+000	-2.000000e+002	0.000000e+000
29999540.000	-1.010479e-001	-1.094265e+002	-5.489567e+001	-1.475588e+001	-2.000000e+002	0.000000e+000	-2.000000e+002	0.000000e+000
30649530.000	-1.080994e-001	-1.118489e+002	-5.450101e+001	-1.573272e+001	-2.000000e+002	0.000000e+000	-2.000000e+002	0.000000e+000
31299520.000	-1.147118e-001	-1.142702e+002	-5.434745e+001	-1.815011e+001	-2.000000e+002	0.000000e+000	-2.000000e+002	0.000000e+000
31949510.000	-1.230546e-001	-1.166945e+002	-5.415190e+001	-2.028092e+001	-2.000000e+002	0.000000e+000	-2.000000e+002	0.000000e+000
32599500.000	-1.318019e-001	-1.191268e+002	-5.406302e+001	-2.024767e+001	-2.000000e+002	0.000000e+000	-2.000000e+002	0.000000e+000
33249490.000	-1.405803e-001	-1.215555e+002	-5.386982e+001	-1.990843e+001	-2.000000e+002	0.000000e+000	-2.000000e+002	0.000000e+000
33899480.000	-1.510693e-001	-1.239853e+002	-5.328949e+001	-1.714181e+001	-2.000000e+002	0.000000e+000	-2.000000e+002	0.000000e+000
34549470.000	-1.617774e-001	-1.264085e+002	-5.240578e+001	-1.633618e+001	-2.000000e+002	0.000000e+000	-2.000000e+002	0.000000e+000
35199460.000	-1.723224e-001	-1.288287e+002	-5.093881e+001	-1.632070e+001	-2.000000e+002	0.000000e+000	-2.000000e+002	0.000000e+000
35849450.000	-1.806819e-001	-1.312483e+002	-4.979341e+001	-2.090284e+001	-2.000000e+002	0.000000e+000	-2.000000e+002	0.000000e+000
36499440.000	-1.887308e-001	-1.336751e+002	-4.882511e+001	-2.514880e+001	-2.000000e+002	0.000000e+000	-2.000000e+002	0.000000e+000
37149430.000	-1.957787e-001	-1.361066e+002	-4.787689e+001	-3.071515e+001	-2.000000e+002	0.000000e+000	-2.000000e+002	0.000000e+000
37799420.000	-2.024671e-001	-1.385481e+002	-4.714593e+001	-3.802148e+001	-2.000000e+002	0.000000e+000	-2.000000e+002	0.000000e+000
38449410.000	-2.085959e-001	-1.410007e+002	-4.674172e+001	-4.429945e+001	-2.000000e+002	0.000000e+000	-2.000000e+002	0.000000e+000
39099400.000	-2.161731e-001	-1.434661e+002	-4.640400e+001	-4.869153e+001	-2.000000e+002	0.000000e+000	-2.000000e+002	0.000000e+000
39749390.000	-2.245922e-001	-1.459352e+002	-4.603101e+001	-5.255987e+001	-2.000000e+002	0.000000e+000	-2.000000e+002	0.000000e+000
40399380.000	-2.333216e-001	-1.484113e+002	-4.548882e+001	-5.543104e+001	-2.000000e+002	0.000000e+000	-2.000000e+002	0.000000e+000
41049370.000	-2.432173e-001	-1.508920e+002	-4.484514e+001	-5.860637e+001	-2.000000e+002	0.000000e+000	-2.000000e+002	0.000000e+000
41699360.000	-2.529542e-001	-1.533808e+002	-4.406584e+001	-6.129238e+001	-2.000000e+002	0.000000e+000	-2.000000e+002	0.000000e+000
42349350.000	-2.637643e-001	-1.558811e+002	-4.308186e+001	-6.417304e+001	-2.000000e+002	0.000000e+000	-2.000000e+002	0.000000e+000
42999340.000	-2.765824e-001	-1.583968e+002	-4.201326e+001	-6.709782e+001	-2.000000e+002	0.000000e+000	-2.000000e+002	0.000000e+000
43649330.000	-2.906200e-001	-1.609328e+002	-4.058187e+001	-7.055755e+001	-2.000000e+002	0.000000e+000	-2.000000e+002	0.000000e+000
44299320.000	-3.087416e-001	-1.634978e+002	-3.884322e+001	-7.485152e+001	-2.000000e+002	0.000000e+000	-2.000000e+002	0.000000e+000
44949310.000	-3.333150e-001	-1.661182e+002	-3.658704e+001	-8.082167e+001	-2.000000e+002	0.000000e+000	-2.000000e+002	0.000000e+000
45599300.000	-3.748015e-001	-1.688370e+002	-3.370340e+001	-9.012530e+001	-2.000000e+002	0.000000e+000	-2.000000e+002	0.000000e+000
46249290.000	-4.777431e-001	-1.717335e+002	-2.977859e+001	-1.070031e+002	-2.000000e+002	0.000000e+000	-2.000000e+002	0.000000e+000
46899280.000	-8.173801e-001	-1.737163e+002	-2.504034e+001	-1.483463e+002	-2.000000e+002	0.000000e+000	-2.000000e+002	0.000000e+000
47549270.000	-6.410867e-001	-1.730638e+002	-2.703626e+001	1.461639e+002	-2.000000e+002	0.000000e+000	-2.000000e+002	0.000000e+000
48199260.000	-4.282546e-001	-1.759808e+002	-3.233366e+001	1.181208e+002	-2.000000e+002	0.000000e+000	-2.000000e+002	0.000000e+000
48849250.000	-3.799379e-001	-1.788610e+002	-3.624825e+001	1.057633e+002	-2.000000e+002	0.000000e+000	-2.000000e+002	0.000000e+000
49499240.000	-3.670601e-001	1.784367e+002	-3.925243e+001	9.812330e+001	-2.000000e+002	0.000000e+000	-2.000000e+002	0.000000e+000
50149230.000	-3.648006e-001	1.758334e+002	-4.166986e+001	9.274620e+001	-2.000000e+002	0.000000e+000	-2.000000e+002	0.000000e+000
50799220.000	-3.668008e-001	1.732780e+002	-4.370765e+001	8.790456e+001	-2.000000e+002	0.000000e+000	-2.000000e+002	0.000000e+000
51449210.000	-3.703526e-001	1.707493e+002	-4.546741e+001	8.430380e+001	-2.000000e+002	0.000000e+000	-2.000000e+002	0.000000e+000
52099200.000	-3.750925e-001	1.682429e+002	-4.709909e+001	7.983518e+001	-2.000000e+002	0.000000e+000	-2.000000e+002	0.000000e+000
52749190.000	-3.798044e-001	1.657502e+002	-4.852040e+001	7.609641e+001	-2.000000e+002	0.000000e+000	-2.000000e+002	0.000000e+000
53399180.000	-3.844831e-001	1.632648e+002	-4.993853e+001	7.271586e+001	-2.000000e+002	0.000000e+000	-2.000000e+002	0.000000e+000
54049170.000	-3.902811e-001	1.607859e+002	-5.125761e+001	6.860219e+001	-2.000000e+002	0.000000e+000	-2.000000e+002	0.000000e+000
54699160.000	-3.957523e-001	1.583087e+002	-5.243711e+001	6.671282e+001	-2.000000e+002	0.000000e+000	-2.000000e+002	0.000000e+000
55349150.000	-4.014539e-001	1.558384e+002	-5.364057e+001	6.095883e+001	-2.000000e+002	0.000000e+000	-2.000000e+002	0.000000e+000
55999140.000	-4.073539e-001	1.533766e+002	-5.477552e+001	5.737506e+001	-2.000000e+002	0.000000e+000	-2.000000e+002	0.000000e+000
56649130.000	-4.132912e-001	1.509130e+002	-5.544420e+001	5.127328e+001	-2.000000e+002	0.000000e+000	-2.000000e+002	0.000000e+000
57299120.000	-4.183967e-001	1.484570e+002	-5.627049e+001	4.449835e+001	-2.000000e+002	0.000000e+000	-2.000000e+002	0.000000e+000
57949110.000	-4.242011e-001	1.460044e+002	-5.720490e+001	3.876406e+001	-2.000000e+002	0.000000e+000	-2.000000e+002	0.000000e+000
58599100.000	-4.296352e-001	1.435485e+002	-5.787095e+001	2.773497e+001	-2.000000e+002	0.000000e+000	-2.000000e+002	0.000000e+000
59249090.000	-4.349244e-001	1.411009e+002	-5.796062e+001	1.450003e+001	-2.000000e+002	0.000000e+000	-2.000000e+002	0.000000e+000
59899080.000	-4.405149e-001	1.386587e+002	-5.935331e+001	-3.482288e+000	-2.000000e+002	0.000000e+000	-2.000000e+002	0.000000e+000
60549070.000	-4.453523e-001	1.362283e+002	-6.019876e+001	-2.421705e+001	-2.000000e+002	0.000000e+000	-2.000000e+002	0.000000e+000
61199060.000	-4.496678e-001	1.337952e+002	-6.165892e+001	-4.432818e+001	-2.000000e+002	0.000000e+000	-2.000000e+002	0.000000e+000
61849050.000	-4.525895e-001	1.313613e+002	-6.337050e+001	-6.540048e+001	-2.000000e+002	0.000000e+000	-2.000000e+002	0.000000e+000
62499040.000	-4.559636e-001	1.289236e+002	-6.494594e+001	-8.093304e+001	-2.000000e+002	0.000000e+000	-2.000000e+002	0.000000e+000
63149030.000	-4.593094e-001	1.264871e+002	-6.549904e+001	-9.168913e+001	-2.000000e+002	0.000000e+000	-2.000000e+002	0.000000e+000
63799020.000	-4.628971e-001	1.240553e+002	-6.502296e+001	-1.015281e+002	-2.000000e+002	0.000000e+000	-2.000000e+002	0.000000e+000
64449010.000	-4.666829e-001	1.216289e+002	-6.532980e+001	-1.118936e+002	-2.000000e+002	0.000000e+000	-2.000000e+002	0.000000e+000
65099000.000	-4.690073e-001	1.191978e+002	-6.476728e+001	-1.199296e+002	-2.000000e+002	0.000000e+000	-2.000000e+002	0.000000e+000
65748990.000	-4.716274e-001	1.167703e+002	-6.417417e+001	-1.263268e+002	-2.000000e+002	0.000000e+000	-2.000000e+002	0.000000e+000
66398980.000	-4.743724e-001	1.143404e+002	-6.483558e+001	-1.306802e+002	-2.000000e+002	0.000000e+000	-2.000000e+002	0.000000e+000
67048970.000	-4.771510e-001	1.119173e+002	-6.423180e+001	-1.317847e+002	-2.000000e+002	0.000000e+000	-2.000000e+002	0.000000e+000
67698960.000	-4.801409e-001	1.094975e+002	-6.368532e+001	-1.343018e+002	-2.000000e+002	0.000000e+000	-2.000000e+002	0.000000e+000
68348950.000	-4.818580e-001	1.070784e+002	-6.358613e+001	-1.399240e+002	-2.000000e+002	0.000000e+000	-2.000000e+002	0.000000e+000
68998940.000	-4.846923e-001	1.046677e+002	-6.333107e+001	-1.420500e+002	-2.000000e+002	0.000000e+000	-2.000000e+002	0.000000e+000
69648930.000	-4.865768e-001	1.022488e+002	-6.278366e+001	-1.404787e+002	-2.000000e+002	0.000000e+000	-2.000000e+002	0.000000e+000
70298920.000	-4.872938e-001	9.983315e+001	-6.245881e+001	-1.435641e+002	-2.000000e+002	0.000000e+000	-2.000000e+002	0.000000e+000
70948910.000	-4.904991e-001	9.742436e+001	-6.170673e+001	-1.455993e+002	-2.000000e+002	0.000000e+000	-2.000000e+002	0.000000e+000
71598900.000	-4.912183e-001	9.500950e+001	-6.142029e+001	-1.475237e+002	-2.000000e+002	0.000000e+000	-2.000000e+002	0.000000e+000
72248890.000	-4.928099e-001	9.260994e+001	-6.140253e+001	-1.475058e+002	-2.000000e+002	0.000000e+000	-2.000000e+002	0.000000e+000
72898880.000	-4.943167e-001	9.020701e+001	-6.079293e+001	-1.495414e+002	-2.000000e+002	0.000000e+000	-2.000000e+002	0.000000e+000
73548870.000	-4.963520e-001	8.780960e+001	-6.023831e+001	-1.516470e+002	-2.000000e+002	0.000000e+000	-2.000000e+002	0.000000e+000
74198860.000	-4.974590e-001	8.541198e+001	-5.962234e+001	-1.536661e+002	-2.000000e+002	0.000000e+000	-2.000000e+002	0.000000e+000
74848850.000	-4.989350e-001	8.301886e+001	-5.923529e+001	-1.556025e+002	-2.000000e+002	0.000000e+000	-2.000000e+002	0.000000e+000
75498840.000	-4.991162e-001	8.062985e+001	-5.864750e+001	-1.573063e+002	-2.000000e+002	0.000000e+000	-2.000000e+002	0.000000e+000
76148830.000	-4.996509e-001	7.824062e+001	-5.826367e+001	-1.605783e+002	-2.000000e+002	0.000000e+000	-2.000000e+002	0.000000e+000
76798820.000	-4.988758e-001	7.585325e+001	-5.781391e+001	-1.638324e+002	-2.000000e+002	0.000000e+000	-2.000000e+002	0.000000e+000
77448810.000	-5.003329e-001	7.347970e+001	-5.768604e+001	-1.673489e+002	-2.000000e+002	0.000000e+000	-2.000000e+002	0.000000e+000
78098800.000	-5.006095e-001	7.109660e+001	-5.732750e+001	-1.703293e+002	-2.000000e+002	0.000000e+000	-2.000000e+002	0.000000e+000
78748790.000	-5.001440e-001	6.871686e+001	-5.695164e+001	-1.726923e+002	-2.000000e+002	0.000000e+000	-2.000000e+002	0.000000e+000
79398780.000	-4.985195e-001	6.633807e+001	-5.679504e+001	-1.769376e+002	-2.000000e+002	0.000000e+000	-2.000000e+002	0.000000e+000
80048770.000	-4.966590e-001	6.395506e+001	-5.661020e+001	1.796486e+002	-2.000000e+002	0.000000e+000	-2.000000e+002	0.000000e+000
80698760.000	-4.955056e-001	6.157904e+001	-5.660860e+001	1.773035e+002	-2.000000e+002	0.000000e+000	-2.000000e+002	0.000000e+000
81348750.000	-4.941250e-001	5.919960e+001	-5.661853e+001	1.754966e+002	-2.000000e+002	0.000000e+000	-2.000000e+002	0.000000e+000
81998740.000	-4.934968e-001	5.682502e+001	-5.645936e+001	1.730886e+002	-2.000000e+002	0.000000e+000	-2.000000e+002	0.000000e+000
82648730.000	-4.938017e-001	5.446852e+001	-5.641389e+001	1.711665e+002	-2.000000e+002	0.000000e+000	-2.000000e+002	0.000000e+000
83298720.000	-4.928466e-001	5.209745e+001	-5.634710e+001	1.695558e+002	-2.000000e+002	0.000000e+000	-2.000000e+002	0.000000e+000
83948710.000	-4.908454e-001	4.972483e+001	-5.623599e+001	1.678945e+002	-2.000000e+002	0.000000e+000	-2.000000e+002	0.000000e+000
84598700.000	-4.893167e-001	4.736267e+001	-5.606538e+001	1.675691e+002	-2.000000e+002	0.000000e+000	-2.000000e+002	0.000000e+000
85248690.000	-4.885298e-001	4.499218e+001	-5.596428e+001	1.677737e+002	-2.000000e+002	0.000000e+000	-2.000000e+002	0.000000e+000
85898680.000	-4.863376e-001	4.263556e+001	-5.560408e+001	1.652737e+002	-2.000000e+002	0.000000e+000	-2.000000e+002	0.000000e+000
86548670.000	-4.847338e-001	4.027496e+001	-5.537183e+001	1.634078e+002	-2.000000e+002	0.000000e+000	-2.000000e+002	0.000000e+000
87198660.000	-4.829094e-001	3.792181e+001	-5.508703e+001	1.614310e+002	-2.000000e+002	0.000000e+000	-2.000000e+002	0.000000e+000
87848650.000	-4.810801e-001	3.557175e+001	-5.481323e+001	1.593096e+002	-2.000000e+002	0.000000e+000	-2.000000e+002	0.000000e+000
88498640.000	-4.787647e-001	3.322269e+001	-5.462018e+001	1.561918e+002	-2.000000e+002	0.000000e+000	-2.000000e+002	0.000000e+000
89148630.000	-4.759552e-001	3.087257e+001	-5.466913e+001	1.536622e+002	-2.000000e+002	0.000000e+000	-2.000000e+002	0.000000e+000
89798620.000	-4.724968e-001	2.852225e+001	-5.473676e+001	1.524747e+002	-2.000000e+002	0.000000e+000	-2.000000e+002	0.000000e+000
90448610.000	-4.705204e-001	2.616690e+001	-5.467283e+001	1.514386e+002	-2.000000e+002	0.000000e+000	-2.000000e+002	0.000000e+000
91098600.000	-4.678941e-001	2.381385e+001	-5.466876e+001	1.510435e+002	-2.000000e+002	0.000000e+000	-2.000000e+002	0.000000e+000
91748590.000	-4.657260e-001	2.146220e+001	-5.460159e+001	1.509264e+002	-2.000000e+002	0.000000e+000	-2.000000e+002	0.000000e+000
92398580.000	-4.627084e-001	1.910532e+001	-5.438501e+001	1.504560e+002	-2.000000e+002	0.000000e+000	-2.000000e+002	0.000000e+000
93048570.000	-4.599778e-001	1.675518e+001	-5.434555e+001	1.503056e+002	-2.000000e+002	0.000000e+000	-2.000000e+002	0.000000e+000
93698560.000	-4.582082e-001	1.440357e+001	-5.398136e+001	1.509044e+002	-2.000000e+002	0.000000e+000	-2.000000e+002	0.000000e+000
94348550.000	-4.568410e-001	1.205388e+001	-5.359243e+001	1.511205e+002	-2.000000e+002	0.000000e+000	-2.000000e+002	0.000000e+000
94998540.000	-4.546773e-001	9.708449e+000	-5.313220e+001	1.496842e+002	-2.000000e+002	0.000000e+000	-2.000000e+002	0.000000e+000
95648530.000	-4.532529e-001	7.367858e+000	-5.268167e+001	1.514634e+002	-2.000000e+002	0.000000e+000	-2.000000e+002	0.000000e+000
96298520.000	-4.515086e-001	5.023269e+000	-5.207680e+001	1.520526e+002	-2.000000e+002	0.000000e+000	-2.000000e+002	0.000000e+000
96948510.000	-4.515673e-001	2.690808e+000	-5.121336e+001	1.516185e+002	-2.000000e+002	0.000000e+000	-2.000000e+002	0.000000e+000
97598500.000	-4.509753e-001	3.624530e-001	-5.020768e+001	1.491302e+002	-2.000000e+002	0.000000e+000	-2.000000e+002	0.000000e+000
98248490.000	-4.492078e-001	-1.959240e+000	-4.922298e+001	1.452816e+002	-2.000000e+002	0.000000e+000	-2.000000e+002	0.000000e+000
