!Keysight Technologies,E5063A,MY54503115,A.05.08
!Date: Sat Feb 03 20:37:37 2024
!Data & Calibration Information:
!Freq	S11:NONE(--)	S21:NONE(--)	S12:NONE(--)	S22:NONE(--)
# Hz S dB R 50
100000.000	4.622559e-002	-7.646023e-001	-8.554500e+001	7.984559e+000	-2.000000e+002	0.000000e+000	-2.000000e+002	0.000000e+000
749990.000	1.213700e-002	-3.071617e+000	-8.500110e+001	-1.668102e+002	-2.000000e+002	0.000000e+000	-2.000000e+002	0.000000e+000
1399980.000	1.380063e-002	-5.382353e+000	-8.175114e+001	-1.760070e+002	-2.000000e+002	0.000000e+000	-2.000000e+002	0.000000e+000
2049970.000	1.384343e-002	-7.714851e+000	-7.959425e+001	9.993061e+001	-2.000000e+002	0.000000e+000	-2.000000e+002	0.000000e+000
2699960.000	1.327303e-002	-1.004360e+001	-7.711698e+001	7.439747e+001	-2.000000e+002	0.000000e+000	-2.000000e+002	0.000000e+000
3349950.000	1.823311e-002	-1.238089e+001	-7.370543e+001	8.698599e+001	-2.000000e+002	0.000000e+000	-2.000000e+002	0.000000e+000
3999940.000	1.608079e-002	-1.471756e+001	-7.688869e+001	6.722142e+001	-2.000000e+002	0.000000e+000	-2.000000e+002	0.000000e+000
4649930.000	1.891962e-002	-1.705984e+001	-7.350071e+001	7.993786e+001	-2.000000e+002	0.000000e+000	-2.000000e+002	0.000000e+000
5299920.000	1.677759e-002	-1.939153e+001	-7.188321e+001	6.742989e+001	-2.000000e+002	0.000000e+000	-2.000000e+002	0.000000e+000
5949910.000	1.615683e-002	-2.173378e+001	-7.073826e+001	7.785054e+001	-2.000000e+002	0.000000e+000	-2.000000e+002	0.000000e+000
6599900.000	1.617491e-002	-2.406796e+001	-7.064415e+001	6.652502e+001	-2.000000e+002	0.000000e+000	-2.000000e+002	0.000000e+000
7249890.000	1.726713e-002	-2.641304e+001	-6.928758e+001	6.259638e+001	-2.000000e+002	0.000000e+000	-2.000000e+002	0.000000e+000
7899880.000	1.642470e-002	-2.875339e+001	-6.793239e+001	6.681537e+001	-2.000000e+002	0.000000e+000	-2.000000e+002	0.000000e+000
8549870.000	2.220985e-002	-3.110917e+001	-6.791808e+001	5.963075e+001	-2.000000e+002	0.000000e+000	-2.000000e+002	0.000000e+000
9199860.000	2.040050e-002	-3.344865e+001	-6.720174e+001	5.793663e+001	-2.000000e+002	0.000000e+000	-2.000000e+002	0.000000e+000
9849850.000	2.011695e-002	-3.579259e+001	-6.678960e+001	5.628871e+001	-2.000000e+002	0.000000e+000	-2.000000e+002	0.000000e+000
10499840.000	1.605054e-002	-3.813512e+001	-6.613998e+001	5.350958e+001	-2.000000e+002	0.000000e+000	-2.000000e+002	0.000000e+000
11149830.000	1.250998e-002	-4.047524e+001	-6.569673e+001	5.154422e+001	-2.000000e+002	0.000000e+000	-2.000000e+002	0.000000e+000
11799820.000	1.137585e-002	-4.282101e+001	-6.489741e+001	4.836293e+001	-2.000000e+002	0.000000e+000	-2.000000e+002	0.000000e+000
12449810.000	1.206440e-002	-4.517349e+001	-6.450454e+001	4.553402e+001	-2.000000e+002	0.000000e+000	-2.000000e+002	0.000000e+000
13099800.000	1.345751e-002	-4.752077e+001	-6.394024e+001	4.345161e+001	-2.000000e+002	0.000000e+000	-2.000000e+002	0.000000e+000
13749790.000	1.112574e-002	-4.986091e+001	-6.342679e+001	4.267225e+001	-2.000000e+002	0.000000e+000	-2.000000e+002	0.000000e+000
14399780.000	7.639817e-003	-5.222184e+001	-6.310797e+001	3.868643e+001	-2.000000e+002	0.000000e+000	-2.000000e+002	0.000000e+000
15049770.000	9.040173e-003	-5.457340e+001	-6.260010e+001	3.619883e+001	-2.000000e+002	0.000000e+000	-2.000000e+002	0.000000e+000
15699760.000	7.260453e-003	-5.691671e+001	-6.218144e+001	3.429501e+001	-2.000000e+002	0.000000e+000	-2.000000e+002	0.000000e+000
16349750.000	5.903709e-003	-5.926923e+001	-6.173833e+001	3.143427e+001	-2.000000e+002	0.000000e+000	-2.000000e+002	0.000000e+000
16999740.000	4.333868e-003	-6.164350e+001	-6.139743e+001	2.958974e+001	-2.000000e+002	0.000000e+000	-2.000000e+002	0.000000e+000
17649730.000	9.578293e-003	-6.401850e+001	-6.095416e+001	2.616755e+001	-2.000000e+002	0.000000e+000	-2.000000e+002	0.000000e+000
18299720.000	1.165506e-002	-6.640116e+001	-6.068234e+001	2.440656e+001	-2.000000e+002	0.000000e+000	-2.000000e+002	0.000000e+000
18949710.000	8.069588e-003	-6.878075e+001	-6.019237e+001	2.213762e+001	-2.000000e+002	0.000000e+000	-2.000000e+002	0.000000e+000
19599700.000	-1.112163e-004	-7.115898e+001	-5.978594e+001	2.004538e+001	-2.000000e+002	0.000000e+000	-2.000000e+002	0.000000e+000
20249690.000	-6.759043e-003	-7.354476e+001	-5.957888e+001	1.697824e+001	-2.000000e+002	0.000000e+000	-2.000000e+002	0.000000e+000
20899680.000	-1.098893e-002	-7.595541e+001	-5.923254e+001	1.465988e+001	-2.000000e+002	0.000000e+000	-2.000000e+002	0.000000e+000
21549670.000	-1.611698e-002	-7.835087e+001	-5.889344e+001	1.216389e+001	-2.000000e+002	0.000000e+000	-2.000000e+002	0.000000e+000
22199660.000	-2.186375e-002	-8.073283e+001	-5.861612e+001	1.019073e+001	-2.000000e+002	0.000000e+000	-2.000000e+002	0.000000e+000
22849650.000	-2.647771e-002	-8.309423e+001	-5.821793e+001	8.057459e+000	-2.000000e+002	0.000000e+000	-2.000000e+002	0.000000e+000
23499640.000	-3.338817e-002	-8.548162e+001	-5.791174e+001	5.817138e+000	-2.000000e+002	0.000000e+000	-2.000000e+002	0.000000e+000
24149630.000	-4.044675e-002	-8.787979e+001	-5.741872e+001	2.697723e+000	-2.000000e+002	0.000000e+000	-2.000000e+002	0.000000e+000
24799620.000	-4.667076e-002	-9.027036e+001	-5.722312e+001	4.277906e-001	-2.000000e+002	0.000000e+000	-2.000000e+002	0.000000e+000
25449610.000	-5.111414e-002	-9.265785e+001	-5.682984e+001	-1.551079e+000	-2.000000e+002	0.000000e+000	-2.000000e+002	0.000000e+000
26099600.000	-5.802561e-002	-9.504851e+001	-5.644268e+001	-4.152800e+000	-2.000000e+002	0.000000e+000	-2.000000e+002	0.000000e+000
26749590.000	-6.503025e-002	-9.745118e+001	-5.599591e+001	-6.995562e+000	-2.000000e+002	0.000000e+000	-2.000000e+002	0.000000e+000
27399580.000	-7.218531e-002	-9.985334e+001	-5.570079e+001	-9.383278e+000	-2.000000e+002	0.000000e+000	-2.000000e+002	0.000000e+000
28049570.000	-7.840723e-002	-1.022561e+002	-5.538119e+001	-1.203205e+001	-2.000000e+002	0.000000e+000	-2.000000e+002	0.000000e+000
28699560.000	-8.598204e-002	-1.046624e+002	-5.505374e+001	-1.446778e+001	-2.000000e+002	0.000000e+000	-2.000000e+002	0.000000e+000
29349550.000	-9.287557e-002	-1.070735e+002	-5.494693e+001	-1.601574e+001	-2.000000e+002	0.000000e+000	-2.000000e+002	0.000000e+000
29999540.000	-1.003324e-001	-1.094858e+002	-5.445044e+001	-1.902995e+001	-2.000000e+002	0.000000e+000	-2.000000e+002	0.000000e+000
30649530.000	-1.079091e-001	-1.119075e+002	-5.411870e+001	-2.156718e+001	-2.000000e+002	0.000000e+000	-2.000000e+002	0.000000e+000
31299520.000	-1.157060e-001	-1.143306e+002	-5.378603e+001	-2.371338e+001	-2.000000e+002	0.000000e+000	-2.000000e+002	0.000000e+000
31949510.000	-1.244975e-001	-1.167563e+002	-5.342845e+001	-2.481807e+001	-2.000000e+002	0.000000e+000	-2.000000e+002	0.000000e+000
32599500.000	-1.339661e-001	-1.191830e+002	-5.286064e+001	-2.612547e+001	-2.000000e+002	0.000000e+000	-2.000000e+002	0.000000e+000
33249490.000	-1.424170e-001	-1.216051e+002	-5.217989e+001	-2.787275e+001	-2.000000e+002	0.000000e+000	-2.000000e+002	0.000000e+000
33899480.000	-1.509100e-001	-1.240365e+002	-5.158541e+001	-3.111231e+001	-2.000000e+002	0.000000e+000	-2.000000e+002	0.000000e+000
34549470.000	-1.590424e-001	-1.264715e+002	-5.103104e+001	-3.400577e+001	-2.000000e+002	0.000000e+000	-2.000000e+002	0.000000e+000
35199460.000	-1.678179e-001	-1.289189e+002	-5.054354e+001	-3.689964e+001	-2.000000e+002	0.000000e+000	-2.000000e+002	0.000000e+000
35849450.000	-1.773516e-001	-1.313763e+002	-5.007797e+001	-3.903265e+001	-2.000000e+002	0.000000e+000	-2.000000e+002	0.000000e+000
36499440.000	-1.887898e-001	-1.338381e+002	-4.937309e+001	-3.975482e+001	-2.000000e+002	0.000000e+000	-2.000000e+002	0.000000e+000
37149430.000	-2.011361e-001	-1.363026e+002	-4.841972e+001	-4.045437e+001	-2.000000e+002	0.000000e+000	-2.000000e+002	0.000000e+000
37799420.000	-2.146432e-001	-1.387700e+002	-4.721435e+001	-4.171237e+001	-2.000000e+002	0.000000e+000	-2.000000e+002	0.000000e+000
38449410.000	-2.297043e-001	-1.412470e+002	-4.588155e+001	-4.348021e+001	-2.000000e+002	0.000000e+000	-2.000000e+002	0.000000e+000
39099400.000	-2.486102e-001	-1.437166e+002	-4.406807e+001	-4.587060e+001	-2.000000e+002	0.000000e+000	-2.000000e+002	0.000000e+000
39749390.000	-2.667809e-001	-1.461773e+002	-4.182404e+001	-5.078027e+001	-2.000000e+002	0.000000e+000	-2.000000e+002	0.000000e+000
40399380.000	-2.835996e-001	-1.486572e+002	-3.924773e+001	-5.900735e+001	-2.000000e+002	0.000000e+000	-2.000000e+002	0.000000e+000
41049370.000	-3.035382e-001	-1.512352e+002	-3.629055e+001	-7.107911e+001	-2.000000e+002	0.000000e+000	-2.000000e+002	0.000000e+000
41699360.000	-3.657986e-001	-1.540083e+002	-3.235860e+001	-8.955806e+001	-2.000000e+002	0.000000e+000	-2.000000e+002	0.000000e+000
42349350.000	-6.059746e-001	-1.560513e+002	-2.753455e+001	-1.357278e+002	-2.000000e+002	0.000000e+000	-2.000000e+002	0.000000e+000
42999340.000	-4.485167e-001	-1.566264e+002	-3.066794e+001	1.582186e+002	-2.000000e+002	0.000000e+000	-2.000000e+002	0.000000e+000
43649330.000	-3.338416e-001	-1.594347e+002	-3.601349e+001	1.335568e+002	-2.000000e+002	0.000000e+000	-2.000000e+002	0.000000e+000
44299320.000	-3.099198e-001	-1.621528e+002	-3.970100e+001	1.219639e+002	-2.000000e+002	0.000000e+000	-2.000000e+002	0.000000e+000
44949310.000	-3.063734e-001	-1.647615e+002	-4.246586e+001	1.129144e+002	-2.000000e+002	0.000000e+000	-2.000000e+002	0.000000e+000
45599300.000	-3.093372e-001	-1.673093e+002	-4.485609e+001	1.047777e+002	-2.000000e+002	0.000000e+000	-2.000000e+002	0.000000e+000
46249290.000	-3.148161e-001	-1.698255e+002	-4.701677e+001	9.780673e+001	-2.000000e+002	0.000000e+000	-2.000000e+002	0.000000e+000
46899280.000	-3.210589e-001	-1.723252e+002	-4.895490e+001	9.104170e+001	-2.000000e+002	0.000000e+000	-2.000000e+002	0.000000e+000
47549270.000	-3.282513e-001	-1.748089e+002	-5.072964e+001	8.372121e+001	-2.000000e+002	0.000000e+000	-2.000000e+002	0.000000e+000
48199260.000	-3.355464e-001	-1.772870e+002	-5.243756e+001	7.578015e+001	-2.000000e+002	0.000000e+000	-2.000000e+002	0.000000e+000
48849250.000	-3.430326e-001	-1.797542e+002	-5.413151e+001	6.682164e+001	-2.000000e+002	0.000000e+000	-2.000000e+002	0.000000e+000
49499240.000	-3.501416e-001	1.777817e+002	-5.604815e+001	5.520718e+001	-2.000000e+002	0.000000e+000	-2.000000e+002	0.000000e+000
50149230.000	-3.564535e-001	1.753229e+002	-5.821714e+001	4.365742e+001	-2.000000e+002	0.000000e+000	-2.000000e+002	0.000000e+000
50799220.000	-3.628774e-001	1.728661e+002	-6.044049e+001	3.299641e+001	-2.000000e+002	0.000000e+000	-2.000000e+002	0.000000e+000
51449210.000	-3.688441e-001	1.703998e+002	-6.224084e+001	2.163292e+001	-2.000000e+002	0.000000e+000	-2.000000e+002	0.000000e+000
52099200.000	-3.754201e-001	1.679432e+002	-6.366391e+001	3.811403e+000	-2.000000e+002	0.000000e+000	-2.000000e+002	0.000000e+000
52749190.000	-3.810932e-001	1.654874e+002	-6.492727e+001	-1.768551e+001	-2.000000e+002	0.000000e+000	-2.000000e+002	0.000000e+000
53399180.000	-3.866906e-001	1.630347e+002	-6.585283e+001	-3.946541e+001	-2.000000e+002	0.000000e+000	-2.000000e+002	0.000000e+000
54049170.000	-3.922160e-001	1.605792e+002	-6.658425e+001	-5.660398e+001	-2.000000e+002	0.000000e+000	-2.000000e+002	0.000000e+000
54699160.000	-3.978640e-001	1.581217e+002	-6.687411e+001	-7.177257e+001	-2.000000e+002	0.000000e+000	-2.000000e+002	0.000000e+000
55349150.000	-4.031331e-001	1.556688e+002	-6.678280e+001	-8.013923e+001	-2.000000e+002	0.000000e+000	-2.000000e+002	0.000000e+000
55999140.000	-4.090314e-001	1.532158e+002	-6.624484e+001	-8.812620e+001	-2.000000e+002	0.000000e+000	-2.000000e+002	0.000000e+000
56649130.000	-4.140827e-001	1.507671e+002	-6.572179e+001	-9.375952e+001	-2.000000e+002	0.000000e+000	-2.000000e+002	0.000000e+000
57299120.000	-4.196681e-001	1.483196e+002	-6.528441e+001	-9.603643e+001	-2.000000e+002	0.000000e+000	-2.000000e+002	0.000000e+000
57949110.000	-4.245367e-001	1.458702e+002	-6.478882e+001	-9.842182e+001	-2.000000e+002	0.000000e+000	-2.000000e+002	0.000000e+000
58599100.000	-4.291207e-001	1.434218e+002	-6.407384e+001	-1.005234e+002	-2.000000e+002	0.000000e+000	-2.000000e+002	0.000000e+000
59249090.000	-4.342663e-001	1.409774e+002	-6.368409e+001	-1.037982e+002	-2.000000e+002	0.000000e+000	-2.000000e+002	0.000000e+000
59899080.000	-4.387831e-001	1.385331e+002	-6.307742e+001	-1.044159e+002	-2.000000e+002	0.000000e+000	-2.000000e+002	0.000000e+000
60549070.000	-4.442370e-001	1.360958e+002	-6.256653e+001	-1.057412e+002	-2.000000e+002	0.000000e+000	-2.000000e+002	0.000000e+000
61199060.000	-4.488606e-001	1.336606e+002	-6.214552e+001	-1.071896e+002	-2.000000e+002	0.000000e+000	-2.000000e+002	0.000000e+000
61849050.000	-4.535502e-001	1.312245e+002	-6.171474e+001	-1.063375e+002	-2.000000e+002	0.000000e+000	-2.000000e+002	0.000000e+000
62499040.000	-4.585222e-001	1.287902e+002	-6.098194e+001	-1.038029e+002	-2.000000e+002	0.000000e+000	-2.000000e+002	0.000000e+000
63149030.000	-4.632656e-001	1.263604e+002	-5.960036e+001	-1.025524e+002	-2.000000e+002	0.000000e+000	-2.000000e+002	0.000000e+000
63799020.000	-4.688598e-001	1.239423e+002	-5.766871e+001	-1.051408e+002	-2.000000e+002	0.000000e+000	-2.000000e+002	0.000000e+000
64449010.000	-4.725009e-001	1.215359e+002	-5.614542e+001	-1.152078e+002	-2.000000e+002	0.000000e+000	-2.000000e+002	0.000000e+000
65099000.000	-4.738430e-001	1.191210e+002	-5.568007e+001	-1.260786e+002	-2.000000e+002	0.000000e+000	-2.000000e+002	0.000000e+000
65748990.000	-4.746178e-001	1.166974e+002	-5.578730e+001	-1.348397e+002	-2.000000e+002	0.000000e+000	-2.000000e+002	0.000000e+000
66398980.000	-4.764614e-001	1.142754e+002	-5.607435e+001	-1.405334e+002	-2.000000e+002	0.000000e+000	-2.000000e+002	0.000000e+000
67048970.000	-4.781699e-001	1.118512e+002	-5.639892e+001	-1.440228e+002	-2.000000e+002	0.000000e+000	-2.000000e+002	0.000000e+000
67698960.000	-4.804533e-001	1.094361e+002	-5.645130e+001	-1.463489e+002	-2.000000e+002	0.000000e+000	-2.000000e+002	0.000000e+000
68348950.000	-4.819645e-001	1.070171e+002	-5.639822e+001	-1.479675e+002	-2.000000e+002	0.000000e+000	-2.000000e+002	0.000000e+000
68998940.000	-4.842022e-001	1.046056e+002	-5.626795e+001	-1.498013e+002	-2.000000e+002	0.000000e+000	-2.000000e+002	0.000000e+000
69648930.000	-4.858870e-001	1.021915e+002	-5.596939e+001	-1.522112e+002	-2.000000e+002	0.000000e+000	-2.000000e+002	0.000000e+000
70298920.000	-4.857181e-001	9.976725e+001	-5.578502e+001	-1.554621e+002	-2.000000e+002	0.000000e+000	-2.000000e+002	0.000000e+000
70948910.000	-4.881306e-001	9.735877e+001	-5.557797e+001	-1.578667e+002	-2.000000e+002	0.000000e+000	-2.000000e+002	0.000000e+000
71598900.000	-4.886817e-001	9.495291e+001	-5.547788e+001	-1.607908e+002	-2.000000e+002	0.000000e+000	-2.000000e+002	0.000000e+000
72248890.000	-4.896184e-001	9.255082e+001	-5.523464e+001	-1.637626e+002	-2.000000e+002	0.000000e+000	-2.000000e+002	0.000000e+000
72898880.000	-4.908424e-001	9.014955e+001	-5.508603e+001	-1.666248e+002	-2.000000e+002	0.000000e+000	-2.000000e+002	0.000000e+000
73548870.000	-4.925410e-001	8.775155e+001	-5.504440e+001	-1.698946e+002	-2.000000e+002	0.000000e+000	-2.000000e+002	0.000000e+000
74198860.000	-4.930724e-001	8.535675e+001	-5.499725e+001	-1.723546e+002	-2.000000e+002	0.000000e+000	-2.000000e+002	0.000000e+000
74848850.000	-4.944253e-001	8.296588e+001	-5.482639e+001	-1.748032e+002	-2.000000e+002	0.000000e+000	-2.000000e+002	0.000000e+000
75498840.000	-4.935719e-001	8.057815e+001	-5.471104e+001	-1.773238e+002	-2.000000e+002	0.000000e+000	-2.000000e+002	0.000000e+000
76148830.000	-4.938213e-001	7.819207e+001	-5.466631e+001	1.791823e+002	-2.000000e+002	0.000000e+000	-2.000000e+002	0.000000e+000
76798820.000	-4.921606e-001	7.580940e+001	-5.466112e+001	1.767816e+002	-2.000000e+002	0.000000e+000	-2.000000e+002	0.000000e+000
77448810.000	-4.933218e-001	7.344386e+001	-5.459823e+001	1.740766e+002	-2.000000e+002	0.000000e+000	-2.000000e+002	0.000000e+000
78098800.000	-4.926016e-001	7.105598e+001	-5.463355e+001	1.712067e+002	-2.000000e+002	0.000000e+000	-2.000000e+002	0.000000e+000
78748790.000	-4.909302e-001	6.867866e+001	-5.469119e+001	1.685957e+002	-2.000000e+002	0.000000e+000	-2.000000e+002	0.000000e+000
79398780.000	-4.898851e-001	6.629384e+001	-5.472828e+001	1.663791e+002	-2.000000e+002	0.000000e+000	-2.000000e+002	0.000000e+000
80048770.000	-4.867225e-001	6.390434e+001	-5.481573e+001	1.645971e+002	-2.000000e+002	0.000000e+000	-2.000000e+002	0.000000e+000
80698760.000	-4.850405e-001	6.152738e+001	-5.488581e+001	1.626513e+002	-2.000000e+002	0.000000e+000	-2.000000e+002	0.000000e+000
81348750.000	-4.828373e-001	5.915371e+001	-5.494157e+001	1.610225e+002	-2.000000e+002	0.000000e+000	-2.000000e+002	0.000000e+000
81998740.000	-4.813843e-001	5.677662e+001	-5.505873e+001	1.595562e+002	-2.000000e+002	0.000000e+000	-2.000000e+002	0.000000e+000
82648730.000	-4.821263e-001	5.442252e+001	-5.509219e+001	1.584279e+002	-2.000000e+002	0.000000e+000	-2.000000e+002	0.000000e+000
83298720.000	-4.810168e-001	5.204923e+001	-5.511408e+001	1.571579e+002	-2.000000e+002	0.000000e+000	-2.000000e+002	0.000000e+000
83948710.000	-4.791724e-001	4.967947e+001	-5.511221e+001	1.562302e+002	-2.000000e+002	0.000000e+000	-2.000000e+002	0.000000e+000
84598700.000	-4.775536e-001	4.730596e+001	-5.530053e+001	1.557179e+002	-2.000000e+002	0.000000e+000	-2.000000e+002	0.000000e+000
85248690.000	-4.759556e-001	4.493605e+001	-5.517726e+001	1.539909e+002	-2.000000e+002	0.000000e+000	-2.000000e+002	0.000000e+000
85898680.000	-4.743165e-001	4.257416e+001	-5.530627e+001	1.556288e+002	-2.000000e+002	0.000000e+000	-2.000000e+002	0.000000e+000
86548670.000	-4.724294e-001	4.020920e+001	-5.518574e+001	1.565493e+002	-2.000000e+002	0.000000e+000	-2.000000e+002	0.000000e+000
87198660.000	-4.710241e-001	3.784863e+001	-5.506041e+001	1.578398e+002	-2.000000e+002	0.000000e+000	-2.000000e+002	0.000000e+000
87848650.000	-4.697390e-001	3.549524e+001	-5.467652e+001	1.587072e+002	-2.000000e+002	0.000000e+000	-2.000000e+002	0.000000e+000
88498640.000	-4.691921e-001	3.314074e+001	-5.416714e+001	1.591289e+002	-2.000000e+002	0.000000e+000	-2.000000e+002	0.000000e+000
89148630.000	-4.676249e-001	3.079573e+001	-5.371793e+001	1.591864e+002	-2.000000e+002	0.000000e+000	-2.000000e+002	0.000000e+000
89798620.000	-4.664140e-001	2.844739e+001	-5.318274e+001	1.583544e+002	-2.000000e+002	0.000000e+000	-2.000000e+002	0.000000e+000
90448610.000	-4.649268e-001	2.610263e+001	-5.267447e+001	1.571819e+002	-2.000000e+002	0.000000e+000	-2.000000e+002	0.000000e+000
91098600.000	-4.634245e-001	2.375890e+001	-5.201433e+001	1.555629e+002	-2.000000e+002	0.000000e+000	-2.000000e+002	0.000000e+000
91748590.000	-4.614897e-001	2.141782e+001	-5.141378e+001	1.520611e+002	-2.000000e+002	0.000000e+000	-2.000000e+002	0.000000e+000
92398580.000	-4.587375e-001	1.907711e+001	-5.099322e+001	1.480849e+002	-2.000000e+002	0.000000e+000	-2.000000e+002	0.000000e+000
93048570.000	-4.563417e-001	1.672371e+001	-5.062988e+001	1.453704e+002	-2.000000e+002	0.000000e+000	-2.000000e+002	0.000000e+000
93698560.000	-4.541420e-001	1.439502e+001	-5.040901e+001	1.421206e+002	-2.000000e+002	0.000000e+000	-2.000000e+002	0.000000e+000
94348550.000	-4.513194e-001	1.205872e+001	-5.012681e+001	1.387129e+002	-2.000000e+002	0.000000e+000	-2.000000e+002	0.000000e+000
94998540.000	-4.484469e-001	9.720042e+000	-4.977669e+001	1.355502e+002	-2.000000e+002	0.000000e+000	-2.000000e+002	0.000000e+000
95648530.000	-4.454202e-001	7.387147e+000	-4.967736e+001	1.320365e+002	-2.000000e+002	0.000000e+000	-2.000000e+002	0.000000e+000
96298520.000	-4.408590e-001	5.049064e+000	-4.959497e+001	1.288128e+002	-2.000000e+002	0.000000e+000	-2.000000e+002	0.000000e+000
96948510.000	-4.381382e-001	2.707014e+000	-4.960438e+001	1.264109e+002	-2.000000e+002	0.000000e+000	-2.000000e+002	0.000000e+000
97598500.000	-4.360258e-001	3.659755e-001	-4.952999e+001	1.252101e+002	-2.000000e+002	0.000000e+000	-2.000000e+002	0.000000e+000
98248490.000	-4.342344e-001	-1.963731e+000	-4.921111e+001	1.244472e+002	-2.000000e+002	0.000000e+000	-2.000000e+002	0.000000e+000
