!Keysight Technologies,E5063A,MY54503115,A.05.08
!Date: Fri Oct 20 10:13:52 2023
!Data & Calibration Information:
!Freq	S11:NONE(--)	S21:NONE(--)	S12:NONE(--)	S22:NONE(--)
# Hz S dB R 50
300000.000	5.142363e-003	-5.369690e-001	-1.026790e+002	1.303993e+002	-2.000000e+002	0.000000e+000	-2.000000e+002	0.000000e+000
949970.000	-3.244872e-003	-6.321625e-001	-8.762182e+001	4.007835e+001	-2.000000e+002	0.000000e+000	-2.000000e+002	0.000000e+000
1599940.000	-3.239331e-003	-8.187219e-001	-7.948438e+001	3.866187e+001	-2.000000e+002	0.000000e+000	-2.000000e+002	0.000000e+000
2249910.000	-2.881327e-003	-1.003905e+000	-8.456908e+001	9.541043e+001	-2.000000e+002	0.000000e+000	-2.000000e+002	0.000000e+000
2899880.000	-2.564424e-003	-1.190382e+000	-8.005249e+001	1.027637e+002	-2.000000e+002	0.000000e+000	-2.000000e+002	0.000000e+000
3549850.000	-2.810056e-003	-1.390446e+000	-7.818974e+001	8.970102e+001	-2.000000e+002	0.000000e+000	-2.000000e+002	0.000000e+000
4199820.000	-3.330578e-003	-1.593439e+000	-7.926642e+001	8.866565e+001	-2.000000e+002	0.000000e+000	-2.000000e+002	0.000000e+000
4849790.000	-3.673927e-003	-1.807340e+000	-7.419746e+001	1.078119e+002	-2.000000e+002	0.000000e+000	-2.000000e+002	0.000000e+000
5499760.000	-3.514633e-003	-1.999322e+000	-7.445906e+001	1.058913e+002	-2.000000e+002	0.000000e+000	-2.000000e+002	0.000000e+000
6149730.000	-2.816829e-003	-2.209762e+000	-7.439223e+001	8.361775e+001	-2.000000e+002	0.000000e+000	-2.000000e+002	0.000000e+000
6799700.000	-4.237258e-003	-2.400901e+000	-7.581339e+001	7.448977e+001	-2.000000e+002	0.000000e+000	-2.000000e+002	0.000000e+000
7449670.000	-3.271874e-003	-2.625389e+000	-7.530895e+001	8.249882e+001	-2.000000e+002	0.000000e+000	-2.000000e+002	0.000000e+000
8099640.000	-4.909551e-003	-2.821681e+000	-7.134209e+001	9.619785e+001	-2.000000e+002	0.000000e+000	-2.000000e+002	0.000000e+000
8749610.000	-2.108770e-003	-3.030579e+000	-7.143404e+001	8.731310e+001	-2.000000e+002	0.000000e+000	-2.000000e+002	0.000000e+000
9399580.000	-3.080037e-003	-3.235764e+000	-7.128275e+001	8.739428e+001	-2.000000e+002	0.000000e+000	-2.000000e+002	0.000000e+000
10049550.000	-2.679230e-003	-3.437308e+000	-7.057207e+001	8.714672e+001	-2.000000e+002	0.000000e+000	-2.000000e+002	0.000000e+000
10699520.000	-4.186470e-003	-3.627856e+000	-6.992638e+001	8.637231e+001	-2.000000e+002	0.000000e+000	-2.000000e+002	0.000000e+000
11349490.000	-5.376325e-003	-3.821156e+000	-6.974545e+001	8.576987e+001	-2.000000e+002	0.000000e+000	-2.000000e+002	0.000000e+000
11999460.000	-5.282250e-003	-4.023939e+000	-6.922980e+001	8.457504e+001	-2.000000e+002	0.000000e+000	-2.000000e+002	0.000000e+000
12649430.000	-3.598698e-003	-4.240140e+000	-6.845946e+001	8.624658e+001	-2.000000e+002	0.000000e+000	-2.000000e+002	0.000000e+000
13299400.000	-3.670334e-003	-4.446669e+000	-6.807848e+001	8.743336e+001	-2.000000e+002	0.000000e+000	-2.000000e+002	0.000000e+000
13949370.000	-4.911390e-003	-4.652622e+000	-6.786708e+001	8.528223e+001	-2.000000e+002	0.000000e+000	-2.000000e+002	0.000000e+000
14599340.000	-4.948409e-003	-4.855922e+000	-6.718750e+001	8.643908e+001	-2.000000e+002	0.000000e+000	-2.000000e+002	0.000000e+000
15249310.000	-5.407055e-003	-5.068817e+000	-6.698510e+001	8.581384e+001	-2.000000e+002	0.000000e+000	-2.000000e+002	0.000000e+000
15899280.000	-3.890932e-003	-5.250726e+000	-6.666012e+001	8.648969e+001	-2.000000e+002	0.000000e+000	-2.000000e+002	0.000000e+000
16549250.000	-6.065210e-003	-5.453237e+000	-6.632553e+001	8.689664e+001	-2.000000e+002	0.000000e+000	-2.000000e+002	0.000000e+000
17199220.000	-4.766417e-003	-5.671402e+000	-6.589150e+001	8.576831e+001	-2.000000e+002	0.000000e+000	-2.000000e+002	0.000000e+000
17849190.000	1.759674e-003	-5.892035e+000	-6.592035e+001	8.647422e+001	-2.000000e+002	0.000000e+000	-2.000000e+002	0.000000e+000
18499160.000	1.694149e-003	-6.098295e+000	-6.549154e+001	8.676239e+001	-2.000000e+002	0.000000e+000	-2.000000e+002	0.000000e+000
19149130.000	-1.333529e-003	-6.292750e+000	-6.518878e+001	8.559163e+001	-2.000000e+002	0.000000e+000	-2.000000e+002	0.000000e+000
19799100.000	-5.310814e-003	-6.452672e+000	-6.479876e+001	8.514585e+001	-2.000000e+002	0.000000e+000	-2.000000e+002	0.000000e+000
20449070.000	-8.909091e-003	-6.659270e+000	-6.491404e+001	8.674827e+001	-2.000000e+002	0.000000e+000	-2.000000e+002	0.000000e+000
21099040.000	-9.513202e-003	-6.886335e+000	-6.446145e+001	8.669307e+001	-2.000000e+002	0.000000e+000	-2.000000e+002	0.000000e+000
21749010.000	-9.836832e-003	-7.092732e+000	-6.442568e+001	8.793941e+001	-2.000000e+002	0.000000e+000	-2.000000e+002	0.000000e+000
22398980.000	-7.152817e-003	-7.272091e+000	-6.398949e+001	8.920528e+001	-2.000000e+002	0.000000e+000	-2.000000e+002	0.000000e+000
23048950.000	-3.512393e-003	-7.450187e+000	-6.374648e+001	9.026790e+001	-2.000000e+002	0.000000e+000	-2.000000e+002	0.000000e+000
23698920.000	-6.239158e-003	-7.661055e+000	-6.303370e+001	8.949347e+001	-2.000000e+002	0.000000e+000	-2.000000e+002	0.000000e+000
24348890.000	-6.471066e-003	-7.864337e+000	-6.288917e+001	8.923589e+001	-2.000000e+002	0.000000e+000	-2.000000e+002	0.000000e+000
24998860.000	-5.643766e-003	-8.066156e+000	-6.247219e+001	8.992721e+001	-2.000000e+002	0.000000e+000	-2.000000e+002	0.000000e+000
25648830.000	-2.419360e-003	-8.272574e+000	-6.201704e+001	8.896978e+001	-2.000000e+002	0.000000e+000	-2.000000e+002	0.000000e+000
26298800.000	-4.253951e-003	-8.472586e+000	-6.146544e+001	8.736664e+001	-2.000000e+002	0.000000e+000	-2.000000e+002	0.000000e+000
26948770.000	-4.364564e-003	-8.677247e+000	-6.136455e+001	8.638544e+001	-2.000000e+002	0.000000e+000	-2.000000e+002	0.000000e+000
27598740.000	-3.989164e-003	-8.883729e+000	-6.112163e+001	8.520751e+001	-2.000000e+002	0.000000e+000	-2.000000e+002	0.000000e+000
28248710.000	-3.624532e-003	-9.090854e+000	-6.104475e+001	8.437209e+001	-2.000000e+002	0.000000e+000	-2.000000e+002	0.000000e+000
28898680.000	-4.847847e-003	-9.285957e+000	-6.090713e+001	8.471853e+001	-2.000000e+002	0.000000e+000	-2.000000e+002	0.000000e+000
29548650.000	-4.099338e-003	-9.485056e+000	-6.070208e+001	8.335924e+001	-2.000000e+002	0.000000e+000	-2.000000e+002	0.000000e+000
30198620.000	-4.527466e-003	-9.693366e+000	-6.050555e+001	8.288259e+001	-2.000000e+002	0.000000e+000	-2.000000e+002	0.000000e+000
30848590.000	-4.084231e-003	-9.900829e+000	-6.042563e+001	8.258746e+001	-2.000000e+002	0.000000e+000	-2.000000e+002	0.000000e+000
31498560.000	-4.851242e-003	-1.011136e+001	-6.020847e+001	8.204630e+001	-2.000000e+002	0.000000e+000	-2.000000e+002	0.000000e+000
32148530.000	-4.152278e-003	-1.031449e+001	-6.020695e+001	8.247508e+001	-2.000000e+002	0.000000e+000	-2.000000e+002	0.000000e+000
32798500.000	-5.048333e-003	-1.051687e+001	-6.015908e+001	8.164233e+001	-2.000000e+002	0.000000e+000	-2.000000e+002	0.000000e+000
33448470.000	-5.239252e-003	-1.072292e+001	-6.000416e+001	8.230907e+001	-2.000000e+002	0.000000e+000	-2.000000e+002	0.000000e+000
34098440.000	-5.768288e-003	-1.092622e+001	-5.995646e+001	8.215556e+001	-2.000000e+002	0.000000e+000	-2.000000e+002	0.000000e+000
34748410.000	-6.584149e-003	-1.111995e+001	-5.977079e+001	8.269743e+001	-2.000000e+002	0.000000e+000	-2.000000e+002	0.000000e+000
35398380.000	-5.850252e-003	-1.131879e+001	-5.977714e+001	8.273418e+001	-2.000000e+002	0.000000e+000	-2.000000e+002	0.000000e+000
36048350.000	-6.229613e-003	-1.152068e+001	-5.953123e+001	8.282340e+001	-2.000000e+002	0.000000e+000	-2.000000e+002	0.000000e+000
36698320.000	-6.180696e-003	-1.172038e+001	-5.934968e+001	8.409053e+001	-2.000000e+002	0.000000e+000	-2.000000e+002	0.000000e+000
37348290.000	-6.762694e-003	-1.192552e+001	-5.913881e+001	8.445153e+001	-2.000000e+002	0.000000e+000	-2.000000e+002	0.000000e+000
37998260.000	-6.757434e-003	-1.213128e+001	-5.908828e+001	8.393857e+001	-2.000000e+002	0.000000e+000	-2.000000e+002	0.000000e+000
38648230.000	-7.266551e-003	-1.233819e+001	-5.892027e+001	8.507960e+001	-2.000000e+002	0.000000e+000	-2.000000e+002	0.000000e+000
39298200.000	-8.645618e-003	-1.254501e+001	-5.860584e+001	8.484428e+001	-2.000000e+002	0.000000e+000	-2.000000e+002	0.000000e+000
39948170.000	-8.663646e-003	-1.275145e+001	-5.837089e+001	8.581814e+001	-2.000000e+002	0.000000e+000	-2.000000e+002	0.000000e+000
40598140.000	-9.072722e-003	-1.295752e+001	-5.801944e+001	8.592523e+001	-2.000000e+002	0.000000e+000	-2.000000e+002	0.000000e+000
41248110.000	-7.804545e-003	-1.315534e+001	-5.761917e+001	8.560618e+001	-2.000000e+002	0.000000e+000	-2.000000e+002	0.000000e+000
41898080.000	-8.148979e-003	-1.335758e+001	-5.754262e+001	8.343858e+001	-2.000000e+002	0.000000e+000	-2.000000e+002	0.000000e+000
42548050.000	-6.422717e-003	-1.355754e+001	-5.745203e+001	8.304183e+001	-2.000000e+002	0.000000e+000	-2.000000e+002	0.000000e+000
43198020.000	-7.709996e-003	-1.375678e+001	-5.726439e+001	8.335703e+001	-2.000000e+002	0.000000e+000	-2.000000e+002	0.000000e+000
43847990.000	-8.282195e-003	-1.396068e+001	-5.713941e+001	8.196236e+001	-2.000000e+002	0.000000e+000	-2.000000e+002	0.000000e+000
44497960.000	-8.226265e-003	-1.416394e+001	-5.698790e+001	8.231005e+001	-2.000000e+002	0.000000e+000	-2.000000e+002	0.000000e+000
45147930.000	-8.004012e-003	-1.437331e+001	-5.690168e+001	8.260464e+001	-2.000000e+002	0.000000e+000	-2.000000e+002	0.000000e+000
45797900.000	-8.739444e-003	-1.457504e+001	-5.683947e+001	8.258424e+001	-2.000000e+002	0.000000e+000	-2.000000e+002	0.000000e+000
46447870.000	-9.837618e-003	-1.478080e+001	-5.667593e+001	8.224730e+001	-2.000000e+002	0.000000e+000	-2.000000e+002	0.000000e+000
47097840.000	-1.076378e-002	-1.498248e+001	-5.650613e+001	8.189513e+001	-2.000000e+002	0.000000e+000	-2.000000e+002	0.000000e+000
47747810.000	-1.081931e-002	-1.518139e+001	-5.636106e+001	8.235451e+001	-2.000000e+002	0.000000e+000	-2.000000e+002	0.000000e+000
48397780.000	-1.230546e-002	-1.538882e+001	-5.620655e+001	8.246154e+001	-2.000000e+002	0.000000e+000	-2.000000e+002	0.000000e+000
49047750.000	-1.268878e-002	-1.559291e+001	-5.598615e+001	8.249391e+001	-2.000000e+002	0.000000e+000	-2.000000e+002	0.000000e+000
49697720.000	-1.359071e-002	-1.579231e+001	-5.577146e+001	8.205220e+001	-2.000000e+002	0.000000e+000	-2.000000e+002	0.000000e+000
50347690.000	-1.246479e-002	-1.599716e+001	-5.558858e+001	8.201014e+001	-2.000000e+002	0.000000e+000	-2.000000e+002	0.000000e+000
50997660.000	-1.206584e-002	-1.620192e+001	-5.540357e+001	8.109635e+001	-2.000000e+002	0.000000e+000	-2.000000e+002	0.000000e+000
51647630.000	-1.279406e-002	-1.640484e+001	-5.530753e+001	8.013723e+001	-2.000000e+002	0.000000e+000	-2.000000e+002	0.000000e+000
52297600.000	-1.262210e-002	-1.660780e+001	-5.521558e+001	8.000907e+001	-2.000000e+002	0.000000e+000	-2.000000e+002	0.000000e+000
52947570.000	-1.267710e-002	-1.680876e+001	-5.516771e+001	7.997607e+001	-2.000000e+002	0.000000e+000	-2.000000e+002	0.000000e+000
53597540.000	-1.287999e-002	-1.700916e+001	-5.503300e+001	7.948043e+001	-2.000000e+002	0.000000e+000	-2.000000e+002	0.000000e+000
54247510.000	-1.390980e-002	-1.721595e+001	-5.488742e+001	7.928236e+001	-2.000000e+002	0.000000e+000	-2.000000e+002	0.000000e+000
54897480.000	-1.412109e-002	-1.742269e+001	-5.471147e+001	7.997397e+001	-2.000000e+002	0.000000e+000	-2.000000e+002	0.000000e+000
55547450.000	-1.482612e-002	-1.762254e+001	-5.456869e+001	7.936285e+001	-2.000000e+002	0.000000e+000	-2.000000e+002	0.000000e+000
56197420.000	-1.472332e-002	-1.782911e+001	-5.436453e+001	7.880296e+001	-2.000000e+002	0.000000e+000	-2.000000e+002	0.000000e+000
56847390.000	-1.485091e-002	-1.802866e+001	-5.414421e+001	7.834104e+001	-2.000000e+002	0.000000e+000	-2.000000e+002	0.000000e+000
57497360.000	-1.550473e-002	-1.823119e+001	-5.406209e+001	7.758701e+001	-2.000000e+002	0.000000e+000	-2.000000e+002	0.000000e+000
58147330.000	-1.536992e-002	-1.843334e+001	-5.391003e+001	7.712826e+001	-2.000000e+002	0.000000e+000	-2.000000e+002	0.000000e+000
58797300.000	-1.613763e-002	-1.863164e+001	-5.380478e+001	7.619797e+001	-2.000000e+002	0.000000e+000	-2.000000e+002	0.000000e+000
59447270.000	-1.649255e-002	-1.883373e+001	-5.365301e+001	7.541562e+001	-2.000000e+002	0.000000e+000	-2.000000e+002	0.000000e+000
60097240.000	-1.705585e-002	-1.903639e+001	-5.365242e+001	7.482101e+001	-2.000000e+002	0.000000e+000	-2.000000e+002	0.000000e+000
60747210.000	-1.731176e-002	-1.923543e+001	-5.355793e+001	7.444910e+001	-2.000000e+002	0.000000e+000	-2.000000e+002	0.000000e+000
61397180.000	-1.803277e-002	-1.943825e+001	-5.350386e+001	7.388040e+001	-2.000000e+002	0.000000e+000	-2.000000e+002	0.000000e+000
62047150.000	-1.873012e-002	-1.963731e+001	-5.343478e+001	7.363299e+001	-2.000000e+002	0.000000e+000	-2.000000e+002	0.000000e+000
62697120.000	-1.889550e-002	-1.983649e+001	-5.337494e+001	7.289432e+001	-2.000000e+002	0.000000e+000	-2.000000e+002	0.000000e+000
63347090.000	-1.965063e-002	-2.003961e+001	-5.332488e+001	7.285848e+001	-2.000000e+002	0.000000e+000	-2.000000e+002	0.000000e+000
63997060.000	-1.998962e-002	-2.024181e+001	-5.327919e+001	7.236769e+001	-2.000000e+002	0.000000e+000	-2.000000e+002	0.000000e+000
64647030.000	-2.072284e-002	-2.043758e+001	-5.322900e+001	7.194188e+001	-2.000000e+002	0.000000e+000	-2.000000e+002	0.000000e+000
65297000.000	-2.126753e-002	-2.064164e+001	-5.316823e+001	7.206311e+001	-2.000000e+002	0.000000e+000	-2.000000e+002	0.000000e+000
65946970.000	-2.206919e-002	-2.084704e+001	-5.308719e+001	7.201362e+001	-2.000000e+002	0.000000e+000	-2.000000e+002	0.000000e+000
66596940.000	-2.164305e-002	-2.104551e+001	-5.301039e+001	7.152901e+001	-2.000000e+002	0.000000e+000	-2.000000e+002	0.000000e+000
67246910.000	-2.278790e-002	-2.124900e+001	-5.293073e+001	7.142198e+001	-2.000000e+002	0.000000e+000	-2.000000e+002	0.000000e+000
67896880.000	-2.264608e-002	-2.144746e+001	-5.282606e+001	7.149214e+001	-2.000000e+002	0.000000e+000	-2.000000e+002	0.000000e+000
68546850.000	-2.366468e-002	-2.164933e+001	-5.275422e+001	7.067400e+001	-2.000000e+002	0.000000e+000	-2.000000e+002	0.000000e+000
69196820.000	-2.388010e-002	-2.185116e+001	-5.267735e+001	7.057925e+001	-2.000000e+002	0.000000e+000	-2.000000e+002	0.000000e+000
69846790.000	-2.342433e-002	-2.205226e+001	-5.266034e+001	7.012517e+001	-2.000000e+002	0.000000e+000	-2.000000e+002	0.000000e+000
70496760.000	-2.309363e-002	-2.225780e+001	-5.253067e+001	7.021364e+001	-2.000000e+002	0.000000e+000	-2.000000e+002	0.000000e+000
71146730.000	-2.349303e-002	-2.246198e+001	-5.246629e+001	6.990502e+001	-2.000000e+002	0.000000e+000	-2.000000e+002	0.000000e+000
71796700.000	-2.515278e-002	-2.266713e+001	-5.243082e+001	6.962422e+001	-2.000000e+002	0.000000e+000	-2.000000e+002	0.000000e+000
72446670.000	-2.437181e-002	-2.286913e+001	-5.233202e+001	6.929904e+001	-2.000000e+002	0.000000e+000	-2.000000e+002	0.000000e+000
73096640.000	-2.474814e-002	-2.307373e+001	-5.226102e+001	6.912865e+001	-2.000000e+002	0.000000e+000	-2.000000e+002	0.000000e+000
73746610.000	-2.522865e-002	-2.327029e+001	-5.226819e+001	6.894038e+001	-2.000000e+002	0.000000e+000	-2.000000e+002	0.000000e+000
74396580.000	-2.605206e-002	-2.347576e+001	-5.217655e+001	6.864761e+001	-2.000000e+002	0.000000e+000	-2.000000e+002	0.000000e+000
75046550.000	-2.526449e-002	-2.367836e+001	-5.215654e+001	6.843482e+001	-2.000000e+002	0.000000e+000	-2.000000e+002	0.000000e+000
75696520.000	-2.593219e-002	-2.388228e+001	-5.213234e+001	6.840500e+001	-2.000000e+002	0.000000e+000	-2.000000e+002	0.000000e+000
76346490.000	-2.687973e-002	-2.408765e+001	-5.202613e+001	6.844042e+001	-2.000000e+002	0.000000e+000	-2.000000e+002	0.000000e+000
76996460.000	-2.740689e-002	-2.427762e+001	-5.198515e+001	6.805759e+001	-2.000000e+002	0.000000e+000	-2.000000e+002	0.000000e+000
77646430.000	-2.710268e-002	-2.448136e+001	-5.187800e+001	6.827289e+001	-2.000000e+002	0.000000e+000	-2.000000e+002	0.000000e+000
78296400.000	-2.808388e-002	-2.468167e+001	-5.180960e+001	6.780000e+001	-2.000000e+002	0.000000e+000	-2.000000e+002	0.000000e+000
78946370.000	-2.875653e-002	-2.488456e+001	-5.174282e+001	6.786637e+001	-2.000000e+002	0.000000e+000	-2.000000e+002	0.000000e+000
79596340.000	-2.766182e-002	-2.509634e+001	-5.163332e+001	6.756993e+001	-2.000000e+002	0.000000e+000	-2.000000e+002	0.000000e+000
80246310.000	-2.902023e-002	-2.530030e+001	-5.159484e+001	6.703303e+001	-2.000000e+002	0.000000e+000	-2.000000e+002	0.000000e+000
80896280.000	-2.905285e-002	-2.550052e+001	-5.157886e+001	6.675671e+001	-2.000000e+002	0.000000e+000	-2.000000e+002	0.000000e+000
81546250.000	-2.951411e-002	-2.570312e+001	-5.149458e+001	6.650507e+001	-2.000000e+002	0.000000e+000	-2.000000e+002	0.000000e+000
82196220.000	-2.983409e-002	-2.589907e+001	-5.142270e+001	6.670486e+001	-2.000000e+002	0.000000e+000	-2.000000e+002	0.000000e+000
82846190.000	-3.020579e-002	-2.610800e+001	-5.144973e+001	6.619892e+001	-2.000000e+002	0.000000e+000	-2.000000e+002	0.000000e+000
83496160.000	-3.098894e-002	-2.631243e+001	-5.133654e+001	6.601449e+001	-2.000000e+002	0.000000e+000	-2.000000e+002	0.000000e+000
84146130.000	-3.153325e-002	-2.651689e+001	-5.127589e+001	6.686112e+001	-2.000000e+002	0.000000e+000	-2.000000e+002	0.000000e+000
84796100.000	-3.226579e-002	-2.671964e+001	-5.125564e+001	6.663731e+001	-2.000000e+002	0.000000e+000	-2.000000e+002	0.000000e+000
85446070.000	-3.181698e-002	-2.692355e+001	-5.117762e+001	6.632755e+001	-2.000000e+002	0.000000e+000	-2.000000e+002	0.000000e+000
86096040.000	-3.282658e-002	-2.712627e+001	-5.110890e+001	6.649219e+001	-2.000000e+002	0.000000e+000	-2.000000e+002	0.000000e+000
86746010.000	-3.215730e-002	-2.732410e+001	-5.103984e+001	6.622647e+001	-2.000000e+002	0.000000e+000	-2.000000e+002	0.000000e+000
87395980.000	-3.341354e-002	-2.752527e+001	-5.092831e+001	6.615256e+001	-2.000000e+002	0.000000e+000	-2.000000e+002	0.000000e+000
88045950.000	-3.421585e-002	-2.773035e+001	-5.094199e+001	6.511797e+001	-2.000000e+002	0.000000e+000	-2.000000e+002	0.000000e+000
88695920.000	-3.486074e-002	-2.792736e+001	-5.080724e+001	6.584857e+001	-2.000000e+002	0.000000e+000	-2.000000e+002	0.000000e+000
89345890.000	-3.486289e-002	-2.812860e+001	-5.074080e+001	6.557068e+001	-2.000000e+002	0.000000e+000	-2.000000e+002	0.000000e+000
89995860.000	-3.518889e-002	-2.833098e+001	-5.064333e+001	6.578815e+001	-2.000000e+002	0.000000e+000	-2.000000e+002	0.000000e+000
90645830.000	-3.553510e-002	-2.853918e+001	-5.059591e+001	6.590000e+001	-2.000000e+002	0.000000e+000	-2.000000e+002	0.000000e+000
91295800.000	-3.461551e-002	-2.874176e+001	-5.056881e+001	6.516058e+001	-2.000000e+002	0.000000e+000	-2.000000e+002	0.000000e+000
91945770.000	-3.647375e-002	-2.894750e+001	-5.045238e+001	6.489823e+001	-2.000000e+002	0.000000e+000	-2.000000e+002	0.000000e+000
92595740.000	-3.638644e-002	-2.915292e+001	-5.035662e+001	6.487814e+001	-2.000000e+002	0.000000e+000	-2.000000e+002	0.000000e+000
93245710.000	-3.565970e-002	-2.935847e+001	-5.031549e+001	6.451901e+001	-2.000000e+002	0.000000e+000	-2.000000e+002	0.000000e+000
93895680.000	-3.612551e-002	-2.956270e+001	-5.026223e+001	6.449038e+001	-2.000000e+002	0.000000e+000	-2.000000e+002	0.000000e+000
94545650.000	-3.729536e-002	-2.976480e+001	-5.019801e+001	6.419060e+001	-2.000000e+002	0.000000e+000	-2.000000e+002	0.000000e+000
95195620.000	-3.651424e-002	-2.996641e+001	-5.012849e+001	6.382376e+001	-2.000000e+002	0.000000e+000	-2.000000e+002	0.000000e+000
95845590.000	-3.743655e-002	-3.016917e+001	-5.010339e+001	6.360101e+001	-2.000000e+002	0.000000e+000	-2.000000e+002	0.000000e+000
96495560.000	-3.811313e-002	-3.037185e+001	-5.002004e+001	6.326995e+001	-2.000000e+002	0.000000e+000	-2.000000e+002	0.000000e+000
97145530.000	-3.827290e-002	-3.057068e+001	-4.999722e+001	6.342587e+001	-2.000000e+002	0.000000e+000	-2.000000e+002	0.000000e+000
97795500.000	-3.894260e-002	-3.077303e+001	-4.995431e+001	6.318944e+001	-2.000000e+002	0.000000e+000	-2.000000e+002	0.000000e+000
98445470.000	-3.935361e-002	-3.097795e+001	-4.991445e+001	6.317147e+001	-2.000000e+002	0.000000e+000	-2.000000e+002	0.000000e+000
