!Keysight Technologies,E5063A,MY54503115,A.05.08
!Date: Fri Oct 20 10:07:34 2023
!Data & Calibration Information:
!Freq	S11:NONE(--)	S21:NONE(--)	S12:NONE(--)	S22:NONE(--)
# Hz S dB R 50
300000.000	6.415610e-003	-5.278207e-001	-8.565373e+001	1.490438e+001	-2.000000e+002	0.000000e+000	-2.000000e+002	0.000000e+000
949970.000	-4.022123e-003	-6.266353e-001	-9.145111e+001	1.687254e+002	-2.000000e+002	0.000000e+000	-2.000000e+002	0.000000e+000
1599940.000	-3.258343e-003	-8.143055e-001	-7.842421e+001	8.121102e+001	-2.000000e+002	0.000000e+000	-2.000000e+002	0.000000e+000
2249910.000	-3.251820e-003	-1.007638e+000	-8.039595e+001	6.609199e+001	-2.000000e+002	0.000000e+000	-2.000000e+002	0.000000e+000
2899880.000	-3.091583e-003	-1.189798e+000	-8.634640e+001	6.301762e+001	-2.000000e+002	0.000000e+000	-2.000000e+002	0.000000e+000
3549850.000	-3.533135e-003	-1.391307e+000	-8.337224e+001	1.073374e+002	-2.000000e+002	0.000000e+000	-2.000000e+002	0.000000e+000
4199820.000	-2.908238e-003	-1.589156e+000	-7.933925e+001	9.337692e+001	-2.000000e+002	0.000000e+000	-2.000000e+002	0.000000e+000
4849790.000	-2.922687e-003	-1.803094e+000	-7.850267e+001	1.071677e+002	-2.000000e+002	0.000000e+000	-2.000000e+002	0.000000e+000
5499760.000	-3.030167e-003	-1.998536e+000	-7.406055e+001	1.144111e+002	-2.000000e+002	0.000000e+000	-2.000000e+002	0.000000e+000
6149730.000	-3.872421e-003	-2.204227e+000	-7.317223e+001	8.439486e+001	-2.000000e+002	0.000000e+000	-2.000000e+002	0.000000e+000
6799700.000	-3.750697e-003	-2.396211e+000	-7.277868e+001	8.077180e+001	-2.000000e+002	0.000000e+000	-2.000000e+002	0.000000e+000
7449670.000	-3.016577e-003	-2.613921e+000	-7.286202e+001	8.968570e+001	-2.000000e+002	0.000000e+000	-2.000000e+002	0.000000e+000
8099640.000	-4.176163e-003	-2.813706e+000	-7.404911e+001	1.056490e+002	-2.000000e+002	0.000000e+000	-2.000000e+002	0.000000e+000
8749610.000	-1.673272e-003	-3.023982e+000	-7.156811e+001	8.762814e+001	-2.000000e+002	0.000000e+000	-2.000000e+002	0.000000e+000
9399580.000	-3.603771e-003	-3.231807e+000	-7.117131e+001	8.791977e+001	-2.000000e+002	0.000000e+000	-2.000000e+002	0.000000e+000
10049550.000	-2.227633e-003	-3.435157e+000	-7.044187e+001	8.855505e+001	-2.000000e+002	0.000000e+000	-2.000000e+002	0.000000e+000
10699520.000	-4.125890e-003	-3.622205e+000	-7.004731e+001	8.683074e+001	-2.000000e+002	0.000000e+000	-2.000000e+002	0.000000e+000
11349490.000	-6.076660e-003	-3.817340e+000	-6.966676e+001	8.807700e+001	-2.000000e+002	0.000000e+000	-2.000000e+002	0.000000e+000
11999460.000	-4.600139e-003	-4.023711e+000	-6.913681e+001	8.583173e+001	-2.000000e+002	0.000000e+000	-2.000000e+002	0.000000e+000
12649430.000	-3.696101e-003	-4.238414e+000	-6.858012e+001	8.561370e+001	-2.000000e+002	0.000000e+000	-2.000000e+002	0.000000e+000
13299400.000	-3.826445e-003	-4.443621e+000	-6.810684e+001	8.747395e+001	-2.000000e+002	0.000000e+000	-2.000000e+002	0.000000e+000
13949370.000	-4.698471e-003	-4.647871e+000	-6.781926e+001	8.644265e+001	-2.000000e+002	0.000000e+000	-2.000000e+002	0.000000e+000
14599340.000	-4.654079e-003	-4.855189e+000	-6.730937e+001	8.661825e+001	-2.000000e+002	0.000000e+000	-2.000000e+002	0.000000e+000
15249310.000	-5.304267e-003	-5.063101e+000	-6.709045e+001	8.605696e+001	-2.000000e+002	0.000000e+000	-2.000000e+002	0.000000e+000
15899280.000	-3.962212e-003	-5.247605e+000	-6.685159e+001	8.762686e+001	-2.000000e+002	0.000000e+000	-2.000000e+002	0.000000e+000
16549250.000	-5.149785e-003	-5.450672e+000	-6.655096e+001	8.571930e+001	-2.000000e+002	0.000000e+000	-2.000000e+002	0.000000e+000
17199220.000	-4.463718e-003	-5.666316e+000	-6.622458e+001	8.670698e+001	-2.000000e+002	0.000000e+000	-2.000000e+002	0.000000e+000
17849190.000	1.845234e-003	-5.888600e+000	-6.565810e+001	8.576924e+001	-2.000000e+002	0.000000e+000	-2.000000e+002	0.000000e+000
18499160.000	2.279403e-003	-6.101252e+000	-6.544583e+001	8.596553e+001	-2.000000e+002	0.000000e+000	-2.000000e+002	0.000000e+000
19149130.000	-2.091361e-004	-6.287378e+000	-6.526306e+001	8.585519e+001	-2.000000e+002	0.000000e+000	-2.000000e+002	0.000000e+000
19799100.000	-4.995097e-003	-6.451123e+000	-6.494913e+001	8.657186e+001	-2.000000e+002	0.000000e+000	-2.000000e+002	0.000000e+000
20449070.000	-8.925173e-003	-6.662902e+000	-6.479087e+001	8.717087e+001	-2.000000e+002	0.000000e+000	-2.000000e+002	0.000000e+000
21099040.000	-9.132599e-003	-6.886865e+000	-6.467245e+001	8.607371e+001	-2.000000e+002	0.000000e+000	-2.000000e+002	0.000000e+000
21749010.000	-9.651323e-003	-7.091156e+000	-6.427470e+001	8.682492e+001	-2.000000e+002	0.000000e+000	-2.000000e+002	0.000000e+000
22398980.000	-7.255258e-003	-7.275896e+000	-6.403300e+001	8.835348e+001	-2.000000e+002	0.000000e+000	-2.000000e+002	0.000000e+000
23048950.000	-3.659759e-003	-7.450028e+000	-6.365780e+001	8.932210e+001	-2.000000e+002	0.000000e+000	-2.000000e+002	0.000000e+000
23698920.000	-5.393669e-003	-7.656463e+000	-6.329709e+001	8.888218e+001	-2.000000e+002	0.000000e+000	-2.000000e+002	0.000000e+000
24348890.000	-6.824224e-003	-7.863590e+000	-6.260375e+001	8.968936e+001	-2.000000e+002	0.000000e+000	-2.000000e+002	0.000000e+000
24998860.000	-5.563780e-003	-8.068144e+000	-6.236120e+001	8.960211e+001	-2.000000e+002	0.000000e+000	-2.000000e+002	0.000000e+000
25648830.000	-2.955478e-003	-8.274848e+000	-6.197556e+001	8.774467e+001	-2.000000e+002	0.000000e+000	-2.000000e+002	0.000000e+000
26298800.000	-4.020348e-003	-8.470636e+000	-6.162426e+001	8.765710e+001	-2.000000e+002	0.000000e+000	-2.000000e+002	0.000000e+000
26948770.000	-4.584846e-003	-8.675650e+000	-6.148282e+001	8.542224e+001	-2.000000e+002	0.000000e+000	-2.000000e+002	0.000000e+000
27598740.000	-4.027727e-003	-8.886932e+000	-6.142463e+001	8.491918e+001	-2.000000e+002	0.000000e+000	-2.000000e+002	0.000000e+000
28248710.000	-4.255151e-003	-9.093948e+000	-6.119185e+001	8.429014e+001	-2.000000e+002	0.000000e+000	-2.000000e+002	0.000000e+000
28898680.000	-5.096077e-003	-9.287611e+000	-6.091309e+001	8.428230e+001	-2.000000e+002	0.000000e+000	-2.000000e+002	0.000000e+000
29548650.000	-5.083697e-003	-9.486615e+000	-6.088138e+001	8.299100e+001	-2.000000e+002	0.000000e+000	-2.000000e+002	0.000000e+000
30198620.000	-4.686205e-003	-9.691121e+000	-6.071472e+001	8.302974e+001	-2.000000e+002	0.000000e+000	-2.000000e+002	0.000000e+000
30848590.000	-4.596996e-003	-9.901370e+000	-6.066063e+001	8.289906e+001	-2.000000e+002	0.000000e+000	-2.000000e+002	0.000000e+000
31498560.000	-4.594223e-003	-1.011247e+001	-6.047522e+001	8.282874e+001	-2.000000e+002	0.000000e+000	-2.000000e+002	0.000000e+000
32148530.000	-4.497981e-003	-1.031271e+001	-6.036862e+001	8.256212e+001	-2.000000e+002	0.000000e+000	-2.000000e+002	0.000000e+000
32798500.000	-4.874180e-003	-1.051678e+001	-6.023683e+001	8.189956e+001	-2.000000e+002	0.000000e+000	-2.000000e+002	0.000000e+000
33448470.000	-5.465962e-003	-1.072073e+001	-6.023611e+001	8.216285e+001	-2.000000e+002	0.000000e+000	-2.000000e+002	0.000000e+000
34098440.000	-5.699759e-003	-1.092385e+001	-6.009738e+001	8.211239e+001	-2.000000e+002	0.000000e+000	-2.000000e+002	0.000000e+000
34748410.000	-6.668803e-003	-1.112111e+001	-5.995752e+001	8.265398e+001	-2.000000e+002	0.000000e+000	-2.000000e+002	0.000000e+000
35398380.000	-6.113261e-003	-1.132187e+001	-5.987514e+001	8.268921e+001	-2.000000e+002	0.000000e+000	-2.000000e+002	0.000000e+000
36048350.000	-6.234369e-003	-1.152010e+001	-5.982577e+001	8.278208e+001	-2.000000e+002	0.000000e+000	-2.000000e+002	0.000000e+000
36698320.000	-6.808482e-003	-1.171972e+001	-5.975566e+001	8.442541e+001	-2.000000e+002	0.000000e+000	-2.000000e+002	0.000000e+000
37348290.000	-6.589168e-003	-1.192687e+001	-5.947562e+001	8.429762e+001	-2.000000e+002	0.000000e+000	-2.000000e+002	0.000000e+000
37998260.000	-6.951717e-003	-1.212963e+001	-5.927616e+001	8.493415e+001	-2.000000e+002	0.000000e+000	-2.000000e+002	0.000000e+000
38648230.000	-7.130582e-003	-1.233321e+001	-5.905416e+001	8.483238e+001	-2.000000e+002	0.000000e+000	-2.000000e+002	0.000000e+000
39298200.000	-8.456528e-003	-1.254385e+001	-5.889464e+001	8.535422e+001	-2.000000e+002	0.000000e+000	-2.000000e+002	0.000000e+000
39948170.000	-8.628826e-003	-1.275212e+001	-5.890603e+001	8.570563e+001	-2.000000e+002	0.000000e+000	-2.000000e+002	0.000000e+000
40598140.000	-8.562360e-003	-1.295262e+001	-5.865858e+001	8.693189e+001	-2.000000e+002	0.000000e+000	-2.000000e+002	0.000000e+000
41248110.000	-8.075224e-003	-1.315921e+001	-5.827100e+001	8.845552e+001	-2.000000e+002	0.000000e+000	-2.000000e+002	0.000000e+000
41898080.000	-8.881985e-003	-1.335772e+001	-5.781470e+001	8.784866e+001	-2.000000e+002	0.000000e+000	-2.000000e+002	0.000000e+000
42548050.000	-7.775271e-003	-1.355551e+001	-5.759249e+001	8.664695e+001	-2.000000e+002	0.000000e+000	-2.000000e+002	0.000000e+000
43198020.000	-8.769388e-003	-1.375777e+001	-5.727691e+001	8.624116e+001	-2.000000e+002	0.000000e+000	-2.000000e+002	0.000000e+000
43847990.000	-8.446225e-003	-1.395764e+001	-5.716062e+001	8.628356e+001	-2.000000e+002	0.000000e+000	-2.000000e+002	0.000000e+000
44497960.000	-9.071620e-003	-1.416670e+001	-5.694722e+001	8.567758e+001	-2.000000e+002	0.000000e+000	-2.000000e+002	0.000000e+000
45147930.000	-9.499305e-003	-1.437259e+001	-5.685628e+001	8.511477e+001	-2.000000e+002	0.000000e+000	-2.000000e+002	0.000000e+000
45797900.000	-9.115553e-003	-1.457295e+001	-5.667857e+001	8.482050e+001	-2.000000e+002	0.000000e+000	-2.000000e+002	0.000000e+000
46447870.000	-1.038361e-002	-1.477716e+001	-5.644831e+001	8.515409e+001	-2.000000e+002	0.000000e+000	-2.000000e+002	0.000000e+000
47097840.000	-1.093203e-002	-1.497666e+001	-5.632068e+001	8.544367e+001	-2.000000e+002	0.000000e+000	-2.000000e+002	0.000000e+000
47747810.000	-1.184862e-002	-1.517895e+001	-5.598427e+001	8.485768e+001	-2.000000e+002	0.000000e+000	-2.000000e+002	0.000000e+000
48397780.000	-1.267597e-002	-1.538421e+001	-5.581512e+001	8.444925e+001	-2.000000e+002	0.000000e+000	-2.000000e+002	0.000000e+000
49047750.000	-1.339480e-002	-1.558620e+001	-5.560305e+001	8.358467e+001	-2.000000e+002	0.000000e+000	-2.000000e+002	0.000000e+000
49697720.000	-1.384384e-002	-1.578844e+001	-5.534708e+001	8.275369e+001	-2.000000e+002	0.000000e+000	-2.000000e+002	0.000000e+000
50347690.000	-1.298801e-002	-1.598910e+001	-5.528037e+001	8.183075e+001	-2.000000e+002	0.000000e+000	-2.000000e+002	0.000000e+000
50997660.000	-1.259508e-002	-1.619494e+001	-5.505653e+001	8.086322e+001	-2.000000e+002	0.000000e+000	-2.000000e+002	0.000000e+000
51647630.000	-1.342236e-002	-1.639961e+001	-5.499009e+001	7.998850e+001	-2.000000e+002	0.000000e+000	-2.000000e+002	0.000000e+000
52297600.000	-1.265111e-002	-1.660283e+001	-5.497371e+001	7.949891e+001	-2.000000e+002	0.000000e+000	-2.000000e+002	0.000000e+000
52947570.000	-1.345815e-002	-1.680482e+001	-5.489330e+001	7.941025e+001	-2.000000e+002	0.000000e+000	-2.000000e+002	0.000000e+000
53597540.000	-1.345459e-002	-1.700721e+001	-5.476949e+001	7.920018e+001	-2.000000e+002	0.000000e+000	-2.000000e+002	0.000000e+000
54247510.000	-1.351595e-002	-1.721150e+001	-5.464792e+001	7.871235e+001	-2.000000e+002	0.000000e+000	-2.000000e+002	0.000000e+000
54897480.000	-1.424758e-002	-1.741592e+001	-5.450862e+001	7.861581e+001	-2.000000e+002	0.000000e+000	-2.000000e+002	0.000000e+000
55547450.000	-1.475094e-002	-1.761729e+001	-5.435930e+001	7.806029e+001	-2.000000e+002	0.000000e+000	-2.000000e+002	0.000000e+000
56197420.000	-1.476368e-002	-1.782151e+001	-5.422915e+001	7.770388e+001	-2.000000e+002	0.000000e+000	-2.000000e+002	0.000000e+000
56847390.000	-1.463923e-002	-1.802270e+001	-5.417211e+001	7.668933e+001	-2.000000e+002	0.000000e+000	-2.000000e+002	0.000000e+000
57497360.000	-1.465817e-002	-1.822900e+001	-5.398042e+001	7.660394e+001	-2.000000e+002	0.000000e+000	-2.000000e+002	0.000000e+000
58147330.000	-1.593146e-002	-1.843008e+001	-5.390362e+001	7.572430e+001	-2.000000e+002	0.000000e+000	-2.000000e+002	0.000000e+000
58797300.000	-1.653434e-002	-1.863127e+001	-5.380839e+001	7.486707e+001	-2.000000e+002	0.000000e+000	-2.000000e+002	0.000000e+000
59447270.000	-1.559400e-002	-1.883286e+001	-5.380524e+001	7.458620e+001	-2.000000e+002	0.000000e+000	-2.000000e+002	0.000000e+000
60097240.000	-1.763400e-002	-1.903207e+001	-5.375384e+001	7.404237e+001	-2.000000e+002	0.000000e+000	-2.000000e+002	0.000000e+000
60747210.000	-1.762488e-002	-1.923274e+001	-5.371170e+001	7.390696e+001	-2.000000e+002	0.000000e+000	-2.000000e+002	0.000000e+000
61397180.000	-1.819057e-002	-1.943498e+001	-5.361726e+001	7.341171e+001	-2.000000e+002	0.000000e+000	-2.000000e+002	0.000000e+000
62047150.000	-1.904011e-002	-1.963337e+001	-5.355801e+001	7.312990e+001	-2.000000e+002	0.000000e+000	-2.000000e+002	0.000000e+000
62697120.000	-1.900897e-002	-1.983374e+001	-5.347169e+001	7.257865e+001	-2.000000e+002	0.000000e+000	-2.000000e+002	0.000000e+000
63347090.000	-1.999014e-002	-2.003824e+001	-5.346376e+001	7.241304e+001	-2.000000e+002	0.000000e+000	-2.000000e+002	0.000000e+000
63997060.000	-2.056209e-002	-2.024048e+001	-5.339576e+001	7.221920e+001	-2.000000e+002	0.000000e+000	-2.000000e+002	0.000000e+000
64647030.000	-2.086756e-002	-2.044004e+001	-5.329383e+001	7.210797e+001	-2.000000e+002	0.000000e+000	-2.000000e+002	0.000000e+000
65297000.000	-2.124994e-002	-2.063979e+001	-5.324445e+001	7.220272e+001	-2.000000e+002	0.000000e+000	-2.000000e+002	0.000000e+000
65946970.000	-2.178422e-002	-2.084156e+001	-5.314599e+001	7.164830e+001	-2.000000e+002	0.000000e+000	-2.000000e+002	0.000000e+000
66596940.000	-2.165743e-002	-2.104646e+001	-5.308110e+001	7.159882e+001	-2.000000e+002	0.000000e+000	-2.000000e+002	0.000000e+000
67246910.000	-2.273356e-002	-2.124607e+001	-5.299523e+001	7.103300e+001	-2.000000e+002	0.000000e+000	-2.000000e+002	0.000000e+000
67896880.000	-2.261407e-002	-2.144378e+001	-5.294959e+001	7.109800e+001	-2.000000e+002	0.000000e+000	-2.000000e+002	0.000000e+000
68546850.000	-2.377743e-002	-2.164698e+001	-5.285540e+001	7.099958e+001	-2.000000e+002	0.000000e+000	-2.000000e+002	0.000000e+000
69196820.000	-2.387225e-002	-2.184833e+001	-5.277001e+001	7.045682e+001	-2.000000e+002	0.000000e+000	-2.000000e+002	0.000000e+000
69846790.000	-2.414628e-002	-2.204583e+001	-5.268097e+001	7.026275e+001	-2.000000e+002	0.000000e+000	-2.000000e+002	0.000000e+000
70496760.000	-2.366804e-002	-2.225597e+001	-5.264984e+001	6.999209e+001	-2.000000e+002	0.000000e+000	-2.000000e+002	0.000000e+000
71146730.000	-2.379779e-002	-2.246161e+001	-5.256503e+001	6.972893e+001	-2.000000e+002	0.000000e+000	-2.000000e+002	0.000000e+000
71796700.000	-2.485282e-002	-2.266469e+001	-5.249429e+001	6.954104e+001	-2.000000e+002	0.000000e+000	-2.000000e+002	0.000000e+000
72446670.000	-2.456439e-002	-2.286729e+001	-5.244151e+001	6.933164e+001	-2.000000e+002	0.000000e+000	-2.000000e+002	0.000000e+000
73096640.000	-2.532816e-002	-2.307009e+001	-5.238577e+001	6.893700e+001	-2.000000e+002	0.000000e+000	-2.000000e+002	0.000000e+000
73746610.000	-2.534278e-002	-2.327204e+001	-5.235431e+001	6.879211e+001	-2.000000e+002	0.000000e+000	-2.000000e+002	0.000000e+000
74396580.000	-2.531443e-002	-2.347399e+001	-5.227717e+001	6.863079e+001	-2.000000e+002	0.000000e+000	-2.000000e+002	0.000000e+000
75046550.000	-2.514628e-002	-2.367534e+001	-5.222129e+001	6.842445e+001	-2.000000e+002	0.000000e+000	-2.000000e+002	0.000000e+000
75696520.000	-2.598105e-002	-2.387687e+001	-5.216052e+001	6.826456e+001	-2.000000e+002	0.000000e+000	-2.000000e+002	0.000000e+000
76346490.000	-2.668780e-002	-2.408162e+001	-5.211681e+001	6.833854e+001	-2.000000e+002	0.000000e+000	-2.000000e+002	0.000000e+000
76996460.000	-2.752903e-002	-2.427506e+001	-5.203447e+001	6.818666e+001	-2.000000e+002	0.000000e+000	-2.000000e+002	0.000000e+000
77646430.000	-2.787168e-002	-2.447721e+001	-5.193832e+001	6.813101e+001	-2.000000e+002	0.000000e+000	-2.000000e+002	0.000000e+000
78296400.000	-2.805394e-002	-2.468412e+001	-5.189964e+001	6.821551e+001	-2.000000e+002	0.000000e+000	-2.000000e+002	0.000000e+000
78946370.000	-2.861066e-002	-2.488481e+001	-5.182518e+001	6.805613e+001	-2.000000e+002	0.000000e+000	-2.000000e+002	0.000000e+000
79596340.000	-2.809126e-002	-2.509496e+001	-5.173228e+001	6.733769e+001	-2.000000e+002	0.000000e+000	-2.000000e+002	0.000000e+000
80246310.000	-2.932402e-002	-2.529861e+001	-5.167066e+001	6.712527e+001	-2.000000e+002	0.000000e+000	-2.000000e+002	0.000000e+000
80896280.000	-2.918541e-002	-2.550066e+001	-5.161491e+001	6.707617e+001	-2.000000e+002	0.000000e+000	-2.000000e+002	0.000000e+000
81546250.000	-2.985297e-002	-2.570030e+001	-5.159621e+001	6.704526e+001	-2.000000e+002	0.000000e+000	-2.000000e+002	0.000000e+000
82196220.000	-3.004407e-002	-2.589897e+001	-5.153385e+001	6.691390e+001	-2.000000e+002	0.000000e+000	-2.000000e+002	0.000000e+000
82846190.000	-3.011163e-002	-2.610603e+001	-5.147410e+001	6.651117e+001	-2.000000e+002	0.000000e+000	-2.000000e+002	0.000000e+000
83496160.000	-3.072191e-002	-2.630789e+001	-5.144981e+001	6.667384e+001	-2.000000e+002	0.000000e+000	-2.000000e+002	0.000000e+000
84146130.000	-3.142019e-002	-2.651235e+001	-5.133467e+001	6.673513e+001	-2.000000e+002	0.000000e+000	-2.000000e+002	0.000000e+000
84796100.000	-3.198601e-002	-2.671897e+001	-5.130497e+001	6.663515e+001	-2.000000e+002	0.000000e+000	-2.000000e+002	0.000000e+000
85446070.000	-3.177793e-002	-2.692181e+001	-5.123494e+001	6.672866e+001	-2.000000e+002	0.000000e+000	-2.000000e+002	0.000000e+000
86096040.000	-3.276884e-002	-2.712491e+001	-5.114436e+001	6.666239e+001	-2.000000e+002	0.000000e+000	-2.000000e+002	0.000000e+000
86746010.000	-3.289811e-002	-2.732423e+001	-5.106423e+001	6.659776e+001	-2.000000e+002	0.000000e+000	-2.000000e+002	0.000000e+000
87395980.000	-3.384546e-002	-2.752495e+001	-5.099339e+001	6.615461e+001	-2.000000e+002	0.000000e+000	-2.000000e+002	0.000000e+000
88045950.000	-3.437269e-002	-2.772513e+001	-5.100343e+001	6.613639e+001	-2.000000e+002	0.000000e+000	-2.000000e+002	0.000000e+000
88695920.000	-3.425141e-002	-2.792896e+001	-5.087208e+001	6.581450e+001	-2.000000e+002	0.000000e+000	-2.000000e+002	0.000000e+000
89345890.000	-3.549261e-002	-2.812965e+001	-5.077193e+001	6.575113e+001	-2.000000e+002	0.000000e+000	-2.000000e+002	0.000000e+000
89995860.000	-3.508015e-002	-2.833031e+001	-5.071951e+001	6.547018e+001	-2.000000e+002	0.000000e+000	-2.000000e+002	0.000000e+000
90645830.000	-3.571795e-002	-2.853722e+001	-5.066586e+001	6.561771e+001	-2.000000e+002	0.000000e+000	-2.000000e+002	0.000000e+000
91295800.000	-3.468233e-002	-2.874101e+001	-5.058742e+001	6.502953e+001	-2.000000e+002	0.000000e+000	-2.000000e+002	0.000000e+000
91945770.000	-3.651325e-002	-2.894966e+001	-5.051784e+001	6.499619e+001	-2.000000e+002	0.000000e+000	-2.000000e+002	0.000000e+000
92595740.000	-3.658203e-002	-2.915437e+001	-5.045081e+001	6.454774e+001	-2.000000e+002	0.000000e+000	-2.000000e+002	0.000000e+000
93245710.000	-3.608347e-002	-2.935709e+001	-5.041624e+001	6.464691e+001	-2.000000e+002	0.000000e+000	-2.000000e+002	0.000000e+000
93895680.000	-3.693679e-002	-2.956417e+001	-5.035517e+001	6.438198e+001	-2.000000e+002	0.000000e+000	-2.000000e+002	0.000000e+000
94545650.000	-3.778505e-002	-2.976689e+001	-5.025531e+001	6.402279e+001	-2.000000e+002	0.000000e+000	-2.000000e+002	0.000000e+000
95195620.000	-3.659770e-002	-2.996519e+001	-5.020278e+001	6.392593e+001	-2.000000e+002	0.000000e+000	-2.000000e+002	0.000000e+000
95845590.000	-3.710989e-002	-3.016882e+001	-5.018356e+001	6.378043e+001	-2.000000e+002	0.000000e+000	-2.000000e+002	0.000000e+000
96495560.000	-3.839811e-002	-3.036952e+001	-5.017518e+001	6.360201e+001	-2.000000e+002	0.000000e+000	-2.000000e+002	0.000000e+000
97145530.000	-3.856891e-002	-3.057061e+001	-5.011365e+001	6.343197e+001	-2.000000e+002	0.000000e+000	-2.000000e+002	0.000000e+000
97795500.000	-3.989282e-002	-3.077269e+001	-5.002414e+001	6.356766e+001	-2.000000e+002	0.000000e+000	-2.000000e+002	0.000000e+000
98445470.000	-3.989658e-002	-3.097653e+001	-4.999416e+001	6.307081e+001	-2.000000e+002	0.000000e+000	-2.000000e+002	0.000000e+000
