!Keysight Technologies,E5063A,MY54503115,A.05.08
!Date: Fri Oct 20 10:27:56 2023
!Data & Calibration Information:
!Freq	S11:NONE(--)	S21:NONE(--)	S12:NONE(--)	S22:NONE(--)
# Hz S dB R 50
300000.000	5.296592e-003	-5.521521e-001	-8.818146e+001	-3.280338e+001	-2.000000e+002	0.000000e+000	-2.000000e+002	0.000000e+000
949970.000	-4.823423e-003	-6.482888e-001	-8.407647e+001	1.191054e+002	-2.000000e+002	0.000000e+000	-2.000000e+002	0.000000e+000
1599940.000	-4.201408e-003	-8.252002e-001	-8.239804e+001	1.010432e+002	-2.000000e+002	0.000000e+000	-2.000000e+002	0.000000e+000
2249910.000	-2.857191e-003	-1.010357e+000	-8.686739e+001	1.056238e+002	-2.000000e+002	0.000000e+000	-2.000000e+002	0.000000e+000
2899880.000	-3.846340e-003	-1.202172e+000	-8.445141e+001	8.298989e+001	-2.000000e+002	0.000000e+000	-2.000000e+002	0.000000e+000
3549850.000	-3.165553e-003	-1.401700e+000	-8.229465e+001	8.495786e+001	-2.000000e+002	0.000000e+000	-2.000000e+002	0.000000e+000
4199820.000	-2.867519e-003	-1.607054e+000	-7.572645e+001	8.647792e+001	-2.000000e+002	0.000000e+000	-2.000000e+002	0.000000e+000
4849790.000	-2.313740e-003	-1.819009e+000	-7.978766e+001	9.507210e+001	-2.000000e+002	0.000000e+000	-2.000000e+002	0.000000e+000
5499760.000	-4.482627e-003	-2.007456e+000	-7.332279e+001	9.085966e+001	-2.000000e+002	0.000000e+000	-2.000000e+002	0.000000e+000
6149730.000	-3.770102e-003	-2.213522e+000	-7.807333e+001	1.018844e+002	-2.000000e+002	0.000000e+000	-2.000000e+002	0.000000e+000
6799700.000	-3.234005e-003	-2.411371e+000	-7.509383e+001	8.607954e+001	-2.000000e+002	0.000000e+000	-2.000000e+002	0.000000e+000
7449670.000	-3.193443e-003	-2.629224e+000	-7.191188e+001	9.478173e+001	-2.000000e+002	0.000000e+000	-2.000000e+002	0.000000e+000
8099640.000	-4.086596e-003	-2.824002e+000	-7.286406e+001	8.495155e+001	-2.000000e+002	0.000000e+000	-2.000000e+002	0.000000e+000
8749610.000	-1.928314e-003	-3.040032e+000	-7.148492e+001	8.792833e+001	-2.000000e+002	0.000000e+000	-2.000000e+002	0.000000e+000
9399580.000	-4.167910e-003	-3.242744e+000	-7.134736e+001	8.996904e+001	-2.000000e+002	0.000000e+000	-2.000000e+002	0.000000e+000
10049550.000	-2.781112e-003	-3.445690e+000	-7.088080e+001	8.864092e+001	-2.000000e+002	0.000000e+000	-2.000000e+002	0.000000e+000
10699520.000	-4.607570e-003	-3.632751e+000	-6.993376e+001	8.771861e+001	-2.000000e+002	0.000000e+000	-2.000000e+002	0.000000e+000
11349490.000	-6.140651e-003	-3.825569e+000	-6.944118e+001	8.584102e+001	-2.000000e+002	0.000000e+000	-2.000000e+002	0.000000e+000
11999460.000	-5.913611e-003	-4.035743e+000	-6.891407e+001	8.580563e+001	-2.000000e+002	0.000000e+000	-2.000000e+002	0.000000e+000
12649430.000	-4.201744e-003	-4.246234e+000	-6.879074e+001	8.507859e+001	-2.000000e+002	0.000000e+000	-2.000000e+002	0.000000e+000
13299400.000	-4.225480e-003	-4.454112e+000	-6.808875e+001	8.724102e+001	-2.000000e+002	0.000000e+000	-2.000000e+002	0.000000e+000
13949370.000	-4.721105e-003	-4.663387e+000	-6.770092e+001	8.716612e+001	-2.000000e+002	0.000000e+000	-2.000000e+002	0.000000e+000
14599340.000	-5.412251e-003	-4.866044e+000	-6.757016e+001	8.500794e+001	-2.000000e+002	0.000000e+000	-2.000000e+002	0.000000e+000
15249310.000	-5.720922e-003	-5.077866e+000	-6.698971e+001	8.515126e+001	-2.000000e+002	0.000000e+000	-2.000000e+002	0.000000e+000
15899280.000	-4.418474e-003	-5.253923e+000	-6.663112e+001	8.555889e+001	-2.000000e+002	0.000000e+000	-2.000000e+002	0.000000e+000
16549250.000	-6.116954e-003	-5.459362e+000	-6.638380e+001	8.680829e+001	-2.000000e+002	0.000000e+000	-2.000000e+002	0.000000e+000
17199220.000	-5.078701e-003	-5.677862e+000	-6.584560e+001	8.687444e+001	-2.000000e+002	0.000000e+000	-2.000000e+002	0.000000e+000
17849190.000	1.008344e-003	-5.900215e+000	-6.578519e+001	8.593805e+001	-2.000000e+002	0.000000e+000	-2.000000e+002	0.000000e+000
18499160.000	1.119547e-003	-6.109908e+000	-6.556110e+001	8.704150e+001	-2.000000e+002	0.000000e+000	-2.000000e+002	0.000000e+000
19149130.000	-1.108745e-003	-6.297949e+000	-6.515633e+001	8.623258e+001	-2.000000e+002	0.000000e+000	-2.000000e+002	0.000000e+000
19799100.000	-5.671468e-003	-6.457681e+000	-6.510692e+001	8.614166e+001	-2.000000e+002	0.000000e+000	-2.000000e+002	0.000000e+000
20449070.000	-9.608644e-003	-6.668608e+000	-6.461575e+001	8.658497e+001	-2.000000e+002	0.000000e+000	-2.000000e+002	0.000000e+000
21099040.000	-1.021911e-002	-6.893208e+000	-6.446906e+001	8.603810e+001	-2.000000e+002	0.000000e+000	-2.000000e+002	0.000000e+000
21749010.000	-9.743845e-003	-7.098836e+000	-6.429425e+001	8.768518e+001	-2.000000e+002	0.000000e+000	-2.000000e+002	0.000000e+000
22398980.000	-7.597299e-003	-7.277866e+000	-6.402324e+001	8.796780e+001	-2.000000e+002	0.000000e+000	-2.000000e+002	0.000000e+000
23048950.000	-4.321992e-003	-7.453851e+000	-6.370398e+001	8.879628e+001	-2.000000e+002	0.000000e+000	-2.000000e+002	0.000000e+000
23698920.000	-6.983631e-003	-7.666250e+000	-6.332545e+001	8.853916e+001	-2.000000e+002	0.000000e+000	-2.000000e+002	0.000000e+000
24348890.000	-7.131358e-003	-7.870654e+000	-6.305017e+001	8.943526e+001	-2.000000e+002	0.000000e+000	-2.000000e+002	0.000000e+000
24998860.000	-5.817945e-003	-8.075999e+000	-6.252124e+001	8.933675e+001	-2.000000e+002	0.000000e+000	-2.000000e+002	0.000000e+000
25648830.000	-3.386536e-003	-8.276445e+000	-6.225098e+001	9.006581e+001	-2.000000e+002	0.000000e+000	-2.000000e+002	0.000000e+000
26298800.000	-5.151523e-003	-8.482023e+000	-6.177205e+001	8.757291e+001	-2.000000e+002	0.000000e+000	-2.000000e+002	0.000000e+000
26948770.000	-5.032508e-003	-8.685556e+000	-6.145060e+001	8.673649e+001	-2.000000e+002	0.000000e+000	-2.000000e+002	0.000000e+000
27598740.000	-4.696554e-003	-8.890547e+000	-6.128765e+001	8.652993e+001	-2.000000e+002	0.000000e+000	-2.000000e+002	0.000000e+000
28248710.000	-4.030009e-003	-9.095741e+000	-6.107622e+001	8.632579e+001	-2.000000e+002	0.000000e+000	-2.000000e+002	0.000000e+000
28898680.000	-5.156285e-003	-9.296138e+000	-6.093726e+001	8.456046e+001	-2.000000e+002	0.000000e+000	-2.000000e+002	0.000000e+000
29548650.000	-5.217836e-003	-9.493830e+000	-6.072401e+001	8.401518e+001	-2.000000e+002	0.000000e+000	-2.000000e+002	0.000000e+000
30198620.000	-5.111149e-003	-9.700426e+000	-6.066758e+001	8.384561e+001	-2.000000e+002	0.000000e+000	-2.000000e+002	0.000000e+000
30848590.000	-5.040755e-003	-9.909130e+000	-6.042824e+001	8.349380e+001	-2.000000e+002	0.000000e+000	-2.000000e+002	0.000000e+000
31498560.000	-5.070948e-003	-1.012052e+001	-6.028808e+001	8.376976e+001	-2.000000e+002	0.000000e+000	-2.000000e+002	0.000000e+000
32148530.000	-4.580229e-003	-1.031806e+001	-6.029950e+001	8.380244e+001	-2.000000e+002	0.000000e+000	-2.000000e+002	0.000000e+000
32798500.000	-5.703755e-003	-1.052466e+001	-6.008849e+001	8.300484e+001	-2.000000e+002	0.000000e+000	-2.000000e+002	0.000000e+000
33448470.000	-5.658886e-003	-1.072832e+001	-5.997628e+001	8.342463e+001	-2.000000e+002	0.000000e+000	-2.000000e+002	0.000000e+000
34098440.000	-6.252106e-003	-1.093051e+001	-5.971882e+001	8.315361e+001	-2.000000e+002	0.000000e+000	-2.000000e+002	0.000000e+000
34748410.000	-6.798781e-003	-1.112457e+001	-5.975392e+001	8.296351e+001	-2.000000e+002	0.000000e+000	-2.000000e+002	0.000000e+000
35398380.000	-6.664296e-003	-1.132512e+001	-5.948795e+001	8.311768e+001	-2.000000e+002	0.000000e+000	-2.000000e+002	0.000000e+000
36048350.000	-6.531521e-003	-1.152663e+001	-5.945418e+001	8.286530e+001	-2.000000e+002	0.000000e+000	-2.000000e+002	0.000000e+000
36698320.000	-6.261392e-003	-1.173365e+001	-5.930178e+001	8.372210e+001	-2.000000e+002	0.000000e+000	-2.000000e+002	0.000000e+000
37348290.000	-6.430838e-003	-1.193280e+001	-5.905018e+001	8.406378e+001	-2.000000e+002	0.000000e+000	-2.000000e+002	0.000000e+000
37998260.000	-6.766197e-003	-1.213695e+001	-5.880162e+001	8.434787e+001	-2.000000e+002	0.000000e+000	-2.000000e+002	0.000000e+000
38648230.000	-6.859824e-003	-1.234440e+001	-5.880715e+001	8.371685e+001	-2.000000e+002	0.000000e+000	-2.000000e+002	0.000000e+000
39298200.000	-7.958984e-003	-1.255068e+001	-5.848725e+001	8.362269e+001	-2.000000e+002	0.000000e+000	-2.000000e+002	0.000000e+000
39948170.000	-8.623540e-003	-1.275734e+001	-5.844884e+001	8.382868e+001	-2.000000e+002	0.000000e+000	-2.000000e+002	0.000000e+000
40598140.000	-8.090007e-003	-1.296186e+001	-5.837209e+001	8.451368e+001	-2.000000e+002	0.000000e+000	-2.000000e+002	0.000000e+000
41248110.000	-7.633040e-003	-1.316626e+001	-5.808857e+001	8.515872e+001	-2.000000e+002	0.000000e+000	-2.000000e+002	0.000000e+000
41898080.000	-8.232629e-003	-1.336710e+001	-5.778724e+001	8.422548e+001	-2.000000e+002	0.000000e+000	-2.000000e+002	0.000000e+000
42548050.000	-6.884597e-003	-1.356638e+001	-5.775284e+001	8.481085e+001	-2.000000e+002	0.000000e+000	-2.000000e+002	0.000000e+000
43198020.000	-8.260891e-003	-1.376651e+001	-5.756701e+001	8.459663e+001	-2.000000e+002	0.000000e+000	-2.000000e+002	0.000000e+000
43847990.000	-8.822280e-003	-1.397071e+001	-5.735975e+001	8.459597e+001	-2.000000e+002	0.000000e+000	-2.000000e+002	0.000000e+000
44497960.000	-8.562478e-003	-1.417522e+001	-5.712856e+001	8.488262e+001	-2.000000e+002	0.000000e+000	-2.000000e+002	0.000000e+000
45147930.000	-8.616955e-003	-1.437949e+001	-5.696766e+001	8.464466e+001	-2.000000e+002	0.000000e+000	-2.000000e+002	0.000000e+000
45797900.000	-9.423329e-003	-1.458479e+001	-5.687067e+001	8.474486e+001	-2.000000e+002	0.000000e+000	-2.000000e+002	0.000000e+000
46447870.000	-1.028694e-002	-1.478893e+001	-5.660951e+001	8.493042e+001	-2.000000e+002	0.000000e+000	-2.000000e+002	0.000000e+000
47097840.000	-1.089755e-002	-1.498682e+001	-5.636268e+001	8.514138e+001	-2.000000e+002	0.000000e+000	-2.000000e+002	0.000000e+000
47747810.000	-1.178926e-002	-1.519453e+001	-5.603229e+001	8.462554e+001	-2.000000e+002	0.000000e+000	-2.000000e+002	0.000000e+000
48397780.000	-1.267002e-002	-1.539542e+001	-5.579904e+001	8.449146e+001	-2.000000e+002	0.000000e+000	-2.000000e+002	0.000000e+000
49047750.000	-1.346738e-002	-1.559534e+001	-5.562763e+001	8.376176e+001	-2.000000e+002	0.000000e+000	-2.000000e+002	0.000000e+000
49697720.000	-1.354423e-002	-1.579772e+001	-5.547296e+001	8.294185e+001	-2.000000e+002	0.000000e+000	-2.000000e+002	0.000000e+000
50347690.000	-1.264239e-002	-1.600173e+001	-5.521560e+001	8.200125e+001	-2.000000e+002	0.000000e+000	-2.000000e+002	0.000000e+000
50997660.000	-1.263638e-002	-1.620864e+001	-5.510999e+001	8.096992e+001	-2.000000e+002	0.000000e+000	-2.000000e+002	0.000000e+000
51647630.000	-1.250899e-002	-1.640970e+001	-5.500923e+001	8.022669e+001	-2.000000e+002	0.000000e+000	-2.000000e+002	0.000000e+000
52297600.000	-1.304342e-002	-1.661151e+001	-5.493005e+001	7.952386e+001	-2.000000e+002	0.000000e+000	-2.000000e+002	0.000000e+000
52947570.000	-1.272898e-002	-1.681533e+001	-5.490131e+001	7.951762e+001	-2.000000e+002	0.000000e+000	-2.000000e+002	0.000000e+000
53597540.000	-1.339878e-002	-1.701947e+001	-5.478860e+001	7.912568e+001	-2.000000e+002	0.000000e+000	-2.000000e+002	0.000000e+000
54247510.000	-1.394094e-002	-1.721977e+001	-5.467217e+001	7.884259e+001	-2.000000e+002	0.000000e+000	-2.000000e+002	0.000000e+000
54897480.000	-1.401811e-002	-1.742446e+001	-5.440442e+001	7.891539e+001	-2.000000e+002	0.000000e+000	-2.000000e+002	0.000000e+000
55547450.000	-1.420060e-002	-1.762989e+001	-5.426239e+001	7.823147e+001	-2.000000e+002	0.000000e+000	-2.000000e+002	0.000000e+000
56197420.000	-1.467909e-002	-1.783179e+001	-5.413376e+001	7.773632e+001	-2.000000e+002	0.000000e+000	-2.000000e+002	0.000000e+000
56847390.000	-1.460144e-002	-1.803724e+001	-5.400970e+001	7.674660e+001	-2.000000e+002	0.000000e+000	-2.000000e+002	0.000000e+000
57497360.000	-1.492308e-002	-1.823570e+001	-5.397394e+001	7.575987e+001	-2.000000e+002	0.000000e+000	-2.000000e+002	0.000000e+000
58147330.000	-1.567432e-002	-1.843730e+001	-5.383307e+001	7.545970e+001	-2.000000e+002	0.000000e+000	-2.000000e+002	0.000000e+000
58797300.000	-1.594448e-002	-1.864154e+001	-5.379561e+001	7.470821e+001	-2.000000e+002	0.000000e+000	-2.000000e+002	0.000000e+000
59447270.000	-1.571942e-002	-1.883825e+001	-5.371625e+001	7.426163e+001	-2.000000e+002	0.000000e+000	-2.000000e+002	0.000000e+000
60097240.000	-1.671845e-002	-1.904456e+001	-5.365142e+001	7.401082e+001	-2.000000e+002	0.000000e+000	-2.000000e+002	0.000000e+000
60747210.000	-1.705633e-002	-1.924491e+001	-5.359771e+001	7.372202e+001	-2.000000e+002	0.000000e+000	-2.000000e+002	0.000000e+000
61397180.000	-1.770201e-002	-1.944652e+001	-5.358609e+001	7.309291e+001	-2.000000e+002	0.000000e+000	-2.000000e+002	0.000000e+000
62047150.000	-1.846553e-002	-1.964296e+001	-5.347058e+001	7.248528e+001	-2.000000e+002	0.000000e+000	-2.000000e+002	0.000000e+000
62697120.000	-1.823894e-002	-1.984487e+001	-5.342447e+001	7.264108e+001	-2.000000e+002	0.000000e+000	-2.000000e+002	0.000000e+000
63347090.000	-1.944198e-002	-2.004833e+001	-5.336477e+001	7.213179e+001	-2.000000e+002	0.000000e+000	-2.000000e+002	0.000000e+000
63997060.000	-2.059053e-002	-2.024890e+001	-5.330644e+001	7.186876e+001	-2.000000e+002	0.000000e+000	-2.000000e+002	0.000000e+000
64647030.000	-2.105829e-002	-2.045020e+001	-5.324488e+001	7.152056e+001	-2.000000e+002	0.000000e+000	-2.000000e+002	0.000000e+000
65297000.000	-2.089780e-002	-2.064899e+001	-5.318688e+001	7.174082e+001	-2.000000e+002	0.000000e+000	-2.000000e+002	0.000000e+000
65946970.000	-2.179832e-002	-2.085240e+001	-5.311838e+001	7.142947e+001	-2.000000e+002	0.000000e+000	-2.000000e+002	0.000000e+000
66596940.000	-2.202667e-002	-2.105280e+001	-5.301950e+001	7.117246e+001	-2.000000e+002	0.000000e+000	-2.000000e+002	0.000000e+000
67246910.000	-2.242968e-002	-2.125434e+001	-5.291855e+001	7.099809e+001	-2.000000e+002	0.000000e+000	-2.000000e+002	0.000000e+000
67896880.000	-2.266052e-002	-2.145490e+001	-5.286959e+001	7.114398e+001	-2.000000e+002	0.000000e+000	-2.000000e+002	0.000000e+000
68546850.000	-2.338134e-002	-2.165651e+001	-5.282601e+001	7.064195e+001	-2.000000e+002	0.000000e+000	-2.000000e+002	0.000000e+000
69196820.000	-2.374411e-002	-2.185692e+001	-5.274742e+001	7.062315e+001	-2.000000e+002	0.000000e+000	-2.000000e+002	0.000000e+000
69846790.000	-2.341249e-002	-2.205695e+001	-5.264773e+001	7.021507e+001	-2.000000e+002	0.000000e+000	-2.000000e+002	0.000000e+000
70496760.000	-2.353240e-002	-2.226724e+001	-5.261020e+001	6.988438e+001	-2.000000e+002	0.000000e+000	-2.000000e+002	0.000000e+000
71146730.000	-2.372177e-002	-2.247226e+001	-5.249668e+001	6.958404e+001	-2.000000e+002	0.000000e+000	-2.000000e+002	0.000000e+000
71796700.000	-2.506645e-002	-2.267713e+001	-5.244916e+001	6.952144e+001	-2.000000e+002	0.000000e+000	-2.000000e+002	0.000000e+000
72446670.000	-2.409862e-002	-2.287813e+001	-5.242129e+001	6.954754e+001	-2.000000e+002	0.000000e+000	-2.000000e+002	0.000000e+000
73096640.000	-2.516887e-002	-2.308129e+001	-5.232202e+001	6.918335e+001	-2.000000e+002	0.000000e+000	-2.000000e+002	0.000000e+000
73746610.000	-2.504513e-002	-2.328252e+001	-5.224034e+001	6.871698e+001	-2.000000e+002	0.000000e+000	-2.000000e+002	0.000000e+000
74396580.000	-2.533096e-002	-2.348445e+001	-5.215308e+001	6.878182e+001	-2.000000e+002	0.000000e+000	-2.000000e+002	0.000000e+000
75046550.000	-2.487271e-002	-2.368759e+001	-5.214521e+001	6.834098e+001	-2.000000e+002	0.000000e+000	-2.000000e+002	0.000000e+000
75696520.000	-2.611544e-002	-2.389027e+001	-5.211716e+001	6.846912e+001	-2.000000e+002	0.000000e+000	-2.000000e+002	0.000000e+000
76346490.000	-2.706387e-002	-2.409578e+001	-5.203986e+001	6.802995e+001	-2.000000e+002	0.000000e+000	-2.000000e+002	0.000000e+000
76996460.000	-2.715730e-002	-2.428674e+001	-5.199078e+001	6.815384e+001	-2.000000e+002	0.000000e+000	-2.000000e+002	0.000000e+000
77646430.000	-2.747745e-002	-2.449060e+001	-5.184894e+001	6.812363e+001	-2.000000e+002	0.000000e+000	-2.000000e+002	0.000000e+000
78296400.000	-2.842114e-002	-2.469052e+001	-5.181398e+001	6.810744e+001	-2.000000e+002	0.000000e+000	-2.000000e+002	0.000000e+000
78946370.000	-2.855765e-002	-2.489388e+001	-5.172004e+001	6.774215e+001	-2.000000e+002	0.000000e+000	-2.000000e+002	0.000000e+000
79596340.000	-2.808093e-002	-2.510625e+001	-5.161595e+001	6.729963e+001	-2.000000e+002	0.000000e+000	-2.000000e+002	0.000000e+000
80246310.000	-2.911415e-002	-2.530971e+001	-5.160797e+001	6.709556e+001	-2.000000e+002	0.000000e+000	-2.000000e+002	0.000000e+000
80896280.000	-2.900426e-002	-2.551077e+001	-5.153089e+001	6.683855e+001	-2.000000e+002	0.000000e+000	-2.000000e+002	0.000000e+000
81546250.000	-2.957726e-002	-2.571710e+001	-5.151214e+001	6.690456e+001	-2.000000e+002	0.000000e+000	-2.000000e+002	0.000000e+000
82196220.000	-2.905757e-002	-2.590970e+001	-5.141479e+001	6.647785e+001	-2.000000e+002	0.000000e+000	-2.000000e+002	0.000000e+000
82846190.000	-3.045921e-002	-2.611646e+001	-5.141014e+001	6.661111e+001	-2.000000e+002	0.000000e+000	-2.000000e+002	0.000000e+000
83496160.000	-3.061094e-002	-2.631861e+001	-5.138661e+001	6.651009e+001	-2.000000e+002	0.000000e+000	-2.000000e+002	0.000000e+000
84146130.000	-3.117194e-002	-2.652242e+001	-5.130515e+001	6.679508e+001	-2.000000e+002	0.000000e+000	-2.000000e+002	0.000000e+000
84796100.000	-3.205308e-002	-2.672663e+001	-5.119257e+001	6.653103e+001	-2.000000e+002	0.000000e+000	-2.000000e+002	0.000000e+000
85446070.000	-3.182267e-002	-2.693240e+001	-5.114850e+001	6.648901e+001	-2.000000e+002	0.000000e+000	-2.000000e+002	0.000000e+000
86096040.000	-3.262419e-002	-2.713487e+001	-5.104333e+001	6.642265e+001	-2.000000e+002	0.000000e+000	-2.000000e+002	0.000000e+000
86746010.000	-3.269009e-002	-2.733215e+001	-5.097006e+001	6.629626e+001	-2.000000e+002	0.000000e+000	-2.000000e+002	0.000000e+000
87395980.000	-3.348439e-002	-2.753478e+001	-5.088682e+001	6.569959e+001	-2.000000e+002	0.000000e+000	-2.000000e+002	0.000000e+000
88045950.000	-3.403869e-002	-2.773431e+001	-5.083135e+001	6.617347e+001	-2.000000e+002	0.000000e+000	-2.000000e+002	0.000000e+000
88695920.000	-3.433891e-002	-2.793597e+001	-5.076464e+001	6.545170e+001	-2.000000e+002	0.000000e+000	-2.000000e+002	0.000000e+000
89345890.000	-3.476345e-002	-2.813767e+001	-5.069140e+001	6.537061e+001	-2.000000e+002	0.000000e+000	-2.000000e+002	0.000000e+000
89995860.000	-3.467870e-002	-2.834552e+001	-5.062464e+001	6.626520e+001	-2.000000e+002	0.000000e+000	-2.000000e+002	0.000000e+000
90645830.000	-3.560671e-002	-2.854825e+001	-5.059694e+001	6.493796e+001	-2.000000e+002	0.000000e+000	-2.000000e+002	0.000000e+000
91295800.000	-3.464233e-002	-2.875108e+001	-5.048878e+001	6.463419e+001	-2.000000e+002	0.000000e+000	-2.000000e+002	0.000000e+000
91945770.000	-3.586051e-002	-2.896077e+001	-5.047072e+001	6.469671e+001	-2.000000e+002	0.000000e+000	-2.000000e+002	0.000000e+000
92595740.000	-3.645286e-002	-2.916609e+001	-5.039852e+001	6.437097e+001	-2.000000e+002	0.000000e+000	-2.000000e+002	0.000000e+000
93245710.000	-3.539987e-002	-2.936546e+001	-5.032781e+001	6.402120e+001	-2.000000e+002	0.000000e+000	-2.000000e+002	0.000000e+000
93895680.000	-3.640075e-002	-2.957042e+001	-5.029605e+001	6.433235e+001	-2.000000e+002	0.000000e+000	-2.000000e+002	0.000000e+000
94545650.000	-3.725319e-002	-2.977594e+001	-5.021766e+001	6.373765e+001	-2.000000e+002	0.000000e+000	-2.000000e+002	0.000000e+000
95195620.000	-3.608731e-002	-2.997708e+001	-5.017097e+001	6.367600e+001	-2.000000e+002	0.000000e+000	-2.000000e+002	0.000000e+000
95845590.000	-3.692545e-002	-3.017741e+001	-5.010184e+001	6.374989e+001	-2.000000e+002	0.000000e+000	-2.000000e+002	0.000000e+000
96495560.000	-3.811513e-002	-3.038172e+001	-5.008702e+001	6.348779e+001	-2.000000e+002	0.000000e+000	-2.000000e+002	0.000000e+000
97145530.000	-3.808235e-002	-3.057948e+001	-5.003648e+001	6.333943e+001	-2.000000e+002	0.000000e+000	-2.000000e+002	0.000000e+000
97795500.000	-3.875350e-002	-3.078205e+001	-4.997320e+001	6.316249e+001	-2.000000e+002	0.000000e+000	-2.000000e+002	0.000000e+000
98445470.000	-3.930922e-002	-3.098615e+001	-4.991681e+001	6.306417e+001	-2.000000e+002	0.000000e+000	-2.000000e+002	0.000000e+000
