!Keysight Technologies,E5063A,MY54503115,A.05.08
!Date: Fri Oct 20 10:24:02 2023
!Data & Calibration Information:
!Freq	S11:NONE(--)	S21:NONE(--)	S12:NONE(--)	S22:NONE(--)
# Hz S dB R 50
300000.000	4.921796e-003	-5.440015e-001	-8.637053e+001	-9.295130e+001	-2.000000e+002	0.000000e+000	-2.000000e+002	0.000000e+000
949970.000	-4.502710e-003	-6.337975e-001	-8.433458e+001	9.392716e+001	-2.000000e+002	0.000000e+000	-2.000000e+002	0.000000e+000
1599940.000	-3.657049e-003	-8.188949e-001	-7.773739e+001	8.487228e+001	-2.000000e+002	0.000000e+000	-2.000000e+002	0.000000e+000
2249910.000	-3.180692e-003	-1.011017e+000	-8.422670e+001	5.972383e+001	-2.000000e+002	0.000000e+000	-2.000000e+002	0.000000e+000
2899880.000	-3.770675e-003	-1.195472e+000	-7.826406e+001	7.852634e+001	-2.000000e+002	0.000000e+000	-2.000000e+002	0.000000e+000
3549850.000	-4.046359e-003	-1.402360e+000	-7.574726e+001	8.571320e+001	-2.000000e+002	0.000000e+000	-2.000000e+002	0.000000e+000
4199820.000	-1.925668e-003	-1.597931e+000	-7.542111e+001	9.821106e+001	-2.000000e+002	0.000000e+000	-2.000000e+002	0.000000e+000
4849790.000	-3.421450e-003	-1.811919e+000	-7.443295e+001	9.990487e+001	-2.000000e+002	0.000000e+000	-2.000000e+002	0.000000e+000
5499760.000	-3.463942e-003	-2.002547e+000	-7.624018e+001	9.649136e+001	-2.000000e+002	0.000000e+000	-2.000000e+002	0.000000e+000
6149730.000	-4.299827e-003	-2.206398e+000	-7.538026e+001	8.299048e+001	-2.000000e+002	0.000000e+000	-2.000000e+002	0.000000e+000
6799700.000	-4.729719e-003	-2.405099e+000	-7.456730e+001	9.390570e+001	-2.000000e+002	0.000000e+000	-2.000000e+002	0.000000e+000
7449670.000	-3.505109e-003	-2.624161e+000	-7.246071e+001	1.013451e+002	-2.000000e+002	0.000000e+000	-2.000000e+002	0.000000e+000
8099640.000	-4.800113e-003	-2.819660e+000	-7.120418e+001	8.264973e+001	-2.000000e+002	0.000000e+000	-2.000000e+002	0.000000e+000
8749610.000	-2.207482e-003	-3.036842e+000	-7.216584e+001	8.763337e+001	-2.000000e+002	0.000000e+000	-2.000000e+002	0.000000e+000
9399580.000	-3.356466e-003	-3.235720e+000	-7.090969e+001	8.539543e+001	-2.000000e+002	0.000000e+000	-2.000000e+002	0.000000e+000
10049550.000	-2.775876e-003	-3.443052e+000	-7.064452e+001	8.993425e+001	-2.000000e+002	0.000000e+000	-2.000000e+002	0.000000e+000
10699520.000	-4.523419e-003	-3.630230e+000	-7.002534e+001	8.604037e+001	-2.000000e+002	0.000000e+000	-2.000000e+002	0.000000e+000
11349490.000	-5.614466e-003	-3.823883e+000	-6.991335e+001	8.652498e+001	-2.000000e+002	0.000000e+000	-2.000000e+002	0.000000e+000
11999460.000	-5.001580e-003	-4.031495e+000	-6.907462e+001	8.943631e+001	-2.000000e+002	0.000000e+000	-2.000000e+002	0.000000e+000
12649430.000	-4.287797e-003	-4.244764e+000	-6.875772e+001	8.635528e+001	-2.000000e+002	0.000000e+000	-2.000000e+002	0.000000e+000
13299400.000	-3.595011e-003	-4.450787e+000	-6.832048e+001	8.764093e+001	-2.000000e+002	0.000000e+000	-2.000000e+002	0.000000e+000
13949370.000	-4.623766e-003	-4.657751e+000	-6.753463e+001	8.508193e+001	-2.000000e+002	0.000000e+000	-2.000000e+002	0.000000e+000
14599340.000	-4.892310e-003	-4.861920e+000	-6.744354e+001	8.658156e+001	-2.000000e+002	0.000000e+000	-2.000000e+002	0.000000e+000
15249310.000	-5.217645e-003	-5.077371e+000	-6.711605e+001	8.633842e+001	-2.000000e+002	0.000000e+000	-2.000000e+002	0.000000e+000
15899280.000	-4.137827e-003	-5.256247e+000	-6.652491e+001	8.578098e+001	-2.000000e+002	0.000000e+000	-2.000000e+002	0.000000e+000
16549250.000	-5.716457e-003	-5.457139e+000	-6.656331e+001	8.615464e+001	-2.000000e+002	0.000000e+000	-2.000000e+002	0.000000e+000
17199220.000	-4.807498e-003	-5.674646e+000	-6.620740e+001	8.649739e+001	-2.000000e+002	0.000000e+000	-2.000000e+002	0.000000e+000
17849190.000	1.172377e-003	-5.895588e+000	-6.569254e+001	8.602646e+001	-2.000000e+002	0.000000e+000	-2.000000e+002	0.000000e+000
18499160.000	1.262252e-003	-6.108562e+000	-6.559416e+001	8.544327e+001	-2.000000e+002	0.000000e+000	-2.000000e+002	0.000000e+000
19149130.000	-1.380877e-003	-6.291694e+000	-6.506302e+001	8.502747e+001	-2.000000e+002	0.000000e+000	-2.000000e+002	0.000000e+000
19799100.000	-5.935669e-003	-6.455756e+000	-6.484167e+001	8.541696e+001	-2.000000e+002	0.000000e+000	-2.000000e+002	0.000000e+000
20449070.000	-9.362410e-003	-6.665057e+000	-6.464322e+001	8.654045e+001	-2.000000e+002	0.000000e+000	-2.000000e+002	0.000000e+000
21099040.000	-1.023023e-002	-6.892364e+000	-6.462450e+001	8.635012e+001	-2.000000e+002	0.000000e+000	-2.000000e+002	0.000000e+000
21749010.000	-9.971119e-003	-7.096859e+000	-6.437042e+001	8.729272e+001	-2.000000e+002	0.000000e+000	-2.000000e+002	0.000000e+000
22398980.000	-7.274074e-003	-7.275651e+000	-6.432949e+001	8.678595e+001	-2.000000e+002	0.000000e+000	-2.000000e+002	0.000000e+000
23048950.000	-4.238211e-003	-7.449984e+000	-6.394128e+001	8.931654e+001	-2.000000e+002	0.000000e+000	-2.000000e+002	0.000000e+000
23698920.000	-6.323077e-003	-7.661160e+000	-6.352361e+001	9.054157e+001	-2.000000e+002	0.000000e+000	-2.000000e+002	0.000000e+000
24348890.000	-7.052692e-003	-7.869165e+000	-6.311980e+001	9.055514e+001	-2.000000e+002	0.000000e+000	-2.000000e+002	0.000000e+000
24998860.000	-5.529797e-003	-8.070447e+000	-6.259843e+001	9.188162e+001	-2.000000e+002	0.000000e+000	-2.000000e+002	0.000000e+000
25648830.000	-2.990934e-003	-8.274680e+000	-6.200350e+001	9.013038e+001	-2.000000e+002	0.000000e+000	-2.000000e+002	0.000000e+000
26298800.000	-4.771158e-003	-8.476542e+000	-6.158489e+001	8.945075e+001	-2.000000e+002	0.000000e+000	-2.000000e+002	0.000000e+000
26948770.000	-4.491765e-003	-8.679939e+000	-6.137018e+001	8.754892e+001	-2.000000e+002	0.000000e+000	-2.000000e+002	0.000000e+000
27598740.000	-4.203041e-003	-8.889966e+000	-6.107349e+001	8.638871e+001	-2.000000e+002	0.000000e+000	-2.000000e+002	0.000000e+000
28248710.000	-4.995396e-003	-9.091771e+000	-6.086059e+001	8.553581e+001	-2.000000e+002	0.000000e+000	-2.000000e+002	0.000000e+000
28898680.000	-4.752850e-003	-9.292258e+000	-6.069067e+001	8.496825e+001	-2.000000e+002	0.000000e+000	-2.000000e+002	0.000000e+000
29548650.000	-4.743868e-003	-9.490972e+000	-6.066466e+001	8.374623e+001	-2.000000e+002	0.000000e+000	-2.000000e+002	0.000000e+000
30198620.000	-4.787878e-003	-9.695937e+000	-6.050571e+001	8.327632e+001	-2.000000e+002	0.000000e+000	-2.000000e+002	0.000000e+000
30848590.000	-4.017327e-003	-9.903003e+000	-6.029532e+001	8.276574e+001	-2.000000e+002	0.000000e+000	-2.000000e+002	0.000000e+000
31498560.000	-4.137385e-003	-1.011266e+001	-6.027647e+001	8.203270e+001	-2.000000e+002	0.000000e+000	-2.000000e+002	0.000000e+000
32148530.000	-3.721410e-003	-1.031785e+001	-6.007922e+001	8.230707e+001	-2.000000e+002	0.000000e+000	-2.000000e+002	0.000000e+000
32798500.000	-4.290810e-003	-1.051903e+001	-6.007382e+001	8.192893e+001	-2.000000e+002	0.000000e+000	-2.000000e+002	0.000000e+000
33448470.000	-5.103971e-003	-1.072741e+001	-5.987881e+001	8.138590e+001	-2.000000e+002	0.000000e+000	-2.000000e+002	0.000000e+000
34098440.000	-5.978830e-003	-1.092814e+001	-5.980474e+001	8.224231e+001	-2.000000e+002	0.000000e+000	-2.000000e+002	0.000000e+000
34748410.000	-6.533753e-003	-1.112307e+001	-5.966231e+001	8.142026e+001	-2.000000e+002	0.000000e+000	-2.000000e+002	0.000000e+000
35398380.000	-5.888674e-003	-1.132085e+001	-5.966936e+001	8.254029e+001	-2.000000e+002	0.000000e+000	-2.000000e+002	0.000000e+000
36048350.000	-5.693890e-003	-1.152570e+001	-5.943772e+001	8.263183e+001	-2.000000e+002	0.000000e+000	-2.000000e+002	0.000000e+000
36698320.000	-5.842548e-003	-1.172477e+001	-5.927890e+001	8.322228e+001	-2.000000e+002	0.000000e+000	-2.000000e+002	0.000000e+000
37348290.000	-6.611676e-003	-1.192954e+001	-5.908348e+001	8.223760e+001	-2.000000e+002	0.000000e+000	-2.000000e+002	0.000000e+000
37998260.000	-6.702150e-003	-1.213272e+001	-5.905559e+001	8.245222e+001	-2.000000e+002	0.000000e+000	-2.000000e+002	0.000000e+000
38648230.000	-6.959927e-003	-1.234069e+001	-5.889889e+001	8.197303e+001	-2.000000e+002	0.000000e+000	-2.000000e+002	0.000000e+000
39298200.000	-7.649764e-003	-1.254920e+001	-5.892612e+001	8.290720e+001	-2.000000e+002	0.000000e+000	-2.000000e+002	0.000000e+000
39948170.000	-7.705823e-003	-1.275891e+001	-5.887930e+001	8.327790e+001	-2.000000e+002	0.000000e+000	-2.000000e+002	0.000000e+000
40598140.000	-8.516084e-003	-1.296117e+001	-5.871730e+001	8.484251e+001	-2.000000e+002	0.000000e+000	-2.000000e+002	0.000000e+000
41248110.000	-7.802125e-003	-1.316459e+001	-5.839437e+001	8.682341e+001	-2.000000e+002	0.000000e+000	-2.000000e+002	0.000000e+000
41898080.000	-7.934260e-003	-1.336625e+001	-5.796756e+001	8.658825e+001	-2.000000e+002	0.000000e+000	-2.000000e+002	0.000000e+000
42548050.000	-6.862236e-003	-1.356504e+001	-5.776366e+001	8.583237e+001	-2.000000e+002	0.000000e+000	-2.000000e+002	0.000000e+000
43198020.000	-8.183134e-003	-1.376197e+001	-5.744548e+001	8.542787e+001	-2.000000e+002	0.000000e+000	-2.000000e+002	0.000000e+000
43847990.000	-8.655245e-003	-1.396429e+001	-5.719519e+001	8.579346e+001	-2.000000e+002	0.000000e+000	-2.000000e+002	0.000000e+000
44497960.000	-8.788317e-003	-1.417188e+001	-5.700708e+001	8.493481e+001	-2.000000e+002	0.000000e+000	-2.000000e+002	0.000000e+000
45147930.000	-8.453720e-003	-1.437701e+001	-5.695202e+001	8.405791e+001	-2.000000e+002	0.000000e+000	-2.000000e+002	0.000000e+000
45797900.000	-8.600909e-003	-1.458228e+001	-5.680567e+001	8.402124e+001	-2.000000e+002	0.000000e+000	-2.000000e+002	0.000000e+000
46447870.000	-1.001587e-002	-1.478228e+001	-5.654416e+001	8.424231e+001	-2.000000e+002	0.000000e+000	-2.000000e+002	0.000000e+000
47097840.000	-1.050554e-002	-1.498540e+001	-5.639609e+001	8.464978e+001	-2.000000e+002	0.000000e+000	-2.000000e+002	0.000000e+000
47747810.000	-1.141192e-002	-1.518789e+001	-5.610798e+001	8.450035e+001	-2.000000e+002	0.000000e+000	-2.000000e+002	0.000000e+000
48397780.000	-1.222490e-002	-1.539233e+001	-5.598456e+001	8.423781e+001	-2.000000e+002	0.000000e+000	-2.000000e+002	0.000000e+000
49047750.000	-1.294480e-002	-1.559481e+001	-5.575649e+001	8.368164e+001	-2.000000e+002	0.000000e+000	-2.000000e+002	0.000000e+000
49697720.000	-1.318371e-002	-1.579940e+001	-5.551485e+001	8.306186e+001	-2.000000e+002	0.000000e+000	-2.000000e+002	0.000000e+000
50347690.000	-1.234842e-002	-1.600030e+001	-5.540102e+001	8.222131e+001	-2.000000e+002	0.000000e+000	-2.000000e+002	0.000000e+000
50997660.000	-1.192699e-002	-1.620677e+001	-5.523616e+001	8.157346e+001	-2.000000e+002	0.000000e+000	-2.000000e+002	0.000000e+000
51647630.000	-1.202572e-002	-1.640618e+001	-5.503566e+001	8.103269e+001	-2.000000e+002	0.000000e+000	-2.000000e+002	0.000000e+000
52297600.000	-1.293851e-002	-1.660968e+001	-5.498651e+001	8.000675e+001	-2.000000e+002	0.000000e+000	-2.000000e+002	0.000000e+000
52947570.000	-1.290321e-002	-1.681455e+001	-5.490041e+001	7.964804e+001	-2.000000e+002	0.000000e+000	-2.000000e+002	0.000000e+000
53597540.000	-1.318395e-002	-1.701989e+001	-5.481439e+001	7.962607e+001	-2.000000e+002	0.000000e+000	-2.000000e+002	0.000000e+000
54247510.000	-1.404793e-002	-1.722110e+001	-5.467433e+001	7.971539e+001	-2.000000e+002	0.000000e+000	-2.000000e+002	0.000000e+000
54897480.000	-1.399856e-002	-1.742569e+001	-5.449934e+001	7.958575e+001	-2.000000e+002	0.000000e+000	-2.000000e+002	0.000000e+000
55547450.000	-1.415863e-002	-1.762970e+001	-5.433277e+001	7.910720e+001	-2.000000e+002	0.000000e+000	-2.000000e+002	0.000000e+000
56197420.000	-1.411072e-002	-1.782885e+001	-5.411239e+001	7.806767e+001	-2.000000e+002	0.000000e+000	-2.000000e+002	0.000000e+000
56847390.000	-1.445154e-002	-1.803176e+001	-5.404503e+001	7.723136e+001	-2.000000e+002	0.000000e+000	-2.000000e+002	0.000000e+000
57497360.000	-1.498333e-002	-1.823167e+001	-5.391442e+001	7.665759e+001	-2.000000e+002	0.000000e+000	-2.000000e+002	0.000000e+000
58147330.000	-1.524911e-002	-1.843216e+001	-5.387528e+001	7.571551e+001	-2.000000e+002	0.000000e+000	-2.000000e+002	0.000000e+000
58797300.000	-1.598408e-002	-1.863723e+001	-5.376341e+001	7.526664e+001	-2.000000e+002	0.000000e+000	-2.000000e+002	0.000000e+000
59447270.000	-1.598380e-002	-1.883993e+001	-5.370356e+001	7.437501e+001	-2.000000e+002	0.000000e+000	-2.000000e+002	0.000000e+000
60097240.000	-1.635654e-002	-1.903750e+001	-5.365386e+001	7.397020e+001	-2.000000e+002	0.000000e+000	-2.000000e+002	0.000000e+000
60747210.000	-1.670788e-002	-1.924068e+001	-5.359143e+001	7.357442e+001	-2.000000e+002	0.000000e+000	-2.000000e+002	0.000000e+000
61397180.000	-1.777125e-002	-1.944400e+001	-5.352792e+001	7.302740e+001	-2.000000e+002	0.000000e+000	-2.000000e+002	0.000000e+000
62047150.000	-1.789971e-002	-1.964283e+001	-5.344615e+001	7.288837e+001	-2.000000e+002	0.000000e+000	-2.000000e+002	0.000000e+000
62697120.000	-1.835200e-002	-1.984234e+001	-5.342052e+001	7.239792e+001	-2.000000e+002	0.000000e+000	-2.000000e+002	0.000000e+000
63347090.000	-1.981794e-002	-2.004332e+001	-5.337917e+001	7.223396e+001	-2.000000e+002	0.000000e+000	-2.000000e+002	0.000000e+000
63997060.000	-1.963632e-002	-2.024695e+001	-5.332031e+001	7.202459e+001	-2.000000e+002	0.000000e+000	-2.000000e+002	0.000000e+000
64647030.000	-2.106515e-002	-2.044509e+001	-5.327161e+001	7.173788e+001	-2.000000e+002	0.000000e+000	-2.000000e+002	0.000000e+000
65297000.000	-2.113523e-002	-2.064807e+001	-5.314494e+001	7.177122e+001	-2.000000e+002	0.000000e+000	-2.000000e+002	0.000000e+000
65946970.000	-2.141665e-002	-2.084899e+001	-5.311456e+001	7.157965e+001	-2.000000e+002	0.000000e+000	-2.000000e+002	0.000000e+000
66596940.000	-2.130564e-002	-2.105231e+001	-5.306280e+001	7.150039e+001	-2.000000e+002	0.000000e+000	-2.000000e+002	0.000000e+000
67246910.000	-2.235318e-002	-2.125585e+001	-5.297619e+001	7.101008e+001	-2.000000e+002	0.000000e+000	-2.000000e+002	0.000000e+000
67896880.000	-2.285576e-002	-2.145315e+001	-5.284853e+001	7.082731e+001	-2.000000e+002	0.000000e+000	-2.000000e+002	0.000000e+000
68546850.000	-2.310053e-002	-2.165528e+001	-5.278043e+001	7.077271e+001	-2.000000e+002	0.000000e+000	-2.000000e+002	0.000000e+000
69196820.000	-2.345092e-002	-2.185201e+001	-5.274489e+001	7.044281e+001	-2.000000e+002	0.000000e+000	-2.000000e+002	0.000000e+000
69846790.000	-2.373714e-002	-2.205590e+001	-5.263992e+001	7.014841e+001	-2.000000e+002	0.000000e+000	-2.000000e+002	0.000000e+000
70496760.000	-2.289619e-002	-2.226604e+001	-5.252875e+001	6.982055e+001	-2.000000e+002	0.000000e+000	-2.000000e+002	0.000000e+000
71146730.000	-2.307529e-002	-2.247092e+001	-5.254502e+001	6.954729e+001	-2.000000e+002	0.000000e+000	-2.000000e+002	0.000000e+000
71796700.000	-2.460954e-002	-2.267556e+001	-5.241682e+001	6.937485e+001	-2.000000e+002	0.000000e+000	-2.000000e+002	0.000000e+000
72446670.000	-2.413411e-002	-2.287389e+001	-5.239125e+001	6.940274e+001	-2.000000e+002	0.000000e+000	-2.000000e+002	0.000000e+000
73096640.000	-2.492081e-002	-2.308028e+001	-5.229251e+001	6.889628e+001	-2.000000e+002	0.000000e+000	-2.000000e+002	0.000000e+000
73746610.000	-2.478852e-002	-2.327820e+001	-5.227576e+001	6.876940e+001	-2.000000e+002	0.000000e+000	-2.000000e+002	0.000000e+000
74396580.000	-2.496331e-002	-2.348371e+001	-5.218812e+001	6.858689e+001	-2.000000e+002	0.000000e+000	-2.000000e+002	0.000000e+000
75046550.000	-2.510217e-002	-2.368755e+001	-5.216033e+001	6.834201e+001	-2.000000e+002	0.000000e+000	-2.000000e+002	0.000000e+000
75696520.000	-2.570310e-002	-2.388737e+001	-5.210314e+001	6.829173e+001	-2.000000e+002	0.000000e+000	-2.000000e+002	0.000000e+000
76346490.000	-2.640242e-002	-2.409387e+001	-5.200865e+001	6.808104e+001	-2.000000e+002	0.000000e+000	-2.000000e+002	0.000000e+000
76996460.000	-2.728080e-002	-2.428535e+001	-5.195866e+001	6.823385e+001	-2.000000e+002	0.000000e+000	-2.000000e+002	0.000000e+000
77646430.000	-2.746451e-002	-2.448732e+001	-5.190735e+001	6.791543e+001	-2.000000e+002	0.000000e+000	-2.000000e+002	0.000000e+000
78296400.000	-2.782743e-002	-2.469023e+001	-5.182516e+001	6.768704e+001	-2.000000e+002	0.000000e+000	-2.000000e+002	0.000000e+000
78946370.000	-2.789973e-002	-2.489243e+001	-5.173698e+001	6.756866e+001	-2.000000e+002	0.000000e+000	-2.000000e+002	0.000000e+000
79596340.000	-2.742916e-002	-2.510472e+001	-5.167695e+001	6.745779e+001	-2.000000e+002	0.000000e+000	-2.000000e+002	0.000000e+000
80246310.000	-2.836939e-002	-2.530581e+001	-5.160366e+001	6.711144e+001	-2.000000e+002	0.000000e+000	-2.000000e+002	0.000000e+000
80896280.000	-2.881355e-002	-2.550783e+001	-5.152300e+001	6.696270e+001	-2.000000e+002	0.000000e+000	-2.000000e+002	0.000000e+000
81546250.000	-2.942130e-002	-2.571181e+001	-5.153752e+001	6.639694e+001	-2.000000e+002	0.000000e+000	-2.000000e+002	0.000000e+000
82196220.000	-2.968084e-002	-2.590828e+001	-5.145740e+001	6.631350e+001	-2.000000e+002	0.000000e+000	-2.000000e+002	0.000000e+000
82846190.000	-3.026695e-002	-2.611395e+001	-5.142226e+001	6.634498e+001	-2.000000e+002	0.000000e+000	-2.000000e+002	0.000000e+000
83496160.000	-3.074707e-002	-2.631519e+001	-5.135987e+001	6.619362e+001	-2.000000e+002	0.000000e+000	-2.000000e+002	0.000000e+000
84146130.000	-3.129311e-002	-2.652269e+001	-5.125914e+001	6.634761e+001	-2.000000e+002	0.000000e+000	-2.000000e+002	0.000000e+000
84796100.000	-3.182288e-002	-2.672583e+001	-5.120995e+001	6.627425e+001	-2.000000e+002	0.000000e+000	-2.000000e+002	0.000000e+000
85446070.000	-3.178544e-002	-2.692990e+001	-5.116878e+001	6.585276e+001	-2.000000e+002	0.000000e+000	-2.000000e+002	0.000000e+000
86096040.000	-3.197076e-002	-2.713026e+001	-5.108020e+001	6.610299e+001	-2.000000e+002	0.000000e+000	-2.000000e+002	0.000000e+000
86746010.000	-3.209345e-002	-2.733146e+001	-5.103782e+001	6.587688e+001	-2.000000e+002	0.000000e+000	-2.000000e+002	0.000000e+000
87395980.000	-3.325813e-002	-2.753384e+001	-5.095361e+001	6.585483e+001	-2.000000e+002	0.000000e+000	-2.000000e+002	0.000000e+000
88045950.000	-3.412174e-002	-2.773272e+001	-5.096449e+001	6.557079e+001	-2.000000e+002	0.000000e+000	-2.000000e+002	0.000000e+000
88695920.000	-3.417964e-002	-2.793411e+001	-5.078645e+001	6.525607e+001	-2.000000e+002	0.000000e+000	-2.000000e+002	0.000000e+000
89345890.000	-3.473823e-002	-2.813696e+001	-5.073656e+001	6.500361e+001	-2.000000e+002	0.000000e+000	-2.000000e+002	0.000000e+000
89995860.000	-3.514080e-002	-2.834356e+001	-5.075136e+001	6.521773e+001	-2.000000e+002	0.000000e+000	-2.000000e+002	0.000000e+000
90645830.000	-3.537458e-002	-2.854706e+001	-5.060261e+001	6.514254e+001	-2.000000e+002	0.000000e+000	-2.000000e+002	0.000000e+000
91295800.000	-3.460516e-002	-2.874876e+001	-5.060385e+001	6.502596e+001	-2.000000e+002	0.000000e+000	-2.000000e+002	0.000000e+000
91945770.000	-3.581340e-002	-2.895747e+001	-5.048578e+001	6.437399e+001	-2.000000e+002	0.000000e+000	-2.000000e+002	0.000000e+000
92595740.000	-3.585694e-002	-2.916194e+001	-5.045950e+001	6.440282e+001	-2.000000e+002	0.000000e+000	-2.000000e+002	0.000000e+000
93245710.000	-3.560904e-002	-2.936709e+001	-5.044945e+001	6.413508e+001	-2.000000e+002	0.000000e+000	-2.000000e+002	0.000000e+000
93895680.000	-3.632805e-002	-2.957027e+001	-5.036636e+001	6.430491e+001	-2.000000e+002	0.000000e+000	-2.000000e+002	0.000000e+000
94545650.000	-3.680586e-002	-2.977693e+001	-5.027750e+001	6.399207e+001	-2.000000e+002	0.000000e+000	-2.000000e+002	0.000000e+000
95195620.000	-3.574499e-002	-2.997246e+001	-5.023243e+001	6.399794e+001	-2.000000e+002	0.000000e+000	-2.000000e+002	0.000000e+000
95845590.000	-3.727351e-002	-3.017714e+001	-5.014707e+001	6.365656e+001	-2.000000e+002	0.000000e+000	-2.000000e+002	0.000000e+000
96495560.000	-3.844159e-002	-3.038219e+001	-5.013138e+001	6.371615e+001	-2.000000e+002	0.000000e+000	-2.000000e+002	0.000000e+000
97145530.000	-3.809488e-002	-3.058062e+001	-5.005934e+001	6.331814e+001	-2.000000e+002	0.000000e+000	-2.000000e+002	0.000000e+000
97795500.000	-3.911369e-002	-3.078460e+001	-4.996659e+001	6.341104e+001	-2.000000e+002	0.000000e+000	-2.000000e+002	0.000000e+000
98445470.000	-3.944142e-002	-3.098579e+001	-4.995706e+001	6.325816e+001	-2.000000e+002	0.000000e+000	-2.000000e+002	0.000000e+000
