!Keysight Technologies,E5063A,MY54503115,A.05.08
!Date: Wed Dec 06 19:13:03 2023
!Data & Calibration Information:
!Freq	S11:NONE(--)	S21:NONE(--)	S12:NONE(--)	S22:NONE(--)
# Hz S dB R 50
100000.000	4.736186e-002	-6.304740e-001	-8.346371e+001	-7.122222e+001	-2.000000e+002	0.000000e+000	-2.000000e+002	0.000000e+000
749990.000	7.351386e-003	-1.354721e+000	-8.250574e+001	-7.871412e+001	-2.000000e+002	0.000000e+000	-2.000000e+002	0.000000e+000
1399980.000	8.071743e-003	-2.196292e+000	-9.276644e+001	1.790897e+002	-2.000000e+002	0.000000e+000	-2.000000e+002	0.000000e+000
2049970.000	6.888104e-003	-3.040236e+000	-8.593474e+001	8.149902e+001	-2.000000e+002	0.000000e+000	-2.000000e+002	0.000000e+000
2699960.000	7.148818e-003	-3.895101e+000	-9.108217e+001	-1.774254e+002	-2.000000e+002	0.000000e+000	-2.000000e+002	0.000000e+000
3349950.000	9.116096e-003	-4.761916e+000	-9.029125e+001	-1.392067e+002	-2.000000e+002	0.000000e+000	-2.000000e+002	0.000000e+000
3999940.000	9.191759e-003	-5.616949e+000	-8.447036e+001	9.067308e+001	-2.000000e+002	0.000000e+000	-2.000000e+002	0.000000e+000
4649930.000	1.182855e-002	-6.474576e+000	-1.081625e+002	3.125047e+000	-2.000000e+002	0.000000e+000	-2.000000e+002	0.000000e+000
5299920.000	8.708119e-003	-7.340381e+000	-9.130075e+001	1.126830e+002	-2.000000e+002	0.000000e+000	-2.000000e+002	0.000000e+000
5949910.000	1.045089e-002	-8.205604e+000	-9.799935e+001	-1.090211e+002	-2.000000e+002	0.000000e+000	-2.000000e+002	0.000000e+000
6599900.000	8.838489e-003	-9.067002e+000	-8.865402e+001	4.348882e+001	-2.000000e+002	0.000000e+000	-2.000000e+002	0.000000e+000
7249890.000	9.910759e-003	-9.920737e+000	-9.385662e+001	-5.323551e+001	-2.000000e+002	0.000000e+000	-2.000000e+002	0.000000e+000
7899880.000	1.083496e-002	-1.079460e+001	-9.126196e+001	-1.194955e+002	-2.000000e+002	0.000000e+000	-2.000000e+002	0.000000e+000
8549870.000	1.469308e-002	-1.166086e+001	-1.100916e+002	1.189203e+002	-2.000000e+002	0.000000e+000	-2.000000e+002	0.000000e+000
9199860.000	1.379772e-002	-1.252225e+001	-9.728849e+001	1.384053e+002	-2.000000e+002	0.000000e+000	-2.000000e+002	0.000000e+000
9849850.000	1.393595e-002	-1.338500e+001	-1.026731e+002	1.329870e+002	-2.000000e+002	0.000000e+000	-2.000000e+002	0.000000e+000
10499840.000	1.257501e-002	-1.423807e+001	-9.834506e+001	1.365150e+002	-2.000000e+002	0.000000e+000	-2.000000e+002	0.000000e+000
11149830.000	1.133739e-002	-1.509040e+001	-9.555876e+001	8.652547e+001	-2.000000e+002	0.000000e+000	-2.000000e+002	0.000000e+000
11799820.000	1.085933e-002	-1.595401e+001	-9.586364e+001	1.062791e+002	-2.000000e+002	0.000000e+000	-2.000000e+002	0.000000e+000
12449810.000	1.255712e-002	-1.682178e+001	-1.014064e+002	1.172111e+002	-2.000000e+002	0.000000e+000	-2.000000e+002	0.000000e+000
13099800.000	1.537454e-002	-1.768569e+001	-1.000155e+002	-1.246444e+002	-2.000000e+002	0.000000e+000	-2.000000e+002	0.000000e+000
13749790.000	1.540783e-002	-1.853907e+001	-9.501295e+001	9.363241e+001	-2.000000e+002	0.000000e+000	-2.000000e+002	0.000000e+000
14399780.000	1.416578e-002	-1.941057e+001	-9.917154e+001	5.672961e+001	-2.000000e+002	0.000000e+000	-2.000000e+002	0.000000e+000
15049770.000	1.624178e-002	-2.027823e+001	-1.104902e+002	-8.126633e+001	-2.000000e+002	0.000000e+000	-2.000000e+002	0.000000e+000
15699760.000	1.771439e-002	-2.112356e+001	-1.082181e+002	2.653672e+001	-2.000000e+002	0.000000e+000	-2.000000e+002	0.000000e+000
16349750.000	1.884648e-002	-2.198466e+001	-1.031483e+002	-7.106915e+001	-2.000000e+002	0.000000e+000	-2.000000e+002	0.000000e+000
16999740.000	1.807551e-002	-2.285566e+001	-9.778083e+001	-1.582575e+001	-2.000000e+002	0.000000e+000	-2.000000e+002	0.000000e+000
17649730.000	2.600288e-002	-2.374670e+001	-9.875152e+001	-7.958034e+001	-2.000000e+002	0.000000e+000	-2.000000e+002	0.000000e+000
18299720.000	2.946165e-002	-2.462429e+001	-1.031388e+002	-1.762736e+002	-2.000000e+002	0.000000e+000	-2.000000e+002	0.000000e+000
18949710.000	2.896374e-002	-2.549243e+001	-1.070932e+002	4.530089e+001	-2.000000e+002	0.000000e+000	-2.000000e+002	0.000000e+000
19599700.000	2.309052e-002	-2.634064e+001	-9.881887e+001	1.335042e+002	-2.000000e+002	0.000000e+000	-2.000000e+002	0.000000e+000
20249690.000	1.914485e-002	-2.719774e+001	-1.080780e+002	9.565884e+001	-2.000000e+002	0.000000e+000	-2.000000e+002	0.000000e+000
20899680.000	1.754072e-002	-2.809245e+001	-1.044632e+002	2.608545e+001	-2.000000e+002	0.000000e+000	-2.000000e+002	0.000000e+000
21549670.000	1.727019e-002	-2.896605e+001	-1.111001e+002	1.055208e+002	-2.000000e+002	0.000000e+000	-2.000000e+002	0.000000e+000
22199660.000	1.813001e-002	-2.981886e+001	-9.796081e+001	-1.713926e+002	-2.000000e+002	0.000000e+000	-2.000000e+002	0.000000e+000
22849650.000	2.033039e-002	-3.065244e+001	-1.012247e+002	1.333570e+002	-2.000000e+002	0.000000e+000	-2.000000e+002	0.000000e+000
23499640.000	1.930928e-002	-3.151624e+001	-1.004110e+002	-4.617805e+001	-2.000000e+002	0.000000e+000	-2.000000e+002	0.000000e+000
24149630.000	1.732014e-002	-3.238961e+001	-1.119777e+002	-1.063271e+002	-2.000000e+002	0.000000e+000	-2.000000e+002	0.000000e+000
24799620.000	1.824693e-002	-3.325033e+001	-1.057215e+002	-7.819639e+001	-2.000000e+002	0.000000e+000	-2.000000e+002	0.000000e+000
25449610.000	2.048394e-002	-3.411392e+001	-1.033124e+002	8.729181e+001	-2.000000e+002	0.000000e+000	-2.000000e+002	0.000000e+000
26099600.000	2.006350e-002	-3.497403e+001	-1.014731e+002	-7.125074e+001	-2.000000e+002	0.000000e+000	-2.000000e+002	0.000000e+000
26749590.000	1.928060e-002	-3.584311e+001	-1.024701e+002	1.008171e+002	-2.000000e+002	0.000000e+000	-2.000000e+002	0.000000e+000
27399580.000	1.845420e-002	-3.670772e+001	-1.051280e+002	9.437743e+001	-2.000000e+002	0.000000e+000	-2.000000e+002	0.000000e+000
28049570.000	1.976052e-002	-3.757606e+001	-9.867773e+001	-1.474131e+002	-2.000000e+002	0.000000e+000	-2.000000e+002	0.000000e+000
28699560.000	1.944091e-002	-3.843709e+001	-1.300336e+002	7.722762e+001	-2.000000e+002	0.000000e+000	-2.000000e+002	0.000000e+000
29349550.000	1.972603e-002	-3.929899e+001	-9.878964e+001	1.420725e+002	-2.000000e+002	0.000000e+000	-2.000000e+002	0.000000e+000
29999540.000	1.915686e-002	-4.016558e+001	-1.118455e+002	5.479234e+001	-2.000000e+002	0.000000e+000	-2.000000e+002	0.000000e+000
30649530.000	1.877958e-002	-4.103733e+001	-1.011235e+002	-2.067432e+001	-2.000000e+002	0.000000e+000	-2.000000e+002	0.000000e+000
31299520.000	1.956701e-002	-4.191176e+001	-9.960899e+001	-3.981659e+001	-2.000000e+002	0.000000e+000	-2.000000e+002	0.000000e+000
31949510.000	1.958369e-002	-4.277744e+001	-1.004695e+002	-5.615670e+001	-2.000000e+002	0.000000e+000	-2.000000e+002	0.000000e+000
32599500.000	1.875321e-002	-4.364423e+001	-1.008645e+002	8.497963e+001	-2.000000e+002	0.000000e+000	-2.000000e+002	0.000000e+000
33249490.000	1.874940e-002	-4.451174e+001	-1.038575e+002	9.952943e+001	-2.000000e+002	0.000000e+000	-2.000000e+002	0.000000e+000
33899480.000	1.853705e-002	-4.538508e+001	-1.025595e+002	-1.498659e+000	-2.000000e+002	0.000000e+000	-2.000000e+002	0.000000e+000
34549470.000	1.811024e-002	-4.624137e+001	-1.109338e+002	-8.089668e+001	-2.000000e+002	0.000000e+000	-2.000000e+002	0.000000e+000
35199460.000	1.787799e-002	-4.710925e+001	-1.003387e+002	-8.161963e+001	-2.000000e+002	0.000000e+000	-2.000000e+002	0.000000e+000
35849450.000	1.721955e-002	-4.797566e+001	-1.010610e+002	-5.992909e+001	-2.000000e+002	0.000000e+000	-2.000000e+002	0.000000e+000
36499440.000	1.703617e-002	-4.884447e+001	-1.029915e+002	8.976176e+001	-2.000000e+002	0.000000e+000	-2.000000e+002	0.000000e+000
37149430.000	1.645747e-002	-4.971338e+001	-1.056067e+002	1.436587e+002	-2.000000e+002	0.000000e+000	-2.000000e+002	0.000000e+000
37799420.000	1.642078e-002	-5.058620e+001	-9.956065e+001	1.270369e+001	-2.000000e+002	0.000000e+000	-2.000000e+002	0.000000e+000
38449410.000	1.541469e-002	-5.145917e+001	-1.066584e+002	-1.239317e+002	-2.000000e+002	0.000000e+000	-2.000000e+002	0.000000e+000
39099400.000	1.478762e-002	-5.233081e+001	-9.947945e+001	9.681611e+001	-2.000000e+002	0.000000e+000	-2.000000e+002	0.000000e+000
39749390.000	1.426802e-002	-5.320672e+001	-1.003204e+002	3.812246e+001	-2.000000e+002	0.000000e+000	-2.000000e+002	0.000000e+000
40399380.000	1.333418e-002	-5.408267e+001	-1.015078e+002	-1.110867e+002	-2.000000e+002	0.000000e+000	-2.000000e+002	0.000000e+000
41049370.000	1.222928e-002	-5.495009e+001	-1.048869e+002	3.999137e+001	-2.000000e+002	0.000000e+000	-2.000000e+002	0.000000e+000
41699360.000	1.293344e-002	-5.581902e+001	-1.036137e+002	-1.397712e+002	-2.000000e+002	0.000000e+000	-2.000000e+002	0.000000e+000
42349350.000	1.184639e-002	-5.668801e+001	-1.094836e+002	1.263825e+002	-2.000000e+002	0.000000e+000	-2.000000e+002	0.000000e+000
42999340.000	9.107970e-003	-5.755776e+001	-1.026737e+002	4.728328e+001	-2.000000e+002	0.000000e+000	-2.000000e+002	0.000000e+000
43649330.000	8.266718e-003	-5.842072e+001	-1.079885e+002	1.414266e+002	-2.000000e+002	0.000000e+000	-2.000000e+002	0.000000e+000
44299320.000	7.684446e-003	-5.928822e+001	-1.020344e+002	1.053721e+002	-2.000000e+002	0.000000e+000	-2.000000e+002	0.000000e+000
44949310.000	7.221540e-003	-6.015775e+001	-1.072586e+002	-7.774793e+001	-2.000000e+002	0.000000e+000	-2.000000e+002	0.000000e+000
45599300.000	6.860430e-003	-6.102554e+001	-9.953308e+001	1.317625e+002	-2.000000e+002	0.000000e+000	-2.000000e+002	0.000000e+000
46249290.000	6.130884e-003	-6.189817e+001	-9.773242e+001	6.539587e+001	-2.000000e+002	0.000000e+000	-2.000000e+002	0.000000e+000
46899280.000	5.884332e-003	-6.276534e+001	-1.050244e+002	7.145056e+001	-2.000000e+002	0.000000e+000	-2.000000e+002	0.000000e+000
47549270.000	4.183924e-003	-6.364055e+001	-1.036297e+002	5.384733e+001	-2.000000e+002	0.000000e+000	-2.000000e+002	0.000000e+000
48199260.000	3.754998e-003	-6.451250e+001	-9.960753e+001	1.197927e+001	-2.000000e+002	0.000000e+000	-2.000000e+002	0.000000e+000
48849250.000	2.865793e-003	-6.538929e+001	-9.397450e+001	7.756651e+001	-2.000000e+002	0.000000e+000	-2.000000e+002	0.000000e+000
49499240.000	3.293987e-003	-6.625957e+001	-1.171410e+002	1.205638e+001	-2.000000e+002	0.000000e+000	-2.000000e+002	0.000000e+000
50149230.000	1.896219e-003	-6.713907e+001	-1.092607e+002	4.718739e+001	-2.000000e+002	0.000000e+000	-2.000000e+002	0.000000e+000
50799220.000	9.127984e-004	-6.801888e+001	-1.176859e+002	1.369285e+002	-2.000000e+002	0.000000e+000	-2.000000e+002	0.000000e+000
51449210.000	1.420214e-003	-6.889342e+001	-1.089611e+002	1.391246e+002	-2.000000e+002	0.000000e+000	-2.000000e+002	0.000000e+000
52099200.000	-1.229988e-004	-6.977120e+001	-1.125475e+002	1.715474e+002	-2.000000e+002	0.000000e+000	-2.000000e+002	0.000000e+000
52749190.000	-1.234758e-003	-7.064540e+001	-9.618166e+001	1.338615e+002	-2.000000e+002	0.000000e+000	-2.000000e+002	0.000000e+000
53399180.000	-2.202447e-003	-7.152263e+001	-1.004061e+002	7.652901e+001	-2.000000e+002	0.000000e+000	-2.000000e+002	0.000000e+000
54049170.000	-3.043012e-003	-7.239999e+001	-9.934941e+001	4.848007e+001	-2.000000e+002	0.000000e+000	-2.000000e+002	0.000000e+000
54699160.000	-4.792723e-003	-7.327683e+001	-1.009862e+002	1.253977e+002	-2.000000e+002	0.000000e+000	-2.000000e+002	0.000000e+000
55349150.000	-5.215358e-003	-7.415278e+001	-1.070714e+002	-1.385858e+001	-2.000000e+002	0.000000e+000	-2.000000e+002	0.000000e+000
55999140.000	-6.569374e-003	-7.503160e+001	-1.092047e+002	8.131764e+001	-2.000000e+002	0.000000e+000	-2.000000e+002	0.000000e+000
56649130.000	-7.798455e-003	-7.591195e+001	-1.002113e+002	4.139413e+001	-2.000000e+002	0.000000e+000	-2.000000e+002	0.000000e+000
57299120.000	-9.007295e-003	-7.679131e+001	-1.010977e+002	-1.089374e+001	-2.000000e+002	0.000000e+000	-2.000000e+002	0.000000e+000
57949110.000	-1.033155e-002	-7.766986e+001	-1.010835e+002	4.501917e+001	-2.000000e+002	0.000000e+000	-2.000000e+002	0.000000e+000
58599100.000	-1.083855e-002	-7.854236e+001	-9.719276e+001	9.279472e+001	-2.000000e+002	0.000000e+000	-2.000000e+002	0.000000e+000
59249090.000	-1.269008e-002	-7.942269e+001	-1.180695e+002	-1.542494e+002	-2.000000e+002	0.000000e+000	-2.000000e+002	0.000000e+000
59899080.000	-1.352311e-002	-8.030439e+001	-9.973159e+001	1.667197e+001	-2.000000e+002	0.000000e+000	-2.000000e+002	0.000000e+000
60549070.000	-1.492694e-002	-8.118605e+001	-9.955807e+001	-2.563340e+001	-2.000000e+002	0.000000e+000	-2.000000e+002	0.000000e+000
61199060.000	-1.679160e-002	-8.206920e+001	-1.152458e+002	5.192766e+001	-2.000000e+002	0.000000e+000	-2.000000e+002	0.000000e+000
61849050.000	-1.869216e-002	-8.295110e+001	-1.088056e+002	4.317834e+001	-2.000000e+002	0.000000e+000	-2.000000e+002	0.000000e+000
62499040.000	-2.054050e-002	-8.383392e+001	-9.841591e+001	5.038458e+001	-2.000000e+002	0.000000e+000	-2.000000e+002	0.000000e+000
63149030.000	-2.188173e-002	-8.471579e+001	-9.606192e+001	7.517887e+001	-2.000000e+002	0.000000e+000	-2.000000e+002	0.000000e+000
63799020.000	-2.351179e-002	-8.559956e+001	-1.086778e+002	9.788941e+001	-2.000000e+002	0.000000e+000	-2.000000e+002	0.000000e+000
64449010.000	-2.562698e-002	-8.648475e+001	-1.016834e+002	-5.235163e+000	-2.000000e+002	0.000000e+000	-2.000000e+002	0.000000e+000
65099000.000	-2.721225e-002	-8.736564e+001	-1.170589e+002	1.763602e+002	-2.000000e+002	0.000000e+000	-2.000000e+002	0.000000e+000
65748990.000	-2.851220e-002	-8.824970e+001	-1.017143e+002	8.625595e+001	-2.000000e+002	0.000000e+000	-2.000000e+002	0.000000e+000
66398980.000	-3.030299e-002	-8.913520e+001	-9.503646e+001	4.303398e+001	-2.000000e+002	0.000000e+000	-2.000000e+002	0.000000e+000
67048970.000	-3.188277e-002	-9.002034e+001	-1.017637e+002	7.995215e+001	-2.000000e+002	0.000000e+000	-2.000000e+002	0.000000e+000
67698960.000	-3.415249e-002	-9.090794e+001	-9.780130e+001	8.579488e+001	-2.000000e+002	0.000000e+000	-2.000000e+002	0.000000e+000
68348950.000	-3.678001e-002	-9.179108e+001	-1.014934e+002	-8.780647e+000	-2.000000e+002	0.000000e+000	-2.000000e+002	0.000000e+000
68998940.000	-3.881180e-002	-9.268029e+001	-1.018661e+002	-2.427060e+001	-2.000000e+002	0.000000e+000	-2.000000e+002	0.000000e+000
69648930.000	-4.056117e-002	-9.356421e+001	-1.034154e+002	9.273697e+001	-2.000000e+002	0.000000e+000	-2.000000e+002	0.000000e+000
70298920.000	-4.273542e-002	-9.444881e+001	-9.979942e+001	7.763564e+001	-2.000000e+002	0.000000e+000	-2.000000e+002	0.000000e+000
70948910.000	-4.505463e-002	-9.533528e+001	-9.889164e+001	6.466875e+001	-2.000000e+002	0.000000e+000	-2.000000e+002	0.000000e+000
71598900.000	-4.669081e-002	-9.621543e+001	-9.443430e+001	3.876002e+001	-2.000000e+002	0.000000e+000	-2.000000e+002	0.000000e+000
72248890.000	-4.838986e-002	-9.710018e+001	-9.531543e+001	1.235376e+002	-2.000000e+002	0.000000e+000	-2.000000e+002	0.000000e+000
72898880.000	-4.960971e-002	-9.798660e+001	-9.359490e+001	8.144732e+001	-2.000000e+002	0.000000e+000	-2.000000e+002	0.000000e+000
73548870.000	-5.110569e-002	-9.887783e+001	-9.993198e+001	8.696031e+001	-2.000000e+002	0.000000e+000	-2.000000e+002	0.000000e+000
74198860.000	-5.196927e-002	-9.977203e+001	-1.072157e+002	4.665158e+001	-2.000000e+002	0.000000e+000	-2.000000e+002	0.000000e+000
74848850.000	-5.324799e-002	-1.006655e+002	-9.543025e+001	4.598291e+001	-2.000000e+002	0.000000e+000	-2.000000e+002	0.000000e+000
75498840.000	-5.496702e-002	-1.015597e+002	-9.154574e+001	2.698030e+001	-2.000000e+002	0.000000e+000	-2.000000e+002	0.000000e+000
76148830.000	-5.643304e-002	-1.024555e+002	-9.446576e+001	6.906109e+001	-2.000000e+002	0.000000e+000	-2.000000e+002	0.000000e+000
76798820.000	-5.846608e-002	-1.033544e+002	-9.950885e+001	-6.999364e+001	-2.000000e+002	0.000000e+000	-2.000000e+002	0.000000e+000
77448810.000	-6.059651e-002	-1.042524e+002	-9.717328e+001	2.013658e+001	-2.000000e+002	0.000000e+000	-2.000000e+002	0.000000e+000
78098800.000	-6.235049e-002	-1.051520e+002	-9.222637e+001	3.064040e+001	-2.000000e+002	0.000000e+000	-2.000000e+002	0.000000e+000
78748790.000	-6.433739e-002	-1.060509e+002	-9.736492e+001	3.950784e+001	-2.000000e+002	0.000000e+000	-2.000000e+002	0.000000e+000
79398780.000	-6.662614e-002	-1.069491e+002	-9.546261e+001	4.055336e+001	-2.000000e+002	0.000000e+000	-2.000000e+002	0.000000e+000
80048770.000	-6.839845e-002	-1.078490e+002	-1.011210e+002	6.438924e+001	-2.000000e+002	0.000000e+000	-2.000000e+002	0.000000e+000
80698760.000	-7.052014e-002	-1.087490e+002	-1.015366e+002	6.604056e+001	-2.000000e+002	0.000000e+000	-2.000000e+002	0.000000e+000
81348750.000	-7.312199e-002	-1.096515e+002	-1.105779e+002	-9.578865e+001	-2.000000e+002	0.000000e+000	-2.000000e+002	0.000000e+000
81998740.000	-7.524133e-002	-1.105542e+002	-1.034305e+002	7.838058e+001	-2.000000e+002	0.000000e+000	-2.000000e+002	0.000000e+000
82648730.000	-7.754250e-002	-1.114634e+002	-1.011405e+002	4.111586e+001	-2.000000e+002	0.000000e+000	-2.000000e+002	0.000000e+000
83298720.000	-8.016042e-002	-1.123702e+002	-1.005254e+002	4.525298e+001	-2.000000e+002	0.000000e+000	-2.000000e+002	0.000000e+000
83948710.000	-8.264241e-002	-1.132756e+002	-1.011971e+002	7.230878e+001	-2.000000e+002	0.000000e+000	-2.000000e+002	0.000000e+000
84598700.000	-8.549863e-002	-1.141799e+002	-9.950067e+001	6.347826e+000	-2.000000e+002	0.000000e+000	-2.000000e+002	0.000000e+000
85248690.000	-8.802550e-002	-1.150857e+002	-1.037367e+002	9.065449e+001	-2.000000e+002	0.000000e+000	-2.000000e+002	0.000000e+000
85898680.000	-9.063578e-002	-1.159942e+002	-9.702231e+001	9.822537e+000	-2.000000e+002	0.000000e+000	-2.000000e+002	0.000000e+000
86548670.000	-9.342968e-002	-1.169043e+002	-9.850061e+001	7.487608e+001	-2.000000e+002	0.000000e+000	-2.000000e+002	0.000000e+000
87198660.000	-9.653876e-002	-1.178110e+002	-9.819349e+001	1.546682e+001	-2.000000e+002	0.000000e+000	-2.000000e+002	0.000000e+000
87848650.000	-9.932159e-002	-1.187209e+002	-9.538745e+001	5.826798e+001	-2.000000e+002	0.000000e+000	-2.000000e+002	0.000000e+000
88498640.000	-1.021058e-001	-1.196322e+002	-9.623894e+001	5.101093e+001	-2.000000e+002	0.000000e+000	-2.000000e+002	0.000000e+000
89148630.000	-1.054108e-001	-1.205462e+002	-9.641054e+001	-1.676602e+001	-2.000000e+002	0.000000e+000	-2.000000e+002	0.000000e+000
89798620.000	-1.084094e-001	-1.214576e+002	-9.866351e+001	6.029910e+001	-2.000000e+002	0.000000e+000	-2.000000e+002	0.000000e+000
90448610.000	-1.114153e-001	-1.223713e+002	-9.743489e+001	6.430206e+001	-2.000000e+002	0.000000e+000	-2.000000e+002	0.000000e+000
91098600.000	-1.146742e-001	-1.232873e+002	-9.821522e+001	1.838824e+000	-2.000000e+002	0.000000e+000	-2.000000e+002	0.000000e+000
91748590.000	-1.176432e-001	-1.242013e+002	-9.345015e+001	1.949463e-001	-2.000000e+002	0.000000e+000	-2.000000e+002	0.000000e+000
92398580.000	-1.212881e-001	-1.251184e+002	-9.128700e+001	2.294193e+001	-2.000000e+002	0.000000e+000	-2.000000e+002	0.000000e+000
93048570.000	-1.243731e-001	-1.260328e+002	-9.759095e+001	2.649980e+001	-2.000000e+002	0.000000e+000	-2.000000e+002	0.000000e+000
93698560.000	-1.277736e-001	-1.269494e+002	-9.530222e+001	2.891461e+001	-2.000000e+002	0.000000e+000	-2.000000e+002	0.000000e+000
94348550.000	-1.308901e-001	-1.278659e+002	-1.011125e+002	-8.639816e+000	-2.000000e+002	0.000000e+000	-2.000000e+002	0.000000e+000
94998540.000	-1.330589e-001	-1.287854e+002	-9.251582e+001	6.221184e+001	-2.000000e+002	0.000000e+000	-2.000000e+002	0.000000e+000
95648530.000	-1.368969e-001	-1.297079e+002	-9.609763e+001	2.673998e+001	-2.000000e+002	0.000000e+000	-2.000000e+002	0.000000e+000
96298520.000	-1.402834e-001	-1.306300e+002	-9.691108e+001	1.898120e+001	-2.000000e+002	0.000000e+000	-2.000000e+002	0.000000e+000
96948510.000	-1.429193e-001	-1.315566e+002	-9.546733e+001	4.219548e+001	-2.000000e+002	0.000000e+000	-2.000000e+002	0.000000e+000
97598500.000	-1.466434e-001	-1.324873e+002	-9.952311e+001	8.214860e+000	-2.000000e+002	0.000000e+000	-2.000000e+002	0.000000e+000
98248490.000	-1.500828e-001	-1.334191e+002	-9.345338e+001	2.868437e+001	-2.000000e+002	0.000000e+000	-2.000000e+002	0.000000e+000
