!Keysight Technologies,E5063A,MY54503115,A.05.08
!Date: Wed Dec 06 19:15:24 2023
!Data & Calibration Information:
!Freq	S11:NONE(--)	S21:NONE(--)	S12:NONE(--)	S22:NONE(--)
# Hz S dB R 50
100000.000	4.935713e-002	-6.395942e-001	-8.356788e+001	7.840071e+001	-2.000000e+002	0.000000e+000	-2.000000e+002	0.000000e+000
749990.000	5.784395e-003	-1.357613e+000	-8.333799e+001	-1.298463e+002	-2.000000e+002	0.000000e+000	-2.000000e+002	0.000000e+000
1399980.000	6.777703e-003	-2.191170e+000	-8.260377e+001	-1.381098e+002	-2.000000e+002	0.000000e+000	-2.000000e+002	0.000000e+000
2049970.000	7.632004e-003	-3.042477e+000	-8.408938e+001	1.670763e+002	-2.000000e+002	0.000000e+000	-2.000000e+002	0.000000e+000
2699960.000	7.122734e-003	-3.894640e+000	-1.005326e+002	-1.105708e+002	-2.000000e+002	0.000000e+000	-2.000000e+002	0.000000e+000
3349950.000	9.440615e-003	-4.757628e+000	-8.648192e+001	-1.094853e+002	-2.000000e+002	0.000000e+000	-2.000000e+002	0.000000e+000
3999940.000	8.470049e-003	-5.618225e+000	-8.761837e+001	3.119704e+001	-2.000000e+002	0.000000e+000	-2.000000e+002	0.000000e+000
4649930.000	1.127920e-002	-6.491046e+000	-9.358195e+001	-1.405331e+002	-2.000000e+002	0.000000e+000	-2.000000e+002	0.000000e+000
5299920.000	8.863171e-003	-7.347357e+000	-8.834311e+001	-8.112616e+001	-2.000000e+002	0.000000e+000	-2.000000e+002	0.000000e+000
5949910.000	7.913517e-003	-8.205809e+000	-9.817137e+001	-1.343073e+002	-2.000000e+002	0.000000e+000	-2.000000e+002	0.000000e+000
6599900.000	8.919268e-003	-9.057758e+000	-8.570837e+001	8.093553e+001	-2.000000e+002	0.000000e+000	-2.000000e+002	0.000000e+000
7249890.000	1.025545e-002	-9.930233e+000	-1.022487e+002	-8.723308e+001	-2.000000e+002	0.000000e+000	-2.000000e+002	0.000000e+000
7899880.000	9.434986e-003	-1.078691e+001	-9.441730e+001	1.544151e+002	-2.000000e+002	0.000000e+000	-2.000000e+002	0.000000e+000
8549870.000	1.441673e-002	-1.166064e+001	-1.023234e+002	-1.152526e+002	-2.000000e+002	0.000000e+000	-2.000000e+002	0.000000e+000
9199860.000	1.361228e-002	-1.252235e+001	-1.027522e+002	-5.651891e+001	-2.000000e+002	0.000000e+000	-2.000000e+002	0.000000e+000
9849850.000	1.427232e-002	-1.338531e+001	-9.633498e+001	1.650309e+002	-2.000000e+002	0.000000e+000	-2.000000e+002	0.000000e+000
10499840.000	1.208363e-002	-1.423818e+001	-9.974470e+001	8.262152e+001	-2.000000e+002	0.000000e+000	-2.000000e+002	0.000000e+000
11149830.000	1.060289e-002	-1.509382e+001	-9.663865e+001	1.353873e+002	-2.000000e+002	0.000000e+000	-2.000000e+002	0.000000e+000
11799820.000	1.041959e-002	-1.594804e+001	-1.036252e+002	3.224643e+001	-2.000000e+002	0.000000e+000	-2.000000e+002	0.000000e+000
12449810.000	1.207297e-002	-1.681770e+001	-9.755060e+001	-3.999571e+001	-2.000000e+002	0.000000e+000	-2.000000e+002	0.000000e+000
13099800.000	1.520628e-002	-1.768174e+001	-9.861624e+001	1.926298e+001	-2.000000e+002	0.000000e+000	-2.000000e+002	0.000000e+000
13749790.000	1.511933e-002	-1.853861e+001	-1.085219e+002	1.527197e+002	-2.000000e+002	0.000000e+000	-2.000000e+002	0.000000e+000
14399780.000	1.369336e-002	-1.940888e+001	-1.028167e+002	-9.530849e+001	-2.000000e+002	0.000000e+000	-2.000000e+002	0.000000e+000
15049770.000	1.561302e-002	-2.027549e+001	-1.013434e+002	5.854946e+000	-2.000000e+002	0.000000e+000	-2.000000e+002	0.000000e+000
15699760.000	1.702342e-002	-2.112100e+001	-9.861250e+001	9.096274e+001	-2.000000e+002	0.000000e+000	-2.000000e+002	0.000000e+000
16349750.000	1.847266e-002	-2.198084e+001	-9.845769e+001	1.008705e+002	-2.000000e+002	0.000000e+000	-2.000000e+002	0.000000e+000
16999740.000	1.723922e-002	-2.285927e+001	-1.043438e+002	3.098344e+001	-2.000000e+002	0.000000e+000	-2.000000e+002	0.000000e+000
17649730.000	2.572033e-002	-2.374671e+001	-1.018820e+002	-1.717796e+002	-2.000000e+002	0.000000e+000	-2.000000e+002	0.000000e+000
18299720.000	2.919347e-002	-2.462619e+001	-1.037387e+002	-1.413013e+002	-2.000000e+002	0.000000e+000	-2.000000e+002	0.000000e+000
18949710.000	2.857671e-002	-2.549228e+001	-1.024446e+002	6.177782e+001	-2.000000e+002	0.000000e+000	-2.000000e+002	0.000000e+000
19599700.000	2.284648e-002	-2.633752e+001	-1.060636e+002	4.384998e+000	-2.000000e+002	0.000000e+000	-2.000000e+002	0.000000e+000
20249690.000	1.810742e-002	-2.719356e+001	-1.184714e+002	1.109269e+002	-2.000000e+002	0.000000e+000	-2.000000e+002	0.000000e+000
20899680.000	1.693144e-002	-2.808870e+001	-1.023137e+002	-3.704758e+001	-2.000000e+002	0.000000e+000	-2.000000e+002	0.000000e+000
21549670.000	1.608080e-002	-2.896562e+001	-1.048018e+002	1.430226e+002	-2.000000e+002	0.000000e+000	-2.000000e+002	0.000000e+000
22199660.000	1.694834e-002	-2.981849e+001	-9.963967e+001	1.713789e+002	-2.000000e+002	0.000000e+000	-2.000000e+002	0.000000e+000
22849650.000	1.969208e-002	-3.064740e+001	-1.030184e+002	-1.986680e+001	-2.000000e+002	0.000000e+000	-2.000000e+002	0.000000e+000
23499640.000	1.841725e-002	-3.151458e+001	-1.050303e+002	-1.436086e+002	-2.000000e+002	0.000000e+000	-2.000000e+002	0.000000e+000
24149630.000	1.714271e-002	-3.238564e+001	-1.078718e+002	5.277694e+001	-2.000000e+002	0.000000e+000	-2.000000e+002	0.000000e+000
24799620.000	1.785501e-002	-3.324814e+001	-1.163912e+002	-1.435445e+002	-2.000000e+002	0.000000e+000	-2.000000e+002	0.000000e+000
25449610.000	2.011539e-002	-3.411059e+001	-9.994665e+001	-1.762701e+002	-2.000000e+002	0.000000e+000	-2.000000e+002	0.000000e+000
26099600.000	1.986584e-002	-3.497199e+001	-1.048756e+002	2.368852e+001	-2.000000e+002	0.000000e+000	-2.000000e+002	0.000000e+000
26749590.000	1.890045e-002	-3.583678e+001	-1.116474e+002	-4.787240e+001	-2.000000e+002	0.000000e+000	-2.000000e+002	0.000000e+000
27399580.000	1.839130e-002	-3.670827e+001	-1.005548e+002	1.670638e+002	-2.000000e+002	0.000000e+000	-2.000000e+002	0.000000e+000
28049570.000	1.933641e-002	-3.757589e+001	-1.166828e+002	8.121382e+001	-2.000000e+002	0.000000e+000	-2.000000e+002	0.000000e+000
28699560.000	1.876884e-002	-3.843592e+001	-1.062242e+002	8.240324e+001	-2.000000e+002	0.000000e+000	-2.000000e+002	0.000000e+000
29349550.000	1.929747e-002	-3.930069e+001	-1.054063e+002	-1.444180e+002	-2.000000e+002	0.000000e+000	-2.000000e+002	0.000000e+000
29999540.000	1.888241e-002	-4.016304e+001	-1.150231e+002	8.765555e+000	-2.000000e+002	0.000000e+000	-2.000000e+002	0.000000e+000
30649530.000	1.864907e-002	-4.103581e+001	-1.040172e+002	-1.612965e+001	-2.000000e+002	0.000000e+000	-2.000000e+002	0.000000e+000
31299520.000	1.923008e-002	-4.191127e+001	-1.015726e+002	-1.007597e+002	-2.000000e+002	0.000000e+000	-2.000000e+002	0.000000e+000
31949510.000	1.910599e-002	-4.277560e+001	-1.062520e+002	-3.503471e+001	-2.000000e+002	0.000000e+000	-2.000000e+002	0.000000e+000
32599500.000	1.845069e-002	-4.364636e+001	-1.049480e+002	2.827013e+001	-2.000000e+002	0.000000e+000	-2.000000e+002	0.000000e+000
33249490.000	1.838255e-002	-4.451020e+001	-9.762906e+001	-1.139199e+002	-2.000000e+002	0.000000e+000	-2.000000e+002	0.000000e+000
33899480.000	1.777302e-002	-4.538361e+001	-1.038130e+002	8.329858e+001	-2.000000e+002	0.000000e+000	-2.000000e+002	0.000000e+000
34549470.000	1.764112e-002	-4.624112e+001	-1.097124e+002	9.158515e+001	-2.000000e+002	0.000000e+000	-2.000000e+002	0.000000e+000
35199460.000	1.724210e-002	-4.710633e+001	-9.981098e+001	-3.547141e+001	-2.000000e+002	0.000000e+000	-2.000000e+002	0.000000e+000
35849450.000	1.652823e-002	-4.797325e+001	-1.015299e+002	5.058050e+001	-2.000000e+002	0.000000e+000	-2.000000e+002	0.000000e+000
36499440.000	1.638669e-002	-4.884310e+001	-9.998484e+001	1.138006e+002	-2.000000e+002	0.000000e+000	-2.000000e+002	0.000000e+000
37149430.000	1.595047e-002	-4.971280e+001	-9.658699e+001	2.616039e+001	-2.000000e+002	0.000000e+000	-2.000000e+002	0.000000e+000
37799420.000	1.528889e-002	-5.058432e+001	-1.017387e+002	1.776390e+002	-2.000000e+002	0.000000e+000	-2.000000e+002	0.000000e+000
38449410.000	1.482670e-002	-5.145620e+001	-1.005843e+002	9.684458e+001	-2.000000e+002	0.000000e+000	-2.000000e+002	0.000000e+000
39099400.000	1.434327e-002	-5.232879e+001	-9.704826e+001	1.219551e+002	-2.000000e+002	0.000000e+000	-2.000000e+002	0.000000e+000
39749390.000	1.367393e-002	-5.320429e+001	-9.782829e+001	8.149907e+001	-2.000000e+002	0.000000e+000	-2.000000e+002	0.000000e+000
40399380.000	1.249181e-002	-5.407937e+001	-1.030964e+002	1.067139e+002	-2.000000e+002	0.000000e+000	-2.000000e+002	0.000000e+000
41049370.000	1.153088e-002	-5.495086e+001	-1.017114e+002	2.111994e+001	-2.000000e+002	0.000000e+000	-2.000000e+002	0.000000e+000
41699360.000	1.196302e-002	-5.581973e+001	-1.125915e+002	-1.244392e+002	-2.000000e+002	0.000000e+000	-2.000000e+002	0.000000e+000
42349350.000	1.083426e-002	-5.668514e+001	-9.976649e+001	1.074260e+002	-2.000000e+002	0.000000e+000	-2.000000e+002	0.000000e+000
42999340.000	8.255434e-003	-5.755391e+001	-1.057644e+002	1.354169e+001	-2.000000e+002	0.000000e+000	-2.000000e+002	0.000000e+000
43649330.000	7.922945e-003	-5.841558e+001	-1.029242e+002	-1.457239e+002	-2.000000e+002	0.000000e+000	-2.000000e+002	0.000000e+000
44299320.000	7.044680e-003	-5.928360e+001	-9.761290e+001	5.384646e+000	-2.000000e+002	0.000000e+000	-2.000000e+002	0.000000e+000
44949310.000	6.901313e-003	-6.015186e+001	-9.681357e+001	1.579412e+002	-2.000000e+002	0.000000e+000	-2.000000e+002	0.000000e+000
45599300.000	6.198497e-003	-6.102525e+001	-1.082678e+002	6.437753e+001	-2.000000e+002	0.000000e+000	-2.000000e+002	0.000000e+000
46249290.000	5.515242e-003	-6.189665e+001	-1.029446e+002	5.913085e+001	-2.000000e+002	0.000000e+000	-2.000000e+002	0.000000e+000
46899280.000	5.244809e-003	-6.276249e+001	-1.077600e+002	-4.648979e+001	-2.000000e+002	0.000000e+000	-2.000000e+002	0.000000e+000
47549270.000	3.677276e-003	-6.363794e+001	-1.045591e+002	-1.569426e+002	-2.000000e+002	0.000000e+000	-2.000000e+002	0.000000e+000
48199260.000	3.535474e-003	-6.451281e+001	-1.012277e+002	-3.701010e+000	-2.000000e+002	0.000000e+000	-2.000000e+002	0.000000e+000
48849250.000	2.429156e-003	-6.538852e+001	-1.058330e+002	1.107901e+002	-2.000000e+002	0.000000e+000	-2.000000e+002	0.000000e+000
49499240.000	2.601278e-003	-6.625871e+001	-1.063531e+002	2.423764e+001	-2.000000e+002	0.000000e+000	-2.000000e+002	0.000000e+000
50149230.000	1.773108e-003	-6.714070e+001	-1.090327e+002	1.792744e+002	-2.000000e+002	0.000000e+000	-2.000000e+002	0.000000e+000
50799220.000	7.514066e-004	-6.801864e+001	-9.930242e+001	1.142082e+002	-2.000000e+002	0.000000e+000	-2.000000e+002	0.000000e+000
51449210.000	8.605574e-004	-6.889343e+001	-1.007264e+002	5.504999e+001	-2.000000e+002	0.000000e+000	-2.000000e+002	0.000000e+000
52099200.000	-4.082371e-004	-6.976932e+001	-9.586260e+001	3.250520e+001	-2.000000e+002	0.000000e+000	-2.000000e+002	0.000000e+000
52749190.000	-1.496450e-003	-7.064491e+001	-9.964370e+001	6.636369e+001	-2.000000e+002	0.000000e+000	-2.000000e+002	0.000000e+000
53399180.000	-2.617040e-003	-7.152356e+001	-1.078359e+002	1.137894e+002	-2.000000e+002	0.000000e+000	-2.000000e+002	0.000000e+000
54049170.000	-3.795649e-003	-7.239762e+001	-1.026628e+002	-4.666287e+001	-2.000000e+002	0.000000e+000	-2.000000e+002	0.000000e+000
54699160.000	-4.680362e-003	-7.327842e+001	-1.038296e+002	9.085027e+001	-2.000000e+002	0.000000e+000	-2.000000e+002	0.000000e+000
55349150.000	-6.001182e-003	-7.415631e+001	-9.974219e+001	1.647594e+002	-2.000000e+002	0.000000e+000	-2.000000e+002	0.000000e+000
55999140.000	-7.372506e-003	-7.503410e+001	-1.059439e+002	9.279324e+001	-2.000000e+002	0.000000e+000	-2.000000e+002	0.000000e+000
56649130.000	-8.223269e-003	-7.591332e+001	-1.019641e+002	3.169140e+001	-2.000000e+002	0.000000e+000	-2.000000e+002	0.000000e+000
57299120.000	-1.045920e-002	-7.679359e+001	-1.011442e+002	2.795928e+001	-2.000000e+002	0.000000e+000	-2.000000e+002	0.000000e+000
57949110.000	-1.111182e-002	-7.767166e+001	-9.858405e+001	5.880352e+001	-2.000000e+002	0.000000e+000	-2.000000e+002	0.000000e+000
58599100.000	-1.194674e-002	-7.854820e+001	-1.002350e+002	3.693276e+001	-2.000000e+002	0.000000e+000	-2.000000e+002	0.000000e+000
59249090.000	-1.328545e-002	-7.943081e+001	-9.774366e+001	1.059723e+002	-2.000000e+002	0.000000e+000	-2.000000e+002	0.000000e+000
59899080.000	-1.442090e-002	-8.031032e+001	-1.038792e+002	6.357671e+000	-2.000000e+002	0.000000e+000	-2.000000e+002	0.000000e+000
60549070.000	-1.606342e-002	-8.119017e+001	-9.763183e+001	-6.744079e+000	-2.000000e+002	0.000000e+000	-2.000000e+002	0.000000e+000
61199060.000	-1.788613e-002	-8.207493e+001	-1.133204e+002	8.375118e+000	-2.000000e+002	0.000000e+000	-2.000000e+002	0.000000e+000
61849050.000	-1.929565e-002	-8.295906e+001	-9.385886e+001	8.020684e+001	-2.000000e+002	0.000000e+000	-2.000000e+002	0.000000e+000
62499040.000	-2.139400e-002	-8.384019e+001	-9.860188e+001	6.984948e+001	-2.000000e+002	0.000000e+000	-2.000000e+002	0.000000e+000
63149030.000	-2.283339e-002	-8.472193e+001	-9.610967e+001	2.620241e+001	-2.000000e+002	0.000000e+000	-2.000000e+002	0.000000e+000
63799020.000	-2.434051e-002	-8.560596e+001	-1.001287e+002	1.022932e+002	-2.000000e+002	0.000000e+000	-2.000000e+002	0.000000e+000
64449010.000	-2.641097e-002	-8.649231e+001	-9.849781e+001	-1.704349e+000	-2.000000e+002	0.000000e+000	-2.000000e+002	0.000000e+000
65099000.000	-2.842525e-002	-8.737118e+001	-1.108861e+002	1.281145e+002	-2.000000e+002	0.000000e+000	-2.000000e+002	0.000000e+000
65748990.000	-3.020079e-002	-8.825754e+001	-1.010157e+002	1.032733e+002	-2.000000e+002	0.000000e+000	-2.000000e+002	0.000000e+000
66398980.000	-3.161462e-002	-8.914139e+001	-9.988998e+001	6.825311e+001	-2.000000e+002	0.000000e+000	-2.000000e+002	0.000000e+000
67048970.000	-3.310586e-002	-9.002816e+001	-9.732809e+001	-7.349456e+000	-2.000000e+002	0.000000e+000	-2.000000e+002	0.000000e+000
67698960.000	-3.552948e-002	-9.091577e+001	-1.052588e+002	2.111413e+000	-2.000000e+002	0.000000e+000	-2.000000e+002	0.000000e+000
68348950.000	-3.799961e-002	-9.179660e+001	-1.103556e+002	1.418594e+001	-2.000000e+002	0.000000e+000	-2.000000e+002	0.000000e+000
68998940.000	-4.028626e-002	-9.268775e+001	-9.979680e+001	1.379759e+001	-2.000000e+002	0.000000e+000	-2.000000e+002	0.000000e+000
69648930.000	-4.210468e-002	-9.357051e+001	-9.956665e+001	4.930579e+001	-2.000000e+002	0.000000e+000	-2.000000e+002	0.000000e+000
70298920.000	-4.402886e-002	-9.445622e+001	-1.050847e+002	8.023689e+001	-2.000000e+002	0.000000e+000	-2.000000e+002	0.000000e+000
70948910.000	-4.643214e-002	-9.534148e+001	-9.805329e+001	-1.719248e+001	-2.000000e+002	0.000000e+000	-2.000000e+002	0.000000e+000
71598900.000	-4.840033e-002	-9.622640e+001	-1.010951e+002	7.230770e+001	-2.000000e+002	0.000000e+000	-2.000000e+002	0.000000e+000
72248890.000	-5.014965e-002	-9.711021e+001	-9.915038e+001	5.276900e+001	-2.000000e+002	0.000000e+000	-2.000000e+002	0.000000e+000
72898880.000	-5.161601e-002	-9.799551e+001	-9.931105e+001	4.187264e+001	-2.000000e+002	0.000000e+000	-2.000000e+002	0.000000e+000
73548870.000	-5.265274e-002	-9.888879e+001	-9.699790e+001	2.412792e+001	-2.000000e+002	0.000000e+000	-2.000000e+002	0.000000e+000
74198860.000	-5.360656e-002	-9.977995e+001	-1.014496e+002	9.249868e+001	-2.000000e+002	0.000000e+000	-2.000000e+002	0.000000e+000
74848850.000	-5.535979e-002	-1.006744e+002	-1.020171e+002	5.803387e+001	-2.000000e+002	0.000000e+000	-2.000000e+002	0.000000e+000
75498840.000	-5.650630e-002	-1.015676e+002	-9.580476e+001	3.661906e+001	-2.000000e+002	0.000000e+000	-2.000000e+002	0.000000e+000
76148830.000	-5.814048e-002	-1.024657e+002	-9.539382e+001	4.388713e+001	-2.000000e+002	0.000000e+000	-2.000000e+002	0.000000e+000
76798820.000	-5.965002e-002	-1.033600e+002	-1.032992e+002	1.141645e+002	-2.000000e+002	0.000000e+000	-2.000000e+002	0.000000e+000
77448810.000	-6.207720e-002	-1.042607e+002	-9.771770e+001	3.223196e+001	-2.000000e+002	0.000000e+000	-2.000000e+002	0.000000e+000
78098800.000	-6.465317e-002	-1.051594e+002	-1.002541e+002	1.143176e+002	-2.000000e+002	0.000000e+000	-2.000000e+002	0.000000e+000
78748790.000	-6.653631e-002	-1.060616e+002	-9.860702e+001	2.640993e+001	-2.000000e+002	0.000000e+000	-2.000000e+002	0.000000e+000
79398780.000	-6.859459e-002	-1.069603e+002	-1.029161e+002	3.522065e+001	-2.000000e+002	0.000000e+000	-2.000000e+002	0.000000e+000
80048770.000	-7.029389e-002	-1.078597e+002	-9.729776e+001	1.762844e+001	-2.000000e+002	0.000000e+000	-2.000000e+002	0.000000e+000
80698760.000	-7.253828e-002	-1.087617e+002	-9.689748e+001	4.214683e+001	-2.000000e+002	0.000000e+000	-2.000000e+002	0.000000e+000
81348750.000	-7.471139e-002	-1.096626e+002	-9.692372e+001	6.641086e+001	-2.000000e+002	0.000000e+000	-2.000000e+002	0.000000e+000
81998740.000	-7.708033e-002	-1.105668e+002	-1.028222e+002	3.086745e+001	-2.000000e+002	0.000000e+000	-2.000000e+002	0.000000e+000
82648730.000	-7.969841e-002	-1.114763e+002	-9.610080e+001	4.197706e+001	-2.000000e+002	0.000000e+000	-2.000000e+002	0.000000e+000
83298720.000	-8.236860e-002	-1.123827e+002	-9.474890e+001	6.430234e+001	-2.000000e+002	0.000000e+000	-2.000000e+002	0.000000e+000
83948710.000	-8.471453e-002	-1.132855e+002	-1.013576e+002	7.280598e+001	-2.000000e+002	0.000000e+000	-2.000000e+002	0.000000e+000
84598700.000	-8.758400e-002	-1.141923e+002	-9.441436e+001	1.165579e+001	-2.000000e+002	0.000000e+000	-2.000000e+002	0.000000e+000
85248690.000	-8.989578e-002	-1.150996e+002	-9.688470e+001	6.998799e+001	-2.000000e+002	0.000000e+000	-2.000000e+002	0.000000e+000
85898680.000	-9.282500e-002	-1.160053e+002	-1.038414e+002	-1.216691e+001	-2.000000e+002	0.000000e+000	-2.000000e+002	0.000000e+000
86548670.000	-9.557515e-002	-1.169142e+002	-1.106908e+002	-1.084045e+001	-2.000000e+002	0.000000e+000	-2.000000e+002	0.000000e+000
87198660.000	-9.842741e-002	-1.178237e+002	-9.691309e+001	-9.021499e+000	-2.000000e+002	0.000000e+000	-2.000000e+002	0.000000e+000
87848650.000	-1.014774e-001	-1.187322e+002	-9.755213e+001	6.111713e+001	-2.000000e+002	0.000000e+000	-2.000000e+002	0.000000e+000
88498640.000	-1.043965e-001	-1.196426e+002	-9.721110e+001	-2.264153e+001	-2.000000e+002	0.000000e+000	-2.000000e+002	0.000000e+000
89148630.000	-1.074357e-001	-1.205579e+002	-9.739515e+001	5.382866e+001	-2.000000e+002	0.000000e+000	-2.000000e+002	0.000000e+000
89798620.000	-1.103670e-001	-1.214695e+002	-9.842446e+001	1.512494e+001	-2.000000e+002	0.000000e+000	-2.000000e+002	0.000000e+000
90448610.000	-1.133900e-001	-1.223822e+002	-9.648403e+001	4.136129e+001	-2.000000e+002	0.000000e+000	-2.000000e+002	0.000000e+000
91098600.000	-1.167141e-001	-1.233001e+002	-1.064873e+002	5.806638e+001	-2.000000e+002	0.000000e+000	-2.000000e+002	0.000000e+000
91748590.000	-1.199258e-001	-1.242142e+002	-9.563360e+001	4.903153e+001	-2.000000e+002	0.000000e+000	-2.000000e+002	0.000000e+000
92398580.000	-1.235784e-001	-1.251298e+002	-9.442552e+001	3.912234e+001	-2.000000e+002	0.000000e+000	-2.000000e+002	0.000000e+000
93048570.000	-1.261356e-001	-1.260456e+002	-9.613448e+001	4.461959e+001	-2.000000e+002	0.000000e+000	-2.000000e+002	0.000000e+000
93698560.000	-1.297906e-001	-1.269636e+002	-9.593141e+001	4.156732e+001	-2.000000e+002	0.000000e+000	-2.000000e+002	0.000000e+000
94348550.000	-1.326468e-001	-1.278791e+002	-1.038661e+002	3.746977e+001	-2.000000e+002	0.000000e+000	-2.000000e+002	0.000000e+000
94998540.000	-1.355967e-001	-1.288087e+002	-9.889263e+001	3.522403e+001	-2.000000e+002	0.000000e+000	-2.000000e+002	0.000000e+000
95648530.000	-1.386892e-001	-1.297206e+002	-9.240257e+001	3.720130e+001	-2.000000e+002	0.000000e+000	-2.000000e+002	0.000000e+000
96298520.000	-1.417585e-001	-1.306457e+002	-9.323097e+001	3.646599e+001	-2.000000e+002	0.000000e+000	-2.000000e+002	0.000000e+000
96948510.000	-1.446042e-001	-1.315716e+002	-9.747161e+001	2.803988e+001	-2.000000e+002	0.000000e+000	-2.000000e+002	0.000000e+000
97598500.000	-1.480184e-001	-1.325015e+002	-9.159647e+001	2.415581e+001	-2.000000e+002	0.000000e+000	-2.000000e+002	0.000000e+000
98248490.000	-1.513613e-001	-1.334341e+002	-9.676091e+001	4.661221e+001	-2.000000e+002	0.000000e+000	-2.000000e+002	0.000000e+000
