!Keysight Technologies,E5063A,MY54503115,A.05.08
!Date: Wed Dec 06 19:17:08 2023
!Data & Calibration Information:
!Freq	S11:NONE(--)	S21:NONE(--)	S12:NONE(--)	S22:NONE(--)
# Hz S dB R 50
100000.000	4.864932e-002	-6.482972e-001	-9.141947e+001	-1.487415e+002	-2.000000e+002	0.000000e+000	-2.000000e+002	0.000000e+000
749990.000	5.633543e-003	-1.361722e+000	-7.977384e+001	-4.356136e+001	-2.000000e+002	0.000000e+000	-2.000000e+002	0.000000e+000
1399980.000	7.700545e-003	-2.192935e+000	-9.329682e+001	-8.869465e+001	-2.000000e+002	0.000000e+000	-2.000000e+002	0.000000e+000
2049970.000	5.906240e-003	-3.046207e+000	-8.283086e+001	-1.736903e+002	-2.000000e+002	0.000000e+000	-2.000000e+002	0.000000e+000
2699960.000	6.213150e-003	-3.895995e+000	-8.334770e+001	-1.270293e+002	-2.000000e+002	0.000000e+000	-2.000000e+002	0.000000e+000
3349950.000	9.702981e-003	-4.765555e+000	-8.863386e+001	5.456580e+001	-2.000000e+002	0.000000e+000	-2.000000e+002	0.000000e+000
3999940.000	7.695983e-003	-5.620336e+000	-8.828786e+001	-1.661616e+002	-2.000000e+002	0.000000e+000	-2.000000e+002	0.000000e+000
4649930.000	1.004455e-002	-6.480270e+000	-8.622823e+001	-4.949279e+001	-2.000000e+002	0.000000e+000	-2.000000e+002	0.000000e+000
5299920.000	8.315062e-003	-7.335778e+000	-9.332019e+001	-9.290516e+001	-2.000000e+002	0.000000e+000	-2.000000e+002	0.000000e+000
5949910.000	8.352535e-003	-8.197847e+000	-9.062504e+001	8.035775e+001	-2.000000e+002	0.000000e+000	-2.000000e+002	0.000000e+000
6599900.000	8.388475e-003	-9.065719e+000	-9.397561e+001	-7.826483e+001	-2.000000e+002	0.000000e+000	-2.000000e+002	0.000000e+000
7249890.000	9.319175e-003	-9.920503e+000	-8.273783e+001	2.623454e+000	-2.000000e+002	0.000000e+000	-2.000000e+002	0.000000e+000
7899880.000	9.683594e-003	-1.078852e+001	-1.096636e+002	5.945417e+001	-2.000000e+002	0.000000e+000	-2.000000e+002	0.000000e+000
8549870.000	1.365204e-002	-1.165926e+001	-9.716594e+001	-1.633829e+002	-2.000000e+002	0.000000e+000	-2.000000e+002	0.000000e+000
9199860.000	1.325152e-002	-1.252281e+001	-9.843619e+001	3.675130e+001	-2.000000e+002	0.000000e+000	-2.000000e+002	0.000000e+000
9849850.000	1.335324e-002	-1.338368e+001	-1.055234e+002	-1.432691e+001	-2.000000e+002	0.000000e+000	-2.000000e+002	0.000000e+000
10499840.000	1.180915e-002	-1.423974e+001	-9.865961e+001	-1.385678e+002	-2.000000e+002	0.000000e+000	-2.000000e+002	0.000000e+000
11149830.000	1.024940e-002	-1.509321e+001	-1.081246e+002	-4.020966e+001	-2.000000e+002	0.000000e+000	-2.000000e+002	0.000000e+000
11799820.000	1.019493e-002	-1.595407e+001	-1.089471e+002	-1.351799e+002	-2.000000e+002	0.000000e+000	-2.000000e+002	0.000000e+000
12449810.000	1.195567e-002	-1.681958e+001	-1.010693e+002	-1.533477e+002	-2.000000e+002	0.000000e+000	-2.000000e+002	0.000000e+000
13099800.000	1.463077e-002	-1.768409e+001	-1.005332e+002	1.639787e+002	-2.000000e+002	0.000000e+000	-2.000000e+002	0.000000e+000
13749790.000	1.452694e-002	-1.854285e+001	-1.008405e+002	-1.518877e+002	-2.000000e+002	0.000000e+000	-2.000000e+002	0.000000e+000
14399780.000	1.289833e-002	-1.941080e+001	-1.116583e+002	1.384779e+002	-2.000000e+002	0.000000e+000	-2.000000e+002	0.000000e+000
15049770.000	1.554039e-002	-2.028012e+001	-1.087932e+002	-5.730644e+001	-2.000000e+002	0.000000e+000	-2.000000e+002	0.000000e+000
15699760.000	1.676800e-002	-2.112715e+001	-1.035046e+002	8.770907e+001	-2.000000e+002	0.000000e+000	-2.000000e+002	0.000000e+000
16349750.000	1.755424e-002	-2.198249e+001	-1.069912e+002	1.021832e+002	-2.000000e+002	0.000000e+000	-2.000000e+002	0.000000e+000
16999740.000	1.612460e-002	-2.286169e+001	-1.001200e+002	1.756378e+002	-2.000000e+002	0.000000e+000	-2.000000e+002	0.000000e+000
17649730.000	2.484339e-002	-2.374729e+001	-1.069135e+002	3.722906e+001	-2.000000e+002	0.000000e+000	-2.000000e+002	0.000000e+000
18299720.000	2.835764e-002	-2.462711e+001	-9.903785e+001	1.231755e+002	-2.000000e+002	0.000000e+000	-2.000000e+002	0.000000e+000
18949710.000	2.779493e-002	-2.549524e+001	-1.012325e+002	-1.980765e+001	-2.000000e+002	0.000000e+000	-2.000000e+002	0.000000e+000
19599700.000	2.203413e-002	-2.634064e+001	-9.783841e+001	3.321750e+001	-2.000000e+002	0.000000e+000	-2.000000e+002	0.000000e+000
20249690.000	1.819951e-002	-2.719550e+001	-1.056321e+002	-1.398593e+002	-2.000000e+002	0.000000e+000	-2.000000e+002	0.000000e+000
20899680.000	1.642820e-002	-2.809401e+001	-9.906317e+001	1.247836e+002	-2.000000e+002	0.000000e+000	-2.000000e+002	0.000000e+000
21549670.000	1.619789e-002	-2.896615e+001	-1.073734e+002	-5.106321e+001	-2.000000e+002	0.000000e+000	-2.000000e+002	0.000000e+000
22199660.000	1.674309e-002	-2.981621e+001	-9.660040e+001	1.550846e+002	-2.000000e+002	0.000000e+000	-2.000000e+002	0.000000e+000
22849650.000	1.918117e-002	-3.065544e+001	-1.122060e+002	5.021687e+001	-2.000000e+002	0.000000e+000	-2.000000e+002	0.000000e+000
23499640.000	1.803493e-002	-3.151619e+001	-1.055834e+002	1.768434e+002	-2.000000e+002	0.000000e+000	-2.000000e+002	0.000000e+000
24149630.000	1.713024e-002	-3.238875e+001	-1.085057e+002	-3.017758e+001	-2.000000e+002	0.000000e+000	-2.000000e+002	0.000000e+000
24799620.000	1.688223e-002	-3.325032e+001	-1.030194e+002	5.369479e+001	-2.000000e+002	0.000000e+000	-2.000000e+002	0.000000e+000
25449610.000	1.957054e-002	-3.411558e+001	-1.021453e+002	1.145953e+002	-2.000000e+002	0.000000e+000	-2.000000e+002	0.000000e+000
26099600.000	1.938255e-002	-3.497460e+001	-1.030944e+002	-1.239244e+002	-2.000000e+002	0.000000e+000	-2.000000e+002	0.000000e+000
26749590.000	1.845086e-002	-3.584192e+001	-1.095792e+002	1.446303e+002	-2.000000e+002	0.000000e+000	-2.000000e+002	0.000000e+000
27399580.000	1.818782e-002	-3.671093e+001	-1.093287e+002	-5.423126e+001	-2.000000e+002	0.000000e+000	-2.000000e+002	0.000000e+000
28049570.000	1.889856e-002	-3.757937e+001	-1.018328e+002	-4.459084e+001	-2.000000e+002	0.000000e+000	-2.000000e+002	0.000000e+000
28699560.000	1.842832e-002	-3.844004e+001	-1.017562e+002	-6.916159e+001	-2.000000e+002	0.000000e+000	-2.000000e+002	0.000000e+000
29349550.000	1.839567e-002	-3.930127e+001	-1.109697e+002	2.126911e+001	-2.000000e+002	0.000000e+000	-2.000000e+002	0.000000e+000
29999540.000	1.923705e-002	-4.016976e+001	-1.085955e+002	-1.671084e+002	-2.000000e+002	0.000000e+000	-2.000000e+002	0.000000e+000
30649530.000	1.778442e-002	-4.103970e+001	-1.024880e+002	1.478106e+001	-2.000000e+002	0.000000e+000	-2.000000e+002	0.000000e+000
31299520.000	1.906847e-002	-4.191298e+001	-1.027567e+002	3.624805e+001	-2.000000e+002	0.000000e+000	-2.000000e+002	0.000000e+000
31949510.000	1.834669e-002	-4.277979e+001	-1.187911e+002	-7.095742e+001	-2.000000e+002	0.000000e+000	-2.000000e+002	0.000000e+000
32599500.000	1.765351e-002	-4.364741e+001	-1.146474e+002	2.661360e+001	-2.000000e+002	0.000000e+000	-2.000000e+002	0.000000e+000
33249490.000	1.778465e-002	-4.451728e+001	-1.024480e+002	-1.113892e+002	-2.000000e+002	0.000000e+000	-2.000000e+002	0.000000e+000
33899480.000	1.753693e-002	-4.538784e+001	-9.623059e+001	2.470218e+001	-2.000000e+002	0.000000e+000	-2.000000e+002	0.000000e+000
34549470.000	1.688018e-002	-4.624757e+001	-1.017823e+002	6.996628e+001	-2.000000e+002	0.000000e+000	-2.000000e+002	0.000000e+000
35199460.000	1.706430e-002	-4.711308e+001	-9.711304e+001	1.618329e+002	-2.000000e+002	0.000000e+000	-2.000000e+002	0.000000e+000
35849450.000	1.592338e-002	-4.797898e+001	-1.061312e+002	5.278631e+001	-2.000000e+002	0.000000e+000	-2.000000e+002	0.000000e+000
36499440.000	1.600329e-002	-4.885039e+001	-1.292111e+002	6.551761e+001	-2.000000e+002	0.000000e+000	-2.000000e+002	0.000000e+000
37149430.000	1.484540e-002	-4.971965e+001	-1.029805e+002	-5.760681e+001	-2.000000e+002	0.000000e+000	-2.000000e+002	0.000000e+000
37799420.000	1.479475e-002	-5.058925e+001	-1.025739e+002	1.553958e+002	-2.000000e+002	0.000000e+000	-2.000000e+002	0.000000e+000
38449410.000	1.379916e-002	-5.146095e+001	-1.003431e+002	1.665272e+002	-2.000000e+002	0.000000e+000	-2.000000e+002	0.000000e+000
39099400.000	1.358972e-002	-5.233354e+001	-9.892528e+001	1.617912e+001	-2.000000e+002	0.000000e+000	-2.000000e+002	0.000000e+000
39749390.000	1.270539e-002	-5.321025e+001	-1.023989e+002	1.796125e+001	-2.000000e+002	0.000000e+000	-2.000000e+002	0.000000e+000
40399380.000	1.161495e-002	-5.408259e+001	-1.095710e+002	1.374473e+002	-2.000000e+002	0.000000e+000	-2.000000e+002	0.000000e+000
41049370.000	1.110685e-002	-5.495273e+001	-9.847485e+001	1.677491e+002	-2.000000e+002	0.000000e+000	-2.000000e+002	0.000000e+000
41699360.000	1.152337e-002	-5.581934e+001	-1.071979e+002	-6.685680e+001	-2.000000e+002	0.000000e+000	-2.000000e+002	0.000000e+000
42349350.000	1.008270e-002	-5.668661e+001	-9.807003e+001	-1.786092e+002	-2.000000e+002	0.000000e+000	-2.000000e+002	0.000000e+000
42999340.000	7.836837e-003	-5.755504e+001	-9.883111e+001	5.827253e+001	-2.000000e+002	0.000000e+000	-2.000000e+002	0.000000e+000
43649330.000	8.027706e-003	-5.841839e+001	-9.829844e+001	-9.450347e+001	-2.000000e+002	0.000000e+000	-2.000000e+002	0.000000e+000
44299320.000	7.542281e-003	-5.928388e+001	-9.787416e+001	3.619495e+001	-2.000000e+002	0.000000e+000	-2.000000e+002	0.000000e+000
44949310.000	7.271443e-003	-6.015766e+001	-1.011118e+002	8.297870e+001	-2.000000e+002	0.000000e+000	-2.000000e+002	0.000000e+000
45599300.000	6.842647e-003	-6.102999e+001	-9.832009e+001	1.182717e+002	-2.000000e+002	0.000000e+000	-2.000000e+002	0.000000e+000
46249290.000	6.037976e-003	-6.190280e+001	-1.106764e+002	7.734140e+001	-2.000000e+002	0.000000e+000	-2.000000e+002	0.000000e+000
46899280.000	5.797218e-003	-6.277199e+001	-1.075947e+002	-7.996635e+001	-2.000000e+002	0.000000e+000	-2.000000e+002	0.000000e+000
47549270.000	4.246596e-003	-6.365131e+001	-1.020467e+002	2.674294e+001	-2.000000e+002	0.000000e+000	-2.000000e+002	0.000000e+000
48199260.000	3.735600e-003	-6.452538e+001	-1.098516e+002	-9.024955e+001	-2.000000e+002	0.000000e+000	-2.000000e+002	0.000000e+000
48849250.000	2.435665e-003	-6.540332e+001	-1.046916e+002	-1.343603e+002	-2.000000e+002	0.000000e+000	-2.000000e+002	0.000000e+000
49499240.000	2.551657e-003	-6.627472e+001	-1.233555e+002	-1.781509e+002	-2.000000e+002	0.000000e+000	-2.000000e+002	0.000000e+000
50149230.000	1.770165e-003	-6.715273e+001	-1.010576e+002	9.067340e+001	-2.000000e+002	0.000000e+000	-2.000000e+002	0.000000e+000
50799220.000	1.474727e-004	-6.803214e+001	-1.012170e+002	4.968020e+000	-2.000000e+002	0.000000e+000	-2.000000e+002	0.000000e+000
51449210.000	4.561595e-004	-6.890845e+001	-1.002726e+002	4.122739e+001	-2.000000e+002	0.000000e+000	-2.000000e+002	0.000000e+000
52099200.000	-5.448302e-004	-6.978204e+001	-1.032994e+002	1.067176e+002	-2.000000e+002	0.000000e+000	-2.000000e+002	0.000000e+000
52749190.000	-1.646905e-003	-7.066027e+001	-1.132386e+002	3.351168e+001	-2.000000e+002	0.000000e+000	-2.000000e+002	0.000000e+000
53399180.000	-3.233987e-003	-7.153576e+001	-1.061805e+002	9.343246e+001	-2.000000e+002	0.000000e+000	-2.000000e+002	0.000000e+000
54049170.000	-3.941108e-003	-7.241409e+001	-1.011419e+002	9.213126e+001	-2.000000e+002	0.000000e+000	-2.000000e+002	0.000000e+000
54699160.000	-5.414345e-003	-7.329393e+001	-1.034534e+002	7.445490e+001	-2.000000e+002	0.000000e+000	-2.000000e+002	0.000000e+000
55349150.000	-6.747859e-003	-7.417201e+001	-1.033655e+002	4.442323e+001	-2.000000e+002	0.000000e+000	-2.000000e+002	0.000000e+000
55999140.000	-7.684055e-003	-7.504995e+001	-9.921081e+001	1.211134e+002	-2.000000e+002	0.000000e+000	-2.000000e+002	0.000000e+000
56649130.000	-9.072768e-003	-7.592706e+001	-1.011411e+002	5.789346e+001	-2.000000e+002	0.000000e+000	-2.000000e+002	0.000000e+000
57299120.000	-1.035256e-002	-7.680712e+001	-9.380871e+001	8.084848e+001	-2.000000e+002	0.000000e+000	-2.000000e+002	0.000000e+000
57949110.000	-1.199984e-002	-7.768655e+001	-9.541449e+001	4.899145e+001	-2.000000e+002	0.000000e+000	-2.000000e+002	0.000000e+000
58599100.000	-1.266503e-002	-7.856250e+001	-1.051360e+002	7.362720e+001	-2.000000e+002	0.000000e+000	-2.000000e+002	0.000000e+000
59249090.000	-1.413251e-002	-7.944473e+001	-1.099515e+002	-7.717671e+001	-2.000000e+002	0.000000e+000	-2.000000e+002	0.000000e+000
59899080.000	-1.485028e-002	-8.032489e+001	-9.593479e+001	5.519614e+001	-2.000000e+002	0.000000e+000	-2.000000e+002	0.000000e+000
60549070.000	-1.698881e-002	-8.120794e+001	-1.076202e+002	9.575491e+001	-2.000000e+002	0.000000e+000	-2.000000e+002	0.000000e+000
61199060.000	-1.867351e-002	-8.209199e+001	-1.013026e+002	7.620076e+001	-2.000000e+002	0.000000e+000	-2.000000e+002	0.000000e+000
61849050.000	-2.007786e-002	-8.297226e+001	-1.101464e+002	3.744949e+001	-2.000000e+002	0.000000e+000	-2.000000e+002	0.000000e+000
62499040.000	-2.223318e-002	-8.385874e+001	-1.010574e+002	8.692960e+001	-2.000000e+002	0.000000e+000	-2.000000e+002	0.000000e+000
63149030.000	-2.357974e-002	-8.473965e+001	-1.004074e+002	4.329593e+001	-2.000000e+002	0.000000e+000	-2.000000e+002	0.000000e+000
63799020.000	-2.574925e-002	-8.562471e+001	-1.046491e+002	5.747844e+001	-2.000000e+002	0.000000e+000	-2.000000e+002	0.000000e+000
64449010.000	-2.766911e-002	-8.651028e+001	-1.044181e+002	8.897164e+001	-2.000000e+002	0.000000e+000	-2.000000e+002	0.000000e+000
65099000.000	-2.936395e-002	-8.738979e+001	-9.468968e+001	7.424085e+001	-2.000000e+002	0.000000e+000	-2.000000e+002	0.000000e+000
65748990.000	-3.053851e-002	-8.827314e+001	-9.975412e+001	-5.854179e-001	-2.000000e+002	0.000000e+000	-2.000000e+002	0.000000e+000
66398980.000	-3.272642e-002	-8.916085e+001	-1.019810e+002	1.234572e+002	-2.000000e+002	0.000000e+000	-2.000000e+002	0.000000e+000
67048970.000	-3.443490e-002	-9.004433e+001	-1.046342e+002	1.584085e+001	-2.000000e+002	0.000000e+000	-2.000000e+002	0.000000e+000
67698960.000	-3.668244e-002	-9.093215e+001	-1.077682e+002	1.332793e+002	-2.000000e+002	0.000000e+000	-2.000000e+002	0.000000e+000
68348950.000	-3.918538e-002	-9.181384e+001	-1.009438e+002	-1.849252e+001	-2.000000e+002	0.000000e+000	-2.000000e+002	0.000000e+000
68998940.000	-4.116175e-002	-9.270410e+001	-1.007968e+002	2.846311e+001	-2.000000e+002	0.000000e+000	-2.000000e+002	0.000000e+000
69648930.000	-4.282533e-002	-9.359103e+001	-1.029250e+002	7.763728e+001	-2.000000e+002	0.000000e+000	-2.000000e+002	0.000000e+000
70298920.000	-4.501963e-002	-9.447608e+001	-9.719506e+001	7.123236e+001	-2.000000e+002	0.000000e+000	-2.000000e+002	0.000000e+000
70948910.000	-4.730105e-002	-9.536347e+001	-1.085492e+002	-1.049802e+002	-2.000000e+002	0.000000e+000	-2.000000e+002	0.000000e+000
71598900.000	-4.916202e-002	-9.624762e+001	-9.964236e+001	3.077690e+001	-2.000000e+002	0.000000e+000	-2.000000e+002	0.000000e+000
72248890.000	-5.113399e-002	-9.713269e+001	-9.284176e+001	4.840236e+001	-2.000000e+002	0.000000e+000	-2.000000e+002	0.000000e+000
72898880.000	-5.220640e-002	-9.802146e+001	-1.017778e+002	9.238963e+000	-2.000000e+002	0.000000e+000	-2.000000e+002	0.000000e+000
73548870.000	-5.336052e-002	-9.891238e+001	-1.014802e+002	-2.398520e+000	-2.000000e+002	0.000000e+000	-2.000000e+002	0.000000e+000
74198860.000	-5.462128e-002	-9.980595e+001	-9.787958e+001	1.337339e+001	-2.000000e+002	0.000000e+000	-2.000000e+002	0.000000e+000
74848850.000	-5.666279e-002	-1.007002e+002	-9.486228e+001	2.599336e+001	-2.000000e+002	0.000000e+000	-2.000000e+002	0.000000e+000
75498840.000	-5.808477e-002	-1.015957e+002	-1.021155e+002	5.119858e+001	-2.000000e+002	0.000000e+000	-2.000000e+002	0.000000e+000
76148830.000	-5.997293e-002	-1.024901e+002	-9.738497e+001	1.072846e+002	-2.000000e+002	0.000000e+000	-2.000000e+002	0.000000e+000
76798820.000	-6.135016e-002	-1.033879e+002	-1.003940e+002	8.671227e+001	-2.000000e+002	0.000000e+000	-2.000000e+002	0.000000e+000
77448810.000	-6.426658e-002	-1.042896e+002	-1.033992e+002	7.767412e+001	-2.000000e+002	0.000000e+000	-2.000000e+002	0.000000e+000
78098800.000	-6.612338e-002	-1.051884e+002	-9.764312e+001	2.264068e+001	-2.000000e+002	0.000000e+000	-2.000000e+002	0.000000e+000
78748790.000	-6.825369e-002	-1.060901e+002	-9.635549e+001	2.556942e+001	-2.000000e+002	0.000000e+000	-2.000000e+002	0.000000e+000
79398780.000	-7.053755e-002	-1.069896e+002	-9.344623e+001	2.074591e+001	-2.000000e+002	0.000000e+000	-2.000000e+002	0.000000e+000
80048770.000	-7.244891e-002	-1.078900e+002	-1.007977e+002	-1.515155e+001	-2.000000e+002	0.000000e+000	-2.000000e+002	0.000000e+000
80698760.000	-7.458405e-002	-1.087917e+002	-9.683682e+001	4.153277e+001	-2.000000e+002	0.000000e+000	-2.000000e+002	0.000000e+000
81348750.000	-7.674162e-002	-1.096925e+002	-9.432049e+001	1.452347e+001	-2.000000e+002	0.000000e+000	-2.000000e+002	0.000000e+000
81998740.000	-7.938891e-002	-1.105971e+002	-1.054935e+002	1.668375e+001	-2.000000e+002	0.000000e+000	-2.000000e+002	0.000000e+000
82648730.000	-8.219102e-002	-1.115085e+002	-1.153433e+002	-1.375394e+002	-2.000000e+002	0.000000e+000	-2.000000e+002	0.000000e+000
83298720.000	-8.470284e-002	-1.124139e+002	-1.008807e+002	7.485877e+001	-2.000000e+002	0.000000e+000	-2.000000e+002	0.000000e+000
83948710.000	-8.746144e-002	-1.133195e+002	-1.009387e+002	-1.226208e+002	-2.000000e+002	0.000000e+000	-2.000000e+002	0.000000e+000
84598700.000	-9.025308e-002	-1.142270e+002	-9.984066e+001	6.153846e+001	-2.000000e+002	0.000000e+000	-2.000000e+002	0.000000e+000
85248690.000	-9.285890e-002	-1.151319e+002	-1.003850e+002	2.590575e+001	-2.000000e+002	0.000000e+000	-2.000000e+002	0.000000e+000
85898680.000	-9.600838e-002	-1.160391e+002	-9.572303e+001	5.957633e+001	-2.000000e+002	0.000000e+000	-2.000000e+002	0.000000e+000
86548670.000	-9.875434e-002	-1.169480e+002	-1.222607e+002	-3.010482e+000	-2.000000e+002	0.000000e+000	-2.000000e+002	0.000000e+000
87198660.000	-1.016797e-001	-1.178584e+002	-9.564694e+001	1.039376e+001	-2.000000e+002	0.000000e+000	-2.000000e+002	0.000000e+000
87848650.000	-1.045178e-001	-1.187672e+002	-1.090231e+002	1.740523e+001	-2.000000e+002	0.000000e+000	-2.000000e+002	0.000000e+000
88498640.000	-1.076329e-001	-1.196782e+002	-1.010926e+002	3.579251e+001	-2.000000e+002	0.000000e+000	-2.000000e+002	0.000000e+000
89148630.000	-1.107691e-001	-1.205921e+002	-1.038749e+002	6.212931e+001	-2.000000e+002	0.000000e+000	-2.000000e+002	0.000000e+000
89798620.000	-1.137197e-001	-1.215052e+002	-9.842878e+001	4.625013e+001	-2.000000e+002	0.000000e+000	-2.000000e+002	0.000000e+000
90448610.000	-1.169888e-001	-1.224206e+002	-1.016404e+002	4.993487e+000	-2.000000e+002	0.000000e+000	-2.000000e+002	0.000000e+000
91098600.000	-1.203153e-001	-1.233376e+002	-9.346490e+001	5.417054e+001	-2.000000e+002	0.000000e+000	-2.000000e+002	0.000000e+000
91748590.000	-1.236135e-001	-1.242524e+002	-9.414751e+001	4.199846e+001	-2.000000e+002	0.000000e+000	-2.000000e+002	0.000000e+000
92398580.000	-1.272514e-001	-1.251702e+002	-9.946951e+001	1.987522e+001	-2.000000e+002	0.000000e+000	-2.000000e+002	0.000000e+000
93048570.000	-1.306003e-001	-1.260850e+002	-1.005449e+002	2.923972e+001	-2.000000e+002	0.000000e+000	-2.000000e+002	0.000000e+000
93698560.000	-1.340264e-001	-1.270023e+002	-1.045985e+002	2.257092e+001	-2.000000e+002	0.000000e+000	-2.000000e+002	0.000000e+000
94348550.000	-1.370987e-001	-1.279191e+002	-9.412639e+001	2.535035e+001	-2.000000e+002	0.000000e+000	-2.000000e+002	0.000000e+000
94998540.000	-1.419442e-001	-1.288448e+002	-9.160247e+001	1.008292e+001	-2.000000e+002	0.000000e+000	-2.000000e+002	0.000000e+000
95648530.000	-1.435296e-001	-1.297609e+002	-9.873178e+001	4.787634e+001	-2.000000e+002	0.000000e+000	-2.000000e+002	0.000000e+000
96298520.000	-1.465875e-001	-1.306861e+002	-9.219561e+001	5.905985e+001	-2.000000e+002	0.000000e+000	-2.000000e+002	0.000000e+000
96948510.000	-1.496536e-001	-1.316135e+002	-1.003828e+002	6.905042e+001	-2.000000e+002	0.000000e+000	-2.000000e+002	0.000000e+000
97598500.000	-1.532113e-001	-1.325433e+002	-9.687853e+001	2.725237e+001	-2.000000e+002	0.000000e+000	-2.000000e+002	0.000000e+000
98248490.000	-1.566286e-001	-1.334768e+002	-9.300560e+001	3.849751e+001	-2.000000e+002	0.000000e+000	-2.000000e+002	0.000000e+000
