!Keysight Technologies,E5063A,MY54503115,A.05.08
!Date: Wed Dec 06 19:18:45 2023
!Data & Calibration Information:
!Freq	S11:NONE(--)	S21:NONE(--)	S12:NONE(--)	S22:NONE(--)
# Hz S dB R 50
100000.000	4.871755e-002	-6.479074e-001	-8.297292e+001	1.050249e+002	-2.000000e+002	0.000000e+000	-2.000000e+002	0.000000e+000
749990.000	4.585261e-003	-1.358612e+000	-8.730670e+001	-7.151423e+001	-2.000000e+002	0.000000e+000	-2.000000e+002	0.000000e+000
1399980.000	6.457250e-003	-2.186925e+000	-8.840648e+001	-1.359368e+002	-2.000000e+002	0.000000e+000	-2.000000e+002	0.000000e+000
2049970.000	5.303394e-003	-3.042839e+000	-8.904276e+001	1.543005e+002	-2.000000e+002	0.000000e+000	-2.000000e+002	0.000000e+000
2699960.000	8.235804e-003	-3.891875e+000	-8.413648e+001	-1.544476e+002	-2.000000e+002	0.000000e+000	-2.000000e+002	0.000000e+000
3349950.000	9.884252e-003	-4.762364e+000	-9.953656e+001	1.420647e+002	-2.000000e+002	0.000000e+000	-2.000000e+002	0.000000e+000
3999940.000	7.979358e-003	-5.613064e+000	-8.993120e+001	-4.475786e+001	-2.000000e+002	0.000000e+000	-2.000000e+002	0.000000e+000
4649930.000	1.066363e-002	-6.480881e+000	-9.263326e+001	-8.168752e+001	-2.000000e+002	0.000000e+000	-2.000000e+002	0.000000e+000
5299920.000	8.585037e-003	-7.338579e+000	-9.624737e+001	1.327359e+002	-2.000000e+002	0.000000e+000	-2.000000e+002	0.000000e+000
5949910.000	8.451635e-003	-8.205238e+000	-8.909730e+001	-7.112010e+001	-2.000000e+002	0.000000e+000	-2.000000e+002	0.000000e+000
6599900.000	9.079393e-003	-9.065581e+000	-9.183439e+001	-1.209269e+002	-2.000000e+002	0.000000e+000	-2.000000e+002	0.000000e+000
7249890.000	8.388494e-003	-9.925459e+000	-9.059645e+001	8.630921e+001	-2.000000e+002	0.000000e+000	-2.000000e+002	0.000000e+000
7899880.000	9.499968e-003	-1.078878e+001	-8.946396e+001	-1.050410e+002	-2.000000e+002	0.000000e+000	-2.000000e+002	0.000000e+000
8549870.000	1.341150e-002	-1.165913e+001	-9.395012e+001	-2.946242e+001	-2.000000e+002	0.000000e+000	-2.000000e+002	0.000000e+000
9199860.000	1.270454e-002	-1.252505e+001	-1.007525e+002	2.094993e+001	-2.000000e+002	0.000000e+000	-2.000000e+002	0.000000e+000
9849850.000	1.313683e-002	-1.338671e+001	-1.024118e+002	1.444055e+002	-2.000000e+002	0.000000e+000	-2.000000e+002	0.000000e+000
10499840.000	1.191715e-002	-1.423901e+001	-1.032420e+002	-2.182623e+001	-2.000000e+002	0.000000e+000	-2.000000e+002	0.000000e+000
11149830.000	9.816176e-003	-1.509311e+001	-9.943642e+001	1.086435e+002	-2.000000e+002	0.000000e+000	-2.000000e+002	0.000000e+000
11799820.000	1.021685e-002	-1.595278e+001	-1.060063e+002	1.085905e+002	-2.000000e+002	0.000000e+000	-2.000000e+002	0.000000e+000
12449810.000	1.199785e-002	-1.682212e+001	-1.116274e+002	-8.023719e+001	-2.000000e+002	0.000000e+000	-2.000000e+002	0.000000e+000
13099800.000	1.459344e-002	-1.768517e+001	-1.022033e+002	1.083479e+002	-2.000000e+002	0.000000e+000	-2.000000e+002	0.000000e+000
13749790.000	1.433365e-002	-1.854344e+001	-9.990839e+001	8.996441e+001	-2.000000e+002	0.000000e+000	-2.000000e+002	0.000000e+000
14399780.000	1.315861e-002	-1.941017e+001	-1.060170e+002	-1.252700e+001	-2.000000e+002	0.000000e+000	-2.000000e+002	0.000000e+000
15049770.000	1.523389e-002	-2.027940e+001	-9.875765e+001	9.668171e+001	-2.000000e+002	0.000000e+000	-2.000000e+002	0.000000e+000
15699760.000	1.628552e-002	-2.112408e+001	-1.080566e+002	1.188438e+002	-2.000000e+002	0.000000e+000	-2.000000e+002	0.000000e+000
16349750.000	1.702688e-002	-2.198402e+001	-1.089096e+002	-1.387111e+002	-2.000000e+002	0.000000e+000	-2.000000e+002	0.000000e+000
16999740.000	1.672228e-002	-2.286029e+001	-1.034101e+002	-2.186128e+001	-2.000000e+002	0.000000e+000	-2.000000e+002	0.000000e+000
17649730.000	2.454941e-002	-2.374621e+001	-9.869556e+001	-4.607064e+001	-2.000000e+002	0.000000e+000	-2.000000e+002	0.000000e+000
18299720.000	2.823862e-002	-2.462627e+001	-1.118452e+002	1.158378e+002	-2.000000e+002	0.000000e+000	-2.000000e+002	0.000000e+000
18949710.000	2.762519e-002	-2.549216e+001	-1.091379e+002	1.518904e+002	-2.000000e+002	0.000000e+000	-2.000000e+002	0.000000e+000
19599700.000	2.225043e-002	-2.633686e+001	-9.906803e+001	1.172296e+002	-2.000000e+002	0.000000e+000	-2.000000e+002	0.000000e+000
20249690.000	1.835921e-002	-2.719629e+001	-1.052653e+002	-1.056775e+001	-2.000000e+002	0.000000e+000	-2.000000e+002	0.000000e+000
20899680.000	1.675821e-002	-2.809197e+001	-9.974230e+001	8.295221e+001	-2.000000e+002	0.000000e+000	-2.000000e+002	0.000000e+000
21549670.000	1.616205e-002	-2.896690e+001	-9.844043e+001	1.551263e+002	-2.000000e+002	0.000000e+000	-2.000000e+002	0.000000e+000
22199660.000	1.674763e-002	-2.982031e+001	-1.140347e+002	-7.468190e+001	-2.000000e+002	0.000000e+000	-2.000000e+002	0.000000e+000
22849650.000	1.989803e-002	-3.065302e+001	-1.008848e+002	-3.360063e+001	-2.000000e+002	0.000000e+000	-2.000000e+002	0.000000e+000
23499640.000	1.833411e-002	-3.151864e+001	-1.036426e+002	4.381311e+001	-2.000000e+002	0.000000e+000	-2.000000e+002	0.000000e+000
24149630.000	1.606491e-002	-3.238782e+001	-1.038588e+002	-7.549361e+001	-2.000000e+002	0.000000e+000	-2.000000e+002	0.000000e+000
24799620.000	1.712156e-002	-3.325141e+001	-9.944386e+001	-1.382357e+002	-2.000000e+002	0.000000e+000	-2.000000e+002	0.000000e+000
25449610.000	1.976903e-002	-3.411532e+001	-9.770453e+001	1.598181e+002	-2.000000e+002	0.000000e+000	-2.000000e+002	0.000000e+000
26099600.000	1.884644e-002	-3.497431e+001	-9.709684e+001	-2.407619e+001	-2.000000e+002	0.000000e+000	-2.000000e+002	0.000000e+000
26749590.000	1.763824e-002	-3.584217e+001	-1.147269e+002	5.094110e+001	-2.000000e+002	0.000000e+000	-2.000000e+002	0.000000e+000
27399580.000	1.756350e-002	-3.671000e+001	-1.041721e+002	-5.750627e+000	-2.000000e+002	0.000000e+000	-2.000000e+002	0.000000e+000
28049570.000	1.864690e-002	-3.757847e+001	-1.042060e+002	5.136470e+001	-2.000000e+002	0.000000e+000	-2.000000e+002	0.000000e+000
28699560.000	1.804859e-002	-3.843732e+001	-1.013532e+002	-1.686500e+002	-2.000000e+002	0.000000e+000	-2.000000e+002	0.000000e+000
29349550.000	1.839932e-002	-3.929574e+001	-9.894992e+001	-1.327607e+002	-2.000000e+002	0.000000e+000	-2.000000e+002	0.000000e+000
29999540.000	1.755134e-002	-4.016673e+001	-9.783900e+001	-1.090472e+001	-2.000000e+002	0.000000e+000	-2.000000e+002	0.000000e+000
30649530.000	1.812269e-002	-4.104007e+001	-1.032087e+002	-1.057108e+001	-2.000000e+002	0.000000e+000	-2.000000e+002	0.000000e+000
31299520.000	1.880191e-002	-4.191349e+001	-1.042978e+002	-2.146865e+001	-2.000000e+002	0.000000e+000	-2.000000e+002	0.000000e+000
31949510.000	1.884350e-002	-4.278052e+001	-1.049270e+002	-3.767518e+000	-2.000000e+002	0.000000e+000	-2.000000e+002	0.000000e+000
32599500.000	1.726978e-002	-4.365003e+001	-9.610190e+001	1.061557e+002	-2.000000e+002	0.000000e+000	-2.000000e+002	0.000000e+000
33249490.000	1.781900e-002	-4.451806e+001	-9.879443e+001	7.470375e+001	-2.000000e+002	0.000000e+000	-2.000000e+002	0.000000e+000
33899480.000	1.690369e-002	-4.538990e+001	-9.958819e+001	9.189376e+001	-2.000000e+002	0.000000e+000	-2.000000e+002	0.000000e+000
34549470.000	1.656679e-002	-4.624457e+001	-9.891488e+001	-3.623711e+001	-2.000000e+002	0.000000e+000	-2.000000e+002	0.000000e+000
35199460.000	1.734757e-002	-4.711321e+001	-1.088741e+002	-1.539549e+002	-2.000000e+002	0.000000e+000	-2.000000e+002	0.000000e+000
35849450.000	1.599091e-002	-4.797827e+001	-9.722135e+001	1.566020e+002	-2.000000e+002	0.000000e+000	-2.000000e+002	0.000000e+000
36499440.000	1.554150e-002	-4.885130e+001	-1.121887e+002	-1.641022e+002	-2.000000e+002	0.000000e+000	-2.000000e+002	0.000000e+000
37149430.000	1.503761e-002	-4.972325e+001	-1.041966e+002	-1.476445e+002	-2.000000e+002	0.000000e+000	-2.000000e+002	0.000000e+000
37799420.000	1.453278e-002	-5.059027e+001	-1.040650e+002	7.759960e+001	-2.000000e+002	0.000000e+000	-2.000000e+002	0.000000e+000
38449410.000	1.365952e-002	-5.146137e+001	-1.060175e+002	4.099517e+001	-2.000000e+002	0.000000e+000	-2.000000e+002	0.000000e+000
39099400.000	1.360191e-002	-5.233448e+001	-1.012014e+002	1.302153e+002	-2.000000e+002	0.000000e+000	-2.000000e+002	0.000000e+000
39749390.000	1.238911e-002	-5.320646e+001	-1.028420e+002	9.969347e+001	-2.000000e+002	0.000000e+000	-2.000000e+002	0.000000e+000
40399380.000	1.142781e-002	-5.408059e+001	-1.040170e+002	9.685036e+001	-2.000000e+002	0.000000e+000	-2.000000e+002	0.000000e+000
41049370.000	1.037729e-002	-5.495425e+001	-9.661600e+001	1.492875e+002	-2.000000e+002	0.000000e+000	-2.000000e+002	0.000000e+000
41699360.000	1.152732e-002	-5.581939e+001	-1.076614e+002	4.970076e+001	-2.000000e+002	0.000000e+000	-2.000000e+002	0.000000e+000
42349350.000	1.037323e-002	-5.668607e+001	-1.044353e+002	-6.023591e+001	-2.000000e+002	0.000000e+000	-2.000000e+002	0.000000e+000
42999340.000	8.027025e-003	-5.755223e+001	-1.103383e+002	1.849410e+001	-2.000000e+002	0.000000e+000	-2.000000e+002	0.000000e+000
43649330.000	7.779214e-003	-5.841798e+001	-1.083010e+002	-1.468743e+002	-2.000000e+002	0.000000e+000	-2.000000e+002	0.000000e+000
44299320.000	7.407015e-003	-5.928739e+001	-9.922411e+001	7.268664e+000	-2.000000e+002	0.000000e+000	-2.000000e+002	0.000000e+000
44949310.000	7.495718e-003	-6.015549e+001	-1.018014e+002	1.312485e+002	-2.000000e+002	0.000000e+000	-2.000000e+002	0.000000e+000
45599300.000	6.455273e-003	-6.102899e+001	-9.667117e+001	-1.258752e+002	-2.000000e+002	0.000000e+000	-2.000000e+002	0.000000e+000
46249290.000	6.293800e-003	-6.190402e+001	-9.931001e+001	7.573700e+001	-2.000000e+002	0.000000e+000	-2.000000e+002	0.000000e+000
46899280.000	6.413981e-003	-6.277278e+001	-1.015979e+002	3.547767e+001	-2.000000e+002	0.000000e+000	-2.000000e+002	0.000000e+000
47549270.000	4.327682e-003	-6.365091e+001	-1.070527e+002	5.149062e+001	-2.000000e+002	0.000000e+000	-2.000000e+002	0.000000e+000
48199260.000	3.637703e-003	-6.452567e+001	-1.096964e+002	1.070159e+002	-2.000000e+002	0.000000e+000	-2.000000e+002	0.000000e+000
48849250.000	3.069667e-003	-6.540133e+001	-1.030149e+002	1.346725e+002	-2.000000e+002	0.000000e+000	-2.000000e+002	0.000000e+000
49499240.000	2.336166e-003	-6.627395e+001	-1.170069e+002	2.558793e+001	-2.000000e+002	0.000000e+000	-2.000000e+002	0.000000e+000
50149230.000	1.515789e-003	-6.715469e+001	-1.068772e+002	9.012749e+001	-2.000000e+002	0.000000e+000	-2.000000e+002	0.000000e+000
50799220.000	6.309981e-004	-6.803525e+001	-9.892167e+001	9.568330e+001	-2.000000e+002	0.000000e+000	-2.000000e+002	0.000000e+000
51449210.000	1.366745e-003	-6.890596e+001	-1.160499e+002	2.276688e+001	-2.000000e+002	0.000000e+000	-2.000000e+002	0.000000e+000
52099200.000	-3.991438e-004	-6.978526e+001	-1.118870e+002	-1.139638e+002	-2.000000e+002	0.000000e+000	-2.000000e+002	0.000000e+000
52749190.000	-1.811353e-003	-7.066220e+001	-1.071156e+002	1.389649e+002	-2.000000e+002	0.000000e+000	-2.000000e+002	0.000000e+000
53399180.000	-2.701235e-003	-7.153845e+001	-1.033299e+002	-1.689052e+002	-2.000000e+002	0.000000e+000	-2.000000e+002	0.000000e+000
54049170.000	-3.386254e-003	-7.241827e+001	-1.011667e+002	8.973656e+001	-2.000000e+002	0.000000e+000	-2.000000e+002	0.000000e+000
54699160.000	-4.692673e-003	-7.329617e+001	-1.145912e+002	1.426386e+002	-2.000000e+002	0.000000e+000	-2.000000e+002	0.000000e+000
55349150.000	-5.874924e-003	-7.417738e+001	-1.053977e+002	9.940194e+000	-2.000000e+002	0.000000e+000	-2.000000e+002	0.000000e+000
55999140.000	-7.397446e-003	-7.505431e+001	-1.058402e+002	9.728451e+001	-2.000000e+002	0.000000e+000	-2.000000e+002	0.000000e+000
56649130.000	-8.900988e-003	-7.593345e+001	-1.002115e+002	6.613523e+001	-2.000000e+002	0.000000e+000	-2.000000e+002	0.000000e+000
57299120.000	-1.004463e-002	-7.681610e+001	-1.021804e+002	-6.803390e+000	-2.000000e+002	0.000000e+000	-2.000000e+002	0.000000e+000
57949110.000	-1.130668e-002	-7.769775e+001	-9.784475e+001	1.380567e+002	-2.000000e+002	0.000000e+000	-2.000000e+002	0.000000e+000
58599100.000	-1.231367e-002	-7.857289e+001	-9.953985e+001	1.521774e+002	-2.000000e+002	0.000000e+000	-2.000000e+002	0.000000e+000
59249090.000	-1.367893e-002	-7.945512e+001	-1.017465e+002	1.537670e+002	-2.000000e+002	0.000000e+000	-2.000000e+002	0.000000e+000
59899080.000	-1.478074e-002	-8.033475e+001	-9.648503e+001	1.543235e+002	-2.000000e+002	0.000000e+000	-2.000000e+002	0.000000e+000
60549070.000	-1.686718e-002	-8.122100e+001	-1.033873e+002	5.176163e+001	-2.000000e+002	0.000000e+000	-2.000000e+002	0.000000e+000
61199060.000	-1.894601e-002	-8.210432e+001	-1.037916e+002	4.838407e+001	-2.000000e+002	0.000000e+000	-2.000000e+002	0.000000e+000
61849050.000	-2.076024e-002	-8.298698e+001	-9.921432e+001	5.101705e+001	-2.000000e+002	0.000000e+000	-2.000000e+002	0.000000e+000
62499040.000	-2.303280e-002	-8.386933e+001	-1.053991e+002	-1.381992e+002	-2.000000e+002	0.000000e+000	-2.000000e+002	0.000000e+000
63149030.000	-2.458724e-002	-8.475131e+001	-1.062582e+002	8.649164e+001	-2.000000e+002	0.000000e+000	-2.000000e+002	0.000000e+000
63799020.000	-2.674149e-002	-8.563466e+001	-1.074588e+002	1.129490e+002	-2.000000e+002	0.000000e+000	-2.000000e+002	0.000000e+000
64449010.000	-2.823230e-002	-8.652079e+001	-9.637161e+001	7.546720e+001	-2.000000e+002	0.000000e+000	-2.000000e+002	0.000000e+000
65099000.000	-3.084996e-002	-8.740067e+001	-9.884867e+001	1.093165e+002	-2.000000e+002	0.000000e+000	-2.000000e+002	0.000000e+000
65748990.000	-3.214897e-002	-8.828520e+001	-1.079362e+002	2.841692e+001	-2.000000e+002	0.000000e+000	-2.000000e+002	0.000000e+000
66398980.000	-3.409869e-002	-8.917251e+001	-1.010232e+002	7.546880e+001	-2.000000e+002	0.000000e+000	-2.000000e+002	0.000000e+000
67048970.000	-3.569389e-002	-9.005796e+001	-1.039989e+002	3.302708e+001	-2.000000e+002	0.000000e+000	-2.000000e+002	0.000000e+000
67698960.000	-3.807222e-002	-9.094481e+001	-1.148964e+002	-3.583731e+001	-2.000000e+002	0.000000e+000	-2.000000e+002	0.000000e+000
68348950.000	-4.066824e-002	-9.182652e+001	-1.041124e+002	-1.186791e+001	-2.000000e+002	0.000000e+000	-2.000000e+002	0.000000e+000
68998940.000	-4.261013e-002	-9.271838e+001	-9.525688e+001	9.910115e+001	-2.000000e+002	0.000000e+000	-2.000000e+002	0.000000e+000
69648930.000	-4.443682e-002	-9.360510e+001	-1.019958e+002	1.154752e+002	-2.000000e+002	0.000000e+000	-2.000000e+002	0.000000e+000
70298920.000	-4.680408e-002	-9.448839e+001	-9.528385e+001	1.073732e+002	-2.000000e+002	0.000000e+000	-2.000000e+002	0.000000e+000
70948910.000	-4.941336e-002	-9.537835e+001	-1.212595e+002	1.452041e+002	-2.000000e+002	0.000000e+000	-2.000000e+002	0.000000e+000
71598900.000	-5.191713e-002	-9.626352e+001	-1.012868e+002	4.419047e+001	-2.000000e+002	0.000000e+000	-2.000000e+002	0.000000e+000
72248890.000	-5.448183e-002	-9.714869e+001	-1.005038e+002	1.137163e+002	-2.000000e+002	0.000000e+000	-2.000000e+002	0.000000e+000
72898880.000	-5.638041e-002	-9.803335e+001	-1.035279e+002	5.087630e+001	-2.000000e+002	0.000000e+000	-2.000000e+002	0.000000e+000
73548870.000	-5.781505e-002	-9.892016e+001	-1.050900e+002	-1.483973e+001	-2.000000e+002	0.000000e+000	-2.000000e+002	0.000000e+000
74198860.000	-5.902361e-002	-9.980995e+001	-9.434031e+001	3.393092e+001	-2.000000e+002	0.000000e+000	-2.000000e+002	0.000000e+000
74848850.000	-6.079254e-002	-1.007036e+002	-9.737853e+001	1.597911e+001	-2.000000e+002	0.000000e+000	-2.000000e+002	0.000000e+000
75498840.000	-6.259048e-002	-1.015952e+002	-9.955878e+001	5.894925e+001	-2.000000e+002	0.000000e+000	-2.000000e+002	0.000000e+000
76148830.000	-6.380305e-002	-1.024903e+002	-9.479232e+001	2.093431e+001	-2.000000e+002	0.000000e+000	-2.000000e+002	0.000000e+000
76798820.000	-6.539765e-002	-1.033838e+002	-1.100581e+002	-9.774369e+001	-2.000000e+002	0.000000e+000	-2.000000e+002	0.000000e+000
77448810.000	-6.827112e-002	-1.042830e+002	-1.093110e+002	5.187410e+001	-2.000000e+002	0.000000e+000	-2.000000e+002	0.000000e+000
78098800.000	-7.003643e-002	-1.051809e+002	-1.023819e+002	5.036836e+001	-2.000000e+002	0.000000e+000	-2.000000e+002	0.000000e+000
78748790.000	-7.205578e-002	-1.060788e+002	-9.359114e+001	3.578817e+001	-2.000000e+002	0.000000e+000	-2.000000e+002	0.000000e+000
79398780.000	-7.418570e-002	-1.069778e+002	-9.907433e+001	5.557478e+001	-2.000000e+002	0.000000e+000	-2.000000e+002	0.000000e+000
80048770.000	-7.575967e-002	-1.078750e+002	-1.015269e+002	3.782051e+001	-2.000000e+002	0.000000e+000	-2.000000e+002	0.000000e+000
80698760.000	-7.808129e-002	-1.087741e+002	-9.613361e+001	5.987852e+001	-2.000000e+002	0.000000e+000	-2.000000e+002	0.000000e+000
81348750.000	-7.999385e-002	-1.096753e+002	-9.753477e+001	9.057629e+001	-2.000000e+002	0.000000e+000	-2.000000e+002	0.000000e+000
81998740.000	-8.196119e-002	-1.105760e+002	-9.396376e+001	4.372342e+001	-2.000000e+002	0.000000e+000	-2.000000e+002	0.000000e+000
82648730.000	-8.463712e-002	-1.114864e+002	-1.033049e+002	7.699480e+001	-2.000000e+002	0.000000e+000	-2.000000e+002	0.000000e+000
83298720.000	-8.691740e-002	-1.123924e+002	-9.515440e+001	1.967139e+001	-2.000000e+002	0.000000e+000	-2.000000e+002	0.000000e+000
83948710.000	-8.926355e-002	-1.132976e+002	-1.009051e+002	6.035325e+001	-2.000000e+002	0.000000e+000	-2.000000e+002	0.000000e+000
84598700.000	-9.162857e-002	-1.142034e+002	-1.091889e+002	-1.297780e+002	-2.000000e+002	0.000000e+000	-2.000000e+002	0.000000e+000
85248690.000	-9.416745e-002	-1.151086e+002	-9.599431e+001	1.708383e+001	-2.000000e+002	0.000000e+000	-2.000000e+002	0.000000e+000
85898680.000	-9.709489e-002	-1.160214e+002	-9.656926e+001	4.688527e+001	-2.000000e+002	0.000000e+000	-2.000000e+002	0.000000e+000
86548670.000	-9.963727e-002	-1.169293e+002	-9.999964e+001	1.556955e+001	-2.000000e+002	0.000000e+000	-2.000000e+002	0.000000e+000
87198660.000	-1.021562e-001	-1.178380e+002	-9.386803e+001	1.379228e+001	-2.000000e+002	0.000000e+000	-2.000000e+002	0.000000e+000
87848650.000	-1.053808e-001	-1.187477e+002	-9.616737e+001	2.733775e+000	-2.000000e+002	0.000000e+000	-2.000000e+002	0.000000e+000
88498640.000	-1.085754e-001	-1.196593e+002	-1.065600e+002	1.381145e+000	-2.000000e+002	0.000000e+000	-2.000000e+002	0.000000e+000
89148630.000	-1.114122e-001	-1.205744e+002	-1.045232e+002	8.366695e+001	-2.000000e+002	0.000000e+000	-2.000000e+002	0.000000e+000
89798620.000	-1.144964e-001	-1.214854e+002	-9.592741e+001	4.673040e+001	-2.000000e+002	0.000000e+000	-2.000000e+002	0.000000e+000
90448610.000	-1.173461e-001	-1.223982e+002	-9.557107e+001	5.021667e+001	-2.000000e+002	0.000000e+000	-2.000000e+002	0.000000e+000
91098600.000	-1.203444e-001	-1.233154e+002	-9.471489e+001	-1.106792e+000	-2.000000e+002	0.000000e+000	-2.000000e+002	0.000000e+000
91748590.000	-1.237376e-001	-1.242329e+002	-9.655497e+001	7.578775e+001	-2.000000e+002	0.000000e+000	-2.000000e+002	0.000000e+000
92398580.000	-1.270545e-001	-1.251489e+002	-1.020602e+002	3.860570e+001	-2.000000e+002	0.000000e+000	-2.000000e+002	0.000000e+000
93048570.000	-1.305579e-001	-1.260641e+002	-9.722057e+001	4.218001e+001	-2.000000e+002	0.000000e+000	-2.000000e+002	0.000000e+000
93698560.000	-1.336230e-001	-1.269805e+002	-9.797327e+001	1.678170e+001	-2.000000e+002	0.000000e+000	-2.000000e+002	0.000000e+000
94348550.000	-1.369648e-001	-1.278991e+002	-9.240593e+001	2.525571e+001	-2.000000e+002	0.000000e+000	-2.000000e+002	0.000000e+000
94998540.000	-1.393319e-001	-1.288242e+002	-9.593278e+001	3.254515e+001	-2.000000e+002	0.000000e+000	-2.000000e+002	0.000000e+000
95648530.000	-1.429776e-001	-1.297380e+002	-9.259052e+001	2.605734e+000	-2.000000e+002	0.000000e+000	-2.000000e+002	0.000000e+000
96298520.000	-1.457961e-001	-1.306615e+002	-9.654203e+001	1.116930e+001	-2.000000e+002	0.000000e+000	-2.000000e+002	0.000000e+000
96948510.000	-1.488022e-001	-1.315857e+002	-9.213047e+001	4.675400e+001	-2.000000e+002	0.000000e+000	-2.000000e+002	0.000000e+000
97598500.000	-1.518958e-001	-1.325159e+002	-9.650612e+001	6.960898e+001	-2.000000e+002	0.000000e+000	-2.000000e+002	0.000000e+000
98248490.000	-1.551043e-001	-1.334451e+002	-9.432585e+001	5.036283e+001	-2.000000e+002	0.000000e+000	-2.000000e+002	0.000000e+000
