!Keysight Technologies,E5063A,MY54503115,A.05.08
!Date: Wed Dec 06 19:20:25 2023
!Data & Calibration Information:
!Freq	S11:NONE(--)	S21:NONE(--)	S12:NONE(--)	S22:NONE(--)
# Hz S dB R 50
100000.000	4.967725e-002	-6.543064e-001	-8.333755e+001	-1.029598e+001	-2.000000e+002	0.000000e+000	-2.000000e+002	0.000000e+000
749990.000	5.641291e-003	-1.360422e+000	-8.178019e+001	-7.986276e+001	-2.000000e+002	0.000000e+000	-2.000000e+002	0.000000e+000
1399980.000	6.833673e-003	-2.192116e+000	-8.252008e+001	-1.294373e+002	-2.000000e+002	0.000000e+000	-2.000000e+002	0.000000e+000
2049970.000	5.132161e-003	-3.046323e+000	-8.656227e+001	1.739728e+002	-2.000000e+002	0.000000e+000	-2.000000e+002	0.000000e+000
2699960.000	6.480141e-003	-3.891078e+000	-8.967836e+001	5.845125e+001	-2.000000e+002	0.000000e+000	-2.000000e+002	0.000000e+000
3349950.000	9.034191e-003	-4.760371e+000	-8.822895e+001	-5.838124e+001	-2.000000e+002	0.000000e+000	-2.000000e+002	0.000000e+000
3999940.000	7.784891e-003	-5.617610e+000	-1.026417e+002	9.467642e+001	-2.000000e+002	0.000000e+000	-2.000000e+002	0.000000e+000
4649930.000	1.018645e-002	-6.482839e+000	-9.374808e+001	-1.770730e+002	-2.000000e+002	0.000000e+000	-2.000000e+002	0.000000e+000
5299920.000	7.436480e-003	-7.341068e+000	-9.057969e+001	-7.260719e+001	-2.000000e+002	0.000000e+000	-2.000000e+002	0.000000e+000
5949910.000	8.561618e-003	-8.207959e+000	-8.627170e+001	1.532574e+002	-2.000000e+002	0.000000e+000	-2.000000e+002	0.000000e+000
6599900.000	7.420755e-003	-9.065697e+000	-9.158103e+001	8.029682e-001	-2.000000e+002	0.000000e+000	-2.000000e+002	0.000000e+000
7249890.000	9.185248e-003	-9.923547e+000	-9.315404e+001	2.963917e+001	-2.000000e+002	0.000000e+000	-2.000000e+002	0.000000e+000
7899880.000	8.912868e-003	-1.078722e+001	-9.386401e+001	-1.636801e+001	-2.000000e+002	0.000000e+000	-2.000000e+002	0.000000e+000
8549870.000	1.354893e-002	-1.166238e+001	-9.847086e+001	1.158336e+002	-2.000000e+002	0.000000e+000	-2.000000e+002	0.000000e+000
9199860.000	1.260537e-002	-1.252272e+001	-1.052734e+002	-6.136133e+001	-2.000000e+002	0.000000e+000	-2.000000e+002	0.000000e+000
9849850.000	1.290684e-002	-1.338768e+001	-1.002221e+002	7.165451e+001	-2.000000e+002	0.000000e+000	-2.000000e+002	0.000000e+000
10499840.000	1.141954e-002	-1.424173e+001	-1.037018e+002	7.048357e+001	-2.000000e+002	0.000000e+000	-2.000000e+002	0.000000e+000
11149830.000	9.682506e-003	-1.509448e+001	-1.003772e+002	4.178734e+001	-2.000000e+002	0.000000e+000	-2.000000e+002	0.000000e+000
11799820.000	9.588556e-003	-1.595298e+001	-1.102396e+002	1.437611e+002	-2.000000e+002	0.000000e+000	-2.000000e+002	0.000000e+000
12449810.000	1.134633e-002	-1.682201e+001	-1.013484e+002	-2.749553e+000	-2.000000e+002	0.000000e+000	-2.000000e+002	0.000000e+000
13099800.000	1.486553e-002	-1.768846e+001	-9.797131e+001	-1.185891e+002	-2.000000e+002	0.000000e+000	-2.000000e+002	0.000000e+000
13749790.000	1.422330e-002	-1.854088e+001	-9.899124e+001	-6.578342e+001	-2.000000e+002	0.000000e+000	-2.000000e+002	0.000000e+000
14399780.000	1.294085e-002	-1.941134e+001	-1.067747e+002	-3.386598e+001	-2.000000e+002	0.000000e+000	-2.000000e+002	0.000000e+000
15049770.000	1.503200e-002	-2.027922e+001	-9.986777e+001	1.727615e+002	-2.000000e+002	0.000000e+000	-2.000000e+002	0.000000e+000
15699760.000	1.596789e-002	-2.112487e+001	-1.095629e+002	-4.764191e+001	-2.000000e+002	0.000000e+000	-2.000000e+002	0.000000e+000
16349750.000	1.636441e-002	-2.198527e+001	-1.073253e+002	9.698757e+001	-2.000000e+002	0.000000e+000	-2.000000e+002	0.000000e+000
16999740.000	1.619729e-002	-2.285869e+001	-1.042010e+002	-1.708460e+002	-2.000000e+002	0.000000e+000	-2.000000e+002	0.000000e+000
17649730.000	2.422851e-002	-2.375140e+001	-1.211745e+002	-1.181814e+002	-2.000000e+002	0.000000e+000	-2.000000e+002	0.000000e+000
18299720.000	2.804723e-002	-2.462624e+001	-1.025940e+002	1.767063e+001	-2.000000e+002	0.000000e+000	-2.000000e+002	0.000000e+000
18949710.000	2.752239e-002	-2.549305e+001	-1.007004e+002	-3.037772e+001	-2.000000e+002	0.000000e+000	-2.000000e+002	0.000000e+000
19599700.000	2.204646e-002	-2.634080e+001	-9.942752e+001	8.789028e+000	-2.000000e+002	0.000000e+000	-2.000000e+002	0.000000e+000
20249690.000	1.745002e-002	-2.719673e+001	-1.079942e+002	-3.664295e+001	-2.000000e+002	0.000000e+000	-2.000000e+002	0.000000e+000
20899680.000	1.599216e-002	-2.809337e+001	-1.060187e+002	5.852240e+001	-2.000000e+002	0.000000e+000	-2.000000e+002	0.000000e+000
21549670.000	1.597553e-002	-2.896707e+001	-1.016994e+002	1.501994e+001	-2.000000e+002	0.000000e+000	-2.000000e+002	0.000000e+000
22199660.000	1.650638e-002	-2.982276e+001	-9.732849e+001	8.628319e-001	-2.000000e+002	0.000000e+000	-2.000000e+002	0.000000e+000
22849650.000	1.929545e-002	-3.065554e+001	-1.014696e+002	-4.544296e+001	-2.000000e+002	0.000000e+000	-2.000000e+002	0.000000e+000
23499640.000	1.765388e-002	-3.151920e+001	-9.757803e+001	2.168184e+001	-2.000000e+002	0.000000e+000	-2.000000e+002	0.000000e+000
24149630.000	1.614286e-002	-3.239093e+001	-1.009655e+002	-8.156465e+000	-2.000000e+002	0.000000e+000	-2.000000e+002	0.000000e+000
24799620.000	1.668242e-002	-3.325125e+001	-1.009279e+002	-1.151889e+002	-2.000000e+002	0.000000e+000	-2.000000e+002	0.000000e+000
25449610.000	1.928685e-002	-3.411516e+001	-1.057467e+002	1.609387e+002	-2.000000e+002	0.000000e+000	-2.000000e+002	0.000000e+000
26099600.000	1.867057e-002	-3.497532e+001	-9.839869e+001	1.270539e+002	-2.000000e+002	0.000000e+000	-2.000000e+002	0.000000e+000
26749590.000	1.831629e-002	-3.584591e+001	-1.078070e+002	-1.227811e+002	-2.000000e+002	0.000000e+000	-2.000000e+002	0.000000e+000
27399580.000	1.742050e-002	-3.670948e+001	-9.929568e+001	-9.272757e+001	-2.000000e+002	0.000000e+000	-2.000000e+002	0.000000e+000
28049570.000	1.870412e-002	-3.758022e+001	-1.031825e+002	1.699430e+002	-2.000000e+002	0.000000e+000	-2.000000e+002	0.000000e+000
28699560.000	1.806037e-002	-3.843835e+001	-1.033377e+002	-3.900154e+001	-2.000000e+002	0.000000e+000	-2.000000e+002	0.000000e+000
29349550.000	1.837694e-002	-3.929906e+001	-1.101497e+002	8.562251e+001	-2.000000e+002	0.000000e+000	-2.000000e+002	0.000000e+000
29999540.000	1.799156e-002	-4.016621e+001	-1.039825e+002	4.719925e+000	-2.000000e+002	0.000000e+000	-2.000000e+002	0.000000e+000
30649530.000	1.776646e-002	-4.104069e+001	-1.003528e+002	6.501585e+001	-2.000000e+002	0.000000e+000	-2.000000e+002	0.000000e+000
31299520.000	1.837184e-002	-4.191452e+001	-1.095804e+002	-8.162028e+001	-2.000000e+002	0.000000e+000	-2.000000e+002	0.000000e+000
31949510.000	1.810495e-002	-4.278250e+001	-9.989984e+001	-2.587563e+001	-2.000000e+002	0.000000e+000	-2.000000e+002	0.000000e+000
32599500.000	1.717816e-002	-4.364900e+001	-9.831935e+001	1.041165e+002	-2.000000e+002	0.000000e+000	-2.000000e+002	0.000000e+000
33249490.000	1.704209e-002	-4.451917e+001	-1.143190e+002	-1.636188e+002	-2.000000e+002	0.000000e+000	-2.000000e+002	0.000000e+000
33899480.000	1.640267e-002	-4.539073e+001	-9.648123e+001	1.559180e+002	-2.000000e+002	0.000000e+000	-2.000000e+002	0.000000e+000
34549470.000	1.649836e-002	-4.624956e+001	-1.131643e+002	1.279618e+002	-2.000000e+002	0.000000e+000	-2.000000e+002	0.000000e+000
35199460.000	1.631616e-002	-4.711479e+001	-1.069480e+002	9.277816e+001	-2.000000e+002	0.000000e+000	-2.000000e+002	0.000000e+000
35849450.000	1.548419e-002	-4.798188e+001	-1.030393e+002	1.381862e+002	-2.000000e+002	0.000000e+000	-2.000000e+002	0.000000e+000
36499440.000	1.549107e-002	-4.885255e+001	-1.082039e+002	1.276268e+002	-2.000000e+002	0.000000e+000	-2.000000e+002	0.000000e+000
37149430.000	1.417414e-002	-4.972197e+001	-1.054608e+002	1.687987e+002	-2.000000e+002	0.000000e+000	-2.000000e+002	0.000000e+000
37799420.000	1.348156e-002	-5.059414e+001	-9.610758e+001	1.044357e+002	-2.000000e+002	0.000000e+000	-2.000000e+002	0.000000e+000
38449410.000	1.309314e-002	-5.146557e+001	-9.970960e+001	-1.750924e+001	-2.000000e+002	0.000000e+000	-2.000000e+002	0.000000e+000
39099400.000	1.286449e-002	-5.233543e+001	-1.036081e+002	-1.418952e+002	-2.000000e+002	0.000000e+000	-2.000000e+002	0.000000e+000
39749390.000	1.119163e-002	-5.321076e+001	-9.429417e+001	1.379386e+002	-2.000000e+002	0.000000e+000	-2.000000e+002	0.000000e+000
40399380.000	1.013054e-002	-5.408401e+001	-1.016235e+002	-1.095683e+001	-2.000000e+002	0.000000e+000	-2.000000e+002	0.000000e+000
41049370.000	1.020178e-002	-5.495333e+001	-1.117734e+002	-4.482396e+001	-2.000000e+002	0.000000e+000	-2.000000e+002	0.000000e+000
41699360.000	1.006215e-002	-5.581986e+001	-9.982340e+001	6.159481e+001	-2.000000e+002	0.000000e+000	-2.000000e+002	0.000000e+000
42349350.000	9.272127e-003	-5.668650e+001	-1.065897e+002	-1.008650e+002	-2.000000e+002	0.000000e+000	-2.000000e+002	0.000000e+000
42999340.000	7.669922e-003	-5.755495e+001	-9.824738e+001	1.584173e+002	-2.000000e+002	0.000000e+000	-2.000000e+002	0.000000e+000
43649330.000	7.002103e-003	-5.842312e+001	-1.025253e+002	6.618609e+001	-2.000000e+002	0.000000e+000	-2.000000e+002	0.000000e+000
44299320.000	6.893649e-003	-5.929020e+001	-1.251243e+002	1.327058e+002	-2.000000e+002	0.000000e+000	-2.000000e+002	0.000000e+000
44949310.000	6.887399e-003	-6.016269e+001	-9.808049e+001	1.489878e+002	-2.000000e+002	0.000000e+000	-2.000000e+002	0.000000e+000
45599300.000	6.156837e-003	-6.103790e+001	-9.902149e+001	-1.724396e+002	-2.000000e+002	0.000000e+000	-2.000000e+002	0.000000e+000
46249290.000	5.127245e-003	-6.190837e+001	-9.762661e+001	1.168957e+002	-2.000000e+002	0.000000e+000	-2.000000e+002	0.000000e+000
46899280.000	5.113748e-003	-6.277914e+001	-1.027915e+002	-4.579091e+001	-2.000000e+002	0.000000e+000	-2.000000e+002	0.000000e+000
47549270.000	2.901266e-003	-6.365261e+001	-1.157047e+002	-1.030910e+002	-2.000000e+002	0.000000e+000	-2.000000e+002	0.000000e+000
48199260.000	2.576041e-003	-6.452972e+001	-1.051942e+002	1.498248e+002	-2.000000e+002	0.000000e+000	-2.000000e+002	0.000000e+000
48849250.000	1.763092e-003	-6.540406e+001	-9.890506e+001	1.310191e+002	-2.000000e+002	0.000000e+000	-2.000000e+002	0.000000e+000
49499240.000	1.136811e-003	-6.627559e+001	-1.095695e+002	-2.643353e+001	-2.000000e+002	0.000000e+000	-2.000000e+002	0.000000e+000
50149230.000	7.551256e-004	-6.715457e+001	-1.002169e+002	6.430165e+001	-2.000000e+002	0.000000e+000	-2.000000e+002	0.000000e+000
50799220.000	-6.203142e-004	-6.803645e+001	-1.004389e+002	-1.611853e+002	-2.000000e+002	0.000000e+000	-2.000000e+002	0.000000e+000
51449210.000	-5.402360e-004	-6.890795e+001	-9.890869e+001	5.127638e+001	-2.000000e+002	0.000000e+000	-2.000000e+002	0.000000e+000
52099200.000	-1.573446e-003	-6.978457e+001	-1.037516e+002	-2.010893e+001	-2.000000e+002	0.000000e+000	-2.000000e+002	0.000000e+000
52749190.000	-2.498385e-003	-7.066143e+001	-9.869215e+001	9.765793e+001	-2.000000e+002	0.000000e+000	-2.000000e+002	0.000000e+000
53399180.000	-4.064720e-003	-7.154125e+001	-1.119009e+002	1.348218e+002	-2.000000e+002	0.000000e+000	-2.000000e+002	0.000000e+000
54049170.000	-4.612422e-003	-7.241780e+001	-9.885464e+001	3.284967e+001	-2.000000e+002	0.000000e+000	-2.000000e+002	0.000000e+000
54699160.000	-6.030078e-003	-7.329623e+001	-1.044207e+002	7.629497e+001	-2.000000e+002	0.000000e+000	-2.000000e+002	0.000000e+000
55349150.000	-7.045089e-003	-7.417597e+001	-9.980255e+001	2.340264e+001	-2.000000e+002	0.000000e+000	-2.000000e+002	0.000000e+000
55999140.000	-8.721132e-003	-7.505243e+001	-1.069323e+002	9.221527e+001	-2.000000e+002	0.000000e+000	-2.000000e+002	0.000000e+000
56649130.000	-1.008339e-002	-7.593467e+001	-1.083773e+002	-1.483588e+002	-2.000000e+002	0.000000e+000	-2.000000e+002	0.000000e+000
57299120.000	-1.086588e-002	-7.681552e+001	-1.033425e+002	8.668440e+001	-2.000000e+002	0.000000e+000	-2.000000e+002	0.000000e+000
57949110.000	-1.253797e-002	-7.769462e+001	-9.516924e+001	6.017642e+001	-2.000000e+002	0.000000e+000	-2.000000e+002	0.000000e+000
58599100.000	-1.336329e-002	-7.856927e+001	-1.086744e+002	-2.415572e+001	-2.000000e+002	0.000000e+000	-2.000000e+002	0.000000e+000
59249090.000	-1.488309e-002	-7.944889e+001	-1.039679e+002	-2.552049e+001	-2.000000e+002	0.000000e+000	-2.000000e+002	0.000000e+000
59899080.000	-1.537014e-002	-8.033171e+001	-1.003859e+002	8.332648e+001	-2.000000e+002	0.000000e+000	-2.000000e+002	0.000000e+000
60549070.000	-1.717703e-002	-8.121632e+001	-1.111735e+002	6.965282e+001	-2.000000e+002	0.000000e+000	-2.000000e+002	0.000000e+000
61199060.000	-1.959929e-002	-8.209950e+001	-1.033784e+002	2.477024e+001	-2.000000e+002	0.000000e+000	-2.000000e+002	0.000000e+000
61849050.000	-2.108892e-002	-8.298165e+001	-1.043840e+002	1.375161e+002	-2.000000e+002	0.000000e+000	-2.000000e+002	0.000000e+000
62499040.000	-2.300874e-002	-8.386619e+001	-1.006139e+002	1.231780e+002	-2.000000e+002	0.000000e+000	-2.000000e+002	0.000000e+000
63149030.000	-2.477840e-002	-8.474687e+001	-1.139112e+002	9.619883e+001	-2.000000e+002	0.000000e+000	-2.000000e+002	0.000000e+000
63799020.000	-2.638790e-002	-8.563255e+001	-1.237094e+002	2.527045e+001	-2.000000e+002	0.000000e+000	-2.000000e+002	0.000000e+000
64449010.000	-2.812292e-002	-8.651547e+001	-1.167731e+002	1.758174e+002	-2.000000e+002	0.000000e+000	-2.000000e+002	0.000000e+000
65099000.000	-3.003315e-002	-8.740073e+001	-9.698442e+001	4.701073e+001	-2.000000e+002	0.000000e+000	-2.000000e+002	0.000000e+000
65748990.000	-3.181515e-002	-8.828406e+001	-1.046123e+002	-3.609753e+001	-2.000000e+002	0.000000e+000	-2.000000e+002	0.000000e+000
66398980.000	-3.339494e-002	-8.917055e+001	-9.891050e+001	9.547875e+000	-2.000000e+002	0.000000e+000	-2.000000e+002	0.000000e+000
67048970.000	-3.514009e-002	-9.005652e+001	-1.023179e+002	6.541704e+001	-2.000000e+002	0.000000e+000	-2.000000e+002	0.000000e+000
67698960.000	-3.760132e-002	-9.094396e+001	-9.258569e+001	1.582205e+000	-2.000000e+002	0.000000e+000	-2.000000e+002	0.000000e+000
68348950.000	-3.984493e-002	-9.182961e+001	-1.030196e+002	-6.757477e+001	-2.000000e+002	0.000000e+000	-2.000000e+002	0.000000e+000
68998940.000	-4.236451e-002	-9.271913e+001	-9.912623e+001	8.319404e+001	-2.000000e+002	0.000000e+000	-2.000000e+002	0.000000e+000
69648930.000	-4.396012e-002	-9.360606e+001	-9.533774e+001	2.741738e+000	-2.000000e+002	0.000000e+000	-2.000000e+002	0.000000e+000
70298920.000	-4.619693e-002	-9.449212e+001	-1.004648e+002	1.239396e+002	-2.000000e+002	0.000000e+000	-2.000000e+002	0.000000e+000
70948910.000	-4.888779e-002	-9.538080e+001	-9.980813e+001	9.399538e+001	-2.000000e+002	0.000000e+000	-2.000000e+002	0.000000e+000
71598900.000	-5.090937e-002	-9.626486e+001	-9.866644e+001	5.430574e+001	-2.000000e+002	0.000000e+000	-2.000000e+002	0.000000e+000
72248890.000	-5.316383e-002	-9.715335e+001	-1.005161e+002	1.900979e+001	-2.000000e+002	0.000000e+000	-2.000000e+002	0.000000e+000
72898880.000	-5.455580e-002	-9.803894e+001	-1.023267e+002	-1.220634e+001	-2.000000e+002	0.000000e+000	-2.000000e+002	0.000000e+000
73548870.000	-5.598953e-002	-9.892817e+001	-9.974843e+001	-2.466688e+001	-2.000000e+002	0.000000e+000	-2.000000e+002	0.000000e+000
74198860.000	-5.742409e-002	-9.982147e+001	-9.547599e+001	-5.663557e+001	-2.000000e+002	0.000000e+000	-2.000000e+002	0.000000e+000
74848850.000	-5.918055e-002	-1.007147e+002	-1.001155e+002	4.258707e+001	-2.000000e+002	0.000000e+000	-2.000000e+002	0.000000e+000
75498840.000	-6.084001e-002	-1.016094e+002	-9.880378e+001	7.338270e+001	-2.000000e+002	0.000000e+000	-2.000000e+002	0.000000e+000
76148830.000	-6.247841e-002	-1.025071e+002	-9.706056e+001	3.169177e+001	-2.000000e+002	0.000000e+000	-2.000000e+002	0.000000e+000
76798820.000	-6.410088e-002	-1.034006e+002	-9.748454e+001	5.231206e+001	-2.000000e+002	0.000000e+000	-2.000000e+002	0.000000e+000
77448810.000	-6.669690e-002	-1.043038e+002	-1.003579e+002	3.458147e+001	-2.000000e+002	0.000000e+000	-2.000000e+002	0.000000e+000
78098800.000	-6.889164e-002	-1.052045e+002	-1.015060e+002	4.704996e+001	-2.000000e+002	0.000000e+000	-2.000000e+002	0.000000e+000
78748790.000	-7.128568e-002	-1.061027e+002	-9.778035e+001	-1.087219e+001	-2.000000e+002	0.000000e+000	-2.000000e+002	0.000000e+000
79398780.000	-7.365553e-002	-1.070023e+002	-1.113706e+002	5.023097e+001	-2.000000e+002	0.000000e+000	-2.000000e+002	0.000000e+000
80048770.000	-7.543270e-002	-1.079019e+002	-1.059432e+002	8.562731e+001	-2.000000e+002	0.000000e+000	-2.000000e+002	0.000000e+000
80698760.000	-7.796495e-002	-1.088038e+002	-9.703905e+001	6.489470e+001	-2.000000e+002	0.000000e+000	-2.000000e+002	0.000000e+000
81348750.000	-8.030951e-002	-1.097056e+002	-9.960473e+001	3.660984e+001	-2.000000e+002	0.000000e+000	-2.000000e+002	0.000000e+000
81998740.000	-8.306026e-002	-1.106066e+002	-9.947156e+001	2.023462e+001	-2.000000e+002	0.000000e+000	-2.000000e+002	0.000000e+000
82648730.000	-8.567229e-002	-1.115153e+002	-9.578357e+001	4.301284e+001	-2.000000e+002	0.000000e+000	-2.000000e+002	0.000000e+000
83298720.000	-8.836900e-002	-1.124219e+002	-9.891134e+001	1.905256e+001	-2.000000e+002	0.000000e+000	-2.000000e+002	0.000000e+000
83948710.000	-9.096191e-002	-1.133261e+002	-1.043969e+002	1.334564e+001	-2.000000e+002	0.000000e+000	-2.000000e+002	0.000000e+000
84598700.000	-9.356344e-002	-1.142316e+002	-9.826311e+001	2.311230e+001	-2.000000e+002	0.000000e+000	-2.000000e+002	0.000000e+000
85248690.000	-9.634712e-002	-1.151391e+002	-1.006765e+002	2.567274e+001	-2.000000e+002	0.000000e+000	-2.000000e+002	0.000000e+000
85898680.000	-9.919574e-002	-1.160467e+002	-1.035061e+002	9.658359e+001	-2.000000e+002	0.000000e+000	-2.000000e+002	0.000000e+000
86548670.000	-1.023507e-001	-1.169554e+002	-1.007686e+002	1.227903e+002	-2.000000e+002	0.000000e+000	-2.000000e+002	0.000000e+000
87198660.000	-1.052824e-001	-1.178657e+002	-1.030458e+002	4.634268e+001	-2.000000e+002	0.000000e+000	-2.000000e+002	0.000000e+000
87848650.000	-1.081318e-001	-1.187745e+002	-9.884327e+001	4.862212e+001	-2.000000e+002	0.000000e+000	-2.000000e+002	0.000000e+000
88498640.000	-1.114783e-001	-1.196861e+002	-1.012589e+002	1.841817e+001	-2.000000e+002	0.000000e+000	-2.000000e+002	0.000000e+000
89148630.000	-1.147955e-001	-1.205971e+002	-9.904055e+001	3.135389e+001	-2.000000e+002	0.000000e+000	-2.000000e+002	0.000000e+000
89798620.000	-1.179157e-001	-1.215093e+002	-9.402813e+001	2.764041e+001	-2.000000e+002	0.000000e+000	-2.000000e+002	0.000000e+000
90448610.000	-1.209211e-001	-1.224239e+002	-9.635911e+001	2.975804e+001	-2.000000e+002	0.000000e+000	-2.000000e+002	0.000000e+000
91098600.000	-1.242990e-001	-1.233386e+002	-9.778269e+001	3.619911e+000	-2.000000e+002	0.000000e+000	-2.000000e+002	0.000000e+000
91748590.000	-1.274305e-001	-1.242553e+002	-9.508502e+001	2.032163e+001	-2.000000e+002	0.000000e+000	-2.000000e+002	0.000000e+000
92398580.000	-1.311101e-001	-1.251701e+002	-9.452767e+001	5.146230e+001	-2.000000e+002	0.000000e+000	-2.000000e+002	0.000000e+000
93048570.000	-1.346210e-001	-1.260847e+002	-9.374734e+001	3.038205e+001	-2.000000e+002	0.000000e+000	-2.000000e+002	0.000000e+000
93698560.000	-1.378132e-001	-1.270006e+002	-9.889558e+001	8.033131e+000	-2.000000e+002	0.000000e+000	-2.000000e+002	0.000000e+000
94348550.000	-1.412351e-001	-1.279175e+002	-9.572062e+001	3.722756e+001	-2.000000e+002	0.000000e+000	-2.000000e+002	0.000000e+000
94998540.000	-1.435875e-001	-1.288389e+002	-9.807229e+001	-1.925688e-001	-2.000000e+002	0.000000e+000	-2.000000e+002	0.000000e+000
95648530.000	-1.473602e-001	-1.297558e+002	-9.605129e+001	3.236939e+001	-2.000000e+002	0.000000e+000	-2.000000e+002	0.000000e+000
96298520.000	-1.501230e-001	-1.306782e+002	-9.768005e+001	4.420493e+001	-2.000000e+002	0.000000e+000	-2.000000e+002	0.000000e+000
96948510.000	-1.532303e-001	-1.316037e+002	-9.323897e+001	5.722812e+001	-2.000000e+002	0.000000e+000	-2.000000e+002	0.000000e+000
97598500.000	-1.563411e-001	-1.325338e+002	-9.191950e+001	3.049515e+001	-2.000000e+002	0.000000e+000	-2.000000e+002	0.000000e+000
98248490.000	-1.598247e-001	-1.334650e+002	-9.535380e+001	2.361499e+001	-2.000000e+002	0.000000e+000	-2.000000e+002	0.000000e+000
