!Keysight Technologies,E5063A,MY54503115,A.05.08
!Date: Wed Dec 06 19:10:45 2023
!Data & Calibration Information:
!Freq	S11:NONE(--)	S21:NONE(--)	S12:NONE(--)	S22:NONE(--)
# Hz S dB R 50
100000.000	4.636166e-002	-6.200511e-001	-7.924615e+001	4.519452e+001	-2.000000e+002	0.000000e+000	-2.000000e+002	0.000000e+000
749990.000	5.882468e-003	-1.359874e+000	-8.819895e+001	-6.272705e+001	-2.000000e+002	0.000000e+000	-2.000000e+002	0.000000e+000
1399980.000	6.399568e-003	-2.187705e+000	-8.207361e+001	-1.402345e+002	-2.000000e+002	0.000000e+000	-2.000000e+002	0.000000e+000
2049970.000	7.073168e-003	-3.041437e+000	-9.406125e+001	1.471645e+002	-2.000000e+002	0.000000e+000	-2.000000e+002	0.000000e+000
2699960.000	6.930042e-003	-3.898811e+000	-1.024031e+002	1.131118e+002	-2.000000e+002	0.000000e+000	-2.000000e+002	0.000000e+000
3349950.000	9.651630e-003	-4.761588e+000	-9.281028e+001	1.625453e+002	-2.000000e+002	0.000000e+000	-2.000000e+002	0.000000e+000
3999940.000	9.004769e-003	-5.614507e+000	-8.310232e+001	-1.665030e+001	-2.000000e+002	0.000000e+000	-2.000000e+002	0.000000e+000
4649930.000	9.756290e-003	-6.484957e+000	-8.979920e+001	-5.693436e+000	-2.000000e+002	0.000000e+000	-2.000000e+002	0.000000e+000
5299920.000	9.151750e-003	-7.341446e+000	-8.703887e+001	1.062077e+002	-2.000000e+002	0.000000e+000	-2.000000e+002	0.000000e+000
5949910.000	9.264173e-003	-8.203171e+000	-8.611532e+001	1.742239e+002	-2.000000e+002	0.000000e+000	-2.000000e+002	0.000000e+000
6599900.000	9.114434e-003	-9.065106e+000	-8.749535e+001	-4.539707e+001	-2.000000e+002	0.000000e+000	-2.000000e+002	0.000000e+000
7249890.000	1.054784e-002	-9.927898e+000	-8.747598e+001	-8.207745e+001	-2.000000e+002	0.000000e+000	-2.000000e+002	0.000000e+000
7899880.000	1.058301e-002	-1.078706e+001	-8.760161e+001	5.869440e+001	-2.000000e+002	0.000000e+000	-2.000000e+002	0.000000e+000
8549870.000	1.452051e-002	-1.165934e+001	-9.897041e+001	-7.971843e+001	-2.000000e+002	0.000000e+000	-2.000000e+002	0.000000e+000
9199860.000	1.427367e-002	-1.251935e+001	-1.048192e+002	-1.671443e+001	-2.000000e+002	0.000000e+000	-2.000000e+002	0.000000e+000
9849850.000	1.404817e-002	-1.338324e+001	-9.893180e+001	1.538934e+002	-2.000000e+002	0.000000e+000	-2.000000e+002	0.000000e+000
10499840.000	1.265804e-002	-1.423804e+001	-1.018891e+002	1.414398e+002	-2.000000e+002	0.000000e+000	-2.000000e+002	0.000000e+000
11149830.000	1.121308e-002	-1.509045e+001	-1.006951e+002	-1.731206e+001	-2.000000e+002	0.000000e+000	-2.000000e+002	0.000000e+000
11799820.000	1.142445e-002	-1.594731e+001	-9.532221e+001	5.038281e+001	-2.000000e+002	0.000000e+000	-2.000000e+002	0.000000e+000
12449810.000	1.286676e-002	-1.681933e+001	-1.003411e+002	-1.795569e+001	-2.000000e+002	0.000000e+000	-2.000000e+002	0.000000e+000
13099800.000	1.559781e-002	-1.768218e+001	-1.076897e+002	6.355180e+001	-2.000000e+002	0.000000e+000	-2.000000e+002	0.000000e+000
13749790.000	1.523777e-002	-1.853582e+001	-9.845596e+001	1.012873e+002	-2.000000e+002	0.000000e+000	-2.000000e+002	0.000000e+000
14399780.000	1.429838e-002	-1.940469e+001	-1.014976e+002	-2.127487e+001	-2.000000e+002	0.000000e+000	-2.000000e+002	0.000000e+000
15049770.000	1.600534e-002	-2.027363e+001	-1.039108e+002	9.330704e+001	-2.000000e+002	0.000000e+000	-2.000000e+002	0.000000e+000
15699760.000	1.835251e-002	-2.111687e+001	-1.100260e+002	1.294332e+002	-2.000000e+002	0.000000e+000	-2.000000e+002	0.000000e+000
16349750.000	1.916049e-002	-2.197935e+001	-1.010040e+002	3.781977e+001	-2.000000e+002	0.000000e+000	-2.000000e+002	0.000000e+000
16999740.000	1.912439e-002	-2.285376e+001	-1.104292e+002	-1.391503e+002	-2.000000e+002	0.000000e+000	-2.000000e+002	0.000000e+000
17649730.000	2.658361e-002	-2.374289e+001	-1.039544e+002	1.173930e+002	-2.000000e+002	0.000000e+000	-2.000000e+002	0.000000e+000
18299720.000	3.069436e-002	-2.462331e+001	-1.072731e+002	-2.118276e+001	-2.000000e+002	0.000000e+000	-2.000000e+002	0.000000e+000
18949710.000	2.976897e-002	-2.549112e+001	-1.021585e+002	4.910873e+001	-2.000000e+002	0.000000e+000	-2.000000e+002	0.000000e+000
19599700.000	2.426783e-002	-2.633832e+001	-1.004575e+002	1.175583e+002	-2.000000e+002	0.000000e+000	-2.000000e+002	0.000000e+000
20249690.000	2.061403e-002	-2.719431e+001	-1.012613e+002	-1.451688e+002	-2.000000e+002	0.000000e+000	-2.000000e+002	0.000000e+000
20899680.000	1.889491e-002	-2.809656e+001	-9.923554e+001	6.873665e+001	-2.000000e+002	0.000000e+000	-2.000000e+002	0.000000e+000
21549670.000	1.831990e-002	-2.897026e+001	-1.016019e+002	1.230625e+002	-2.000000e+002	0.000000e+000	-2.000000e+002	0.000000e+000
22199660.000	1.914641e-002	-2.982122e+001	-9.946042e+001	1.207257e+002	-2.000000e+002	0.000000e+000	-2.000000e+002	0.000000e+000
22849650.000	2.120583e-002	-3.065299e+001	-1.026166e+002	7.695132e+001	-2.000000e+002	0.000000e+000	-2.000000e+002	0.000000e+000
23499640.000	1.984895e-002	-3.151821e+001	-9.961095e+001	-9.036627e+001	-2.000000e+002	0.000000e+000	-2.000000e+002	0.000000e+000
24149630.000	1.807733e-002	-3.238588e+001	-1.006789e+002	-1.765806e+000	-2.000000e+002	0.000000e+000	-2.000000e+002	0.000000e+000
24799620.000	1.858498e-002	-3.325148e+001	-1.094381e+002	3.843763e+000	-2.000000e+002	0.000000e+000	-2.000000e+002	0.000000e+000
25449610.000	2.117984e-002	-3.411558e+001	-1.008256e+002	-2.835876e+001	-2.000000e+002	0.000000e+000	-2.000000e+002	0.000000e+000
26099600.000	2.049563e-002	-3.497600e+001	-9.823925e+001	8.107489e+001	-2.000000e+002	0.000000e+000	-2.000000e+002	0.000000e+000
26749590.000	1.931270e-002	-3.583840e+001	-1.014464e+002	-5.114426e+001	-2.000000e+002	0.000000e+000	-2.000000e+002	0.000000e+000
27399580.000	1.944832e-002	-3.670896e+001	-1.014524e+002	4.987676e+001	-2.000000e+002	0.000000e+000	-2.000000e+002	0.000000e+000
28049570.000	1.977064e-002	-3.757659e+001	-9.459950e+001	-1.953419e+001	-2.000000e+002	0.000000e+000	-2.000000e+002	0.000000e+000
28699560.000	1.977600e-002	-3.843912e+001	-9.615271e+001	9.526661e+001	-2.000000e+002	0.000000e+000	-2.000000e+002	0.000000e+000
29349550.000	1.976228e-002	-3.929706e+001	-1.055086e+002	-1.031139e+002	-2.000000e+002	0.000000e+000	-2.000000e+002	0.000000e+000
29999540.000	1.944131e-002	-4.016137e+001	-1.013548e+002	2.558654e+001	-2.000000e+002	0.000000e+000	-2.000000e+002	0.000000e+000
30649530.000	1.874910e-002	-4.103575e+001	-1.047698e+002	-2.008770e+000	-2.000000e+002	0.000000e+000	-2.000000e+002	0.000000e+000
31299520.000	2.036042e-002	-4.190945e+001	-1.106212e+002	-3.773043e+001	-2.000000e+002	0.000000e+000	-2.000000e+002	0.000000e+000
31949510.000	2.000907e-002	-4.277093e+001	-1.103054e+002	6.304221e+000	-2.000000e+002	0.000000e+000	-2.000000e+002	0.000000e+000
32599500.000	1.886732e-002	-4.364363e+001	-9.933866e+001	9.657409e+001	-2.000000e+002	0.000000e+000	-2.000000e+002	0.000000e+000
33249490.000	1.894503e-002	-4.451016e+001	-1.080277e+002	3.477283e+001	-2.000000e+002	0.000000e+000	-2.000000e+002	0.000000e+000
33899480.000	1.865938e-002	-4.537977e+001	-9.949657e+001	-1.436658e+002	-2.000000e+002	0.000000e+000	-2.000000e+002	0.000000e+000
34549470.000	1.891510e-002	-4.624166e+001	-9.942405e+001	1.615213e+002	-2.000000e+002	0.000000e+000	-2.000000e+002	0.000000e+000
35199460.000	1.869251e-002	-4.710287e+001	-1.122219e+002	1.757496e+002	-2.000000e+002	0.000000e+000	-2.000000e+002	0.000000e+000
35849450.000	1.761617e-002	-4.797209e+001	-1.053971e+002	3.595947e+001	-2.000000e+002	0.000000e+000	-2.000000e+002	0.000000e+000
36499440.000	1.751567e-002	-4.884042e+001	-1.131842e+002	1.259966e+002	-2.000000e+002	0.000000e+000	-2.000000e+002	0.000000e+000
37149430.000	1.680973e-002	-4.971029e+001	-9.698936e+001	2.208739e+001	-2.000000e+002	0.000000e+000	-2.000000e+002	0.000000e+000
37799420.000	1.630625e-002	-5.058497e+001	-1.153190e+002	2.362390e+000	-2.000000e+002	0.000000e+000	-2.000000e+002	0.000000e+000
38449410.000	1.590507e-002	-5.145519e+001	-1.047176e+002	1.389351e+002	-2.000000e+002	0.000000e+000	-2.000000e+002	0.000000e+000
39099400.000	1.516287e-002	-5.232944e+001	-9.823639e+001	4.711017e+001	-2.000000e+002	0.000000e+000	-2.000000e+002	0.000000e+000
39749390.000	1.412979e-002	-5.320487e+001	-1.061721e+002	9.521946e+001	-2.000000e+002	0.000000e+000	-2.000000e+002	0.000000e+000
40399380.000	1.322084e-002	-5.407902e+001	-9.997490e+001	7.829551e+001	-2.000000e+002	0.000000e+000	-2.000000e+002	0.000000e+000
41049370.000	1.257104e-002	-5.495062e+001	-9.996630e+001	1.620525e+002	-2.000000e+002	0.000000e+000	-2.000000e+002	0.000000e+000
41699360.000	1.252131e-002	-5.581557e+001	-1.016780e+002	1.724086e+002	-2.000000e+002	0.000000e+000	-2.000000e+002	0.000000e+000
42349350.000	1.129735e-002	-5.668670e+001	-1.042223e+002	8.195316e+001	-2.000000e+002	0.000000e+000	-2.000000e+002	0.000000e+000
42999340.000	8.468113e-003	-5.755522e+001	-1.010260e+002	5.618559e+001	-2.000000e+002	0.000000e+000	-2.000000e+002	0.000000e+000
43649330.000	6.919158e-003	-5.841500e+001	-9.835710e+001	6.639570e+001	-2.000000e+002	0.000000e+000	-2.000000e+002	0.000000e+000
44299320.000	6.228763e-003	-5.928067e+001	-9.936466e+001	8.520013e+001	-2.000000e+002	0.000000e+000	-2.000000e+002	0.000000e+000
44949310.000	5.670446e-003	-6.014645e+001	-9.475823e+001	1.544455e+001	-2.000000e+002	0.000000e+000	-2.000000e+002	0.000000e+000
45599300.000	4.812566e-003	-6.101334e+001	-9.655072e+001	3.685903e+001	-2.000000e+002	0.000000e+000	-2.000000e+002	0.000000e+000
46249290.000	5.029688e-003	-6.188262e+001	-1.066392e+002	8.149325e+001	-2.000000e+002	0.000000e+000	-2.000000e+002	0.000000e+000
46899280.000	5.181531e-003	-6.274561e+001	-1.002172e+002	1.845138e+001	-2.000000e+002	0.000000e+000	-2.000000e+002	0.000000e+000
47549270.000	3.705185e-003	-6.361867e+001	-1.027357e+002	1.288824e+001	-2.000000e+002	0.000000e+000	-2.000000e+002	0.000000e+000
48199260.000	3.063649e-003	-6.449274e+001	-1.006283e+002	1.084716e+002	-2.000000e+002	0.000000e+000	-2.000000e+002	0.000000e+000
48849250.000	2.403498e-003	-6.536434e+001	-9.937123e+001	3.508493e+001	-2.000000e+002	0.000000e+000	-2.000000e+002	0.000000e+000
49499240.000	2.792208e-003	-6.623330e+001	-1.030722e+002	1.554090e+002	-2.000000e+002	0.000000e+000	-2.000000e+002	0.000000e+000
50149230.000	2.247500e-003	-6.711334e+001	-9.915714e+001	6.229604e+001	-2.000000e+002	0.000000e+000	-2.000000e+002	0.000000e+000
50799220.000	2.244967e-003	-6.799234e+001	-1.021433e+002	9.598270e+001	-2.000000e+002	0.000000e+000	-2.000000e+002	0.000000e+000
51449210.000	2.807954e-003	-6.886309e+001	-1.045918e+002	2.150751e+001	-2.000000e+002	0.000000e+000	-2.000000e+002	0.000000e+000
52099200.000	2.303365e-003	-6.974121e+001	-1.030645e+002	7.952556e+001	-2.000000e+002	0.000000e+000	-2.000000e+002	0.000000e+000
52749190.000	1.115808e-003	-7.062029e+001	-1.014610e+002	1.386748e+002	-2.000000e+002	0.000000e+000	-2.000000e+002	0.000000e+000
53399180.000	4.757476e-004	-7.149658e+001	-9.992840e+001	5.806564e+001	-2.000000e+002	0.000000e+000	-2.000000e+002	0.000000e+000
54049170.000	-2.501855e-004	-7.237488e+001	-1.047868e+002	-1.188192e+001	-2.000000e+002	0.000000e+000	-2.000000e+002	0.000000e+000
54699160.000	-1.329320e-003	-7.325650e+001	-1.055105e+002	8.175941e+001	-2.000000e+002	0.000000e+000	-2.000000e+002	0.000000e+000
55349150.000	-1.956359e-003	-7.413635e+001	-1.084308e+002	1.558554e+002	-2.000000e+002	0.000000e+000	-2.000000e+002	0.000000e+000
55999140.000	-3.010412e-003	-7.501453e+001	-1.014025e+002	1.069067e+002	-2.000000e+002	0.000000e+000	-2.000000e+002	0.000000e+000
56649130.000	-4.447124e-003	-7.589565e+001	-1.064789e+002	-5.289851e+001	-2.000000e+002	0.000000e+000	-2.000000e+002	0.000000e+000
57299120.000	-5.846914e-003	-7.677408e+001	-1.008483e+002	5.931966e+001	-2.000000e+002	0.000000e+000	-2.000000e+002	0.000000e+000
57949110.000	-6.938396e-003	-7.765732e+001	-9.983558e+001	4.243970e+001	-2.000000e+002	0.000000e+000	-2.000000e+002	0.000000e+000
58599100.000	-7.554088e-003	-7.853484e+001	-1.022822e+002	1.788118e+001	-2.000000e+002	0.000000e+000	-2.000000e+002	0.000000e+000
59249090.000	-9.297276e-003	-7.941782e+001	-9.806212e+001	3.208693e+001	-2.000000e+002	0.000000e+000	-2.000000e+002	0.000000e+000
59899080.000	-1.028052e-002	-8.029544e+001	-1.066521e+002	-8.617605e-001	-2.000000e+002	0.000000e+000	-2.000000e+002	0.000000e+000
60549070.000	-1.235408e-002	-8.117957e+001	-9.530189e+001	3.407774e+001	-2.000000e+002	0.000000e+000	-2.000000e+002	0.000000e+000
61199060.000	-1.411931e-002	-8.206226e+001	-1.054347e+002	-8.280170e+001	-2.000000e+002	0.000000e+000	-2.000000e+002	0.000000e+000
61849050.000	-1.562534e-002	-8.294363e+001	-9.576069e+001	6.613215e+001	-2.000000e+002	0.000000e+000	-2.000000e+002	0.000000e+000
62499040.000	-1.738488e-002	-8.382685e+001	-9.540482e+001	-3.280542e+000	-2.000000e+002	0.000000e+000	-2.000000e+002	0.000000e+000
63149030.000	-1.898352e-002	-8.470954e+001	-9.972980e+001	7.064443e+001	-2.000000e+002	0.000000e+000	-2.000000e+002	0.000000e+000
63799020.000	-2.054020e-002	-8.559277e+001	-9.442537e+001	5.356566e+001	-2.000000e+002	0.000000e+000	-2.000000e+002	0.000000e+000
64449010.000	-2.241260e-002	-8.647962e+001	-1.048285e+002	1.272959e+002	-2.000000e+002	0.000000e+000	-2.000000e+002	0.000000e+000
65099000.000	-2.466247e-002	-8.736172e+001	-1.055690e+002	1.088437e+001	-2.000000e+002	0.000000e+000	-2.000000e+002	0.000000e+000
65748990.000	-2.606381e-002	-8.824398e+001	-1.116576e+002	-1.131998e+000	-2.000000e+002	0.000000e+000	-2.000000e+002	0.000000e+000
66398980.000	-2.758775e-002	-8.912958e+001	-1.050401e+002	2.294750e+001	-2.000000e+002	0.000000e+000	-2.000000e+002	0.000000e+000
67048970.000	-2.914458e-002	-9.001378e+001	-1.058204e+002	-3.865256e+001	-2.000000e+002	0.000000e+000	-2.000000e+002	0.000000e+000
67698960.000	-3.125740e-002	-9.090090e+001	-9.762709e+001	3.480712e+000	-2.000000e+002	0.000000e+000	-2.000000e+002	0.000000e+000
68348950.000	-3.328932e-002	-9.178396e+001	-1.022898e+002	-6.275217e+001	-2.000000e+002	0.000000e+000	-2.000000e+002	0.000000e+000
68998940.000	-3.505286e-002	-9.267143e+001	-9.539309e+001	2.905935e+001	-2.000000e+002	0.000000e+000	-2.000000e+002	0.000000e+000
69648930.000	-3.648478e-002	-9.355694e+001	-1.067480e+002	4.097075e+001	-2.000000e+002	0.000000e+000	-2.000000e+002	0.000000e+000
70298920.000	-3.797838e-002	-9.444166e+001	-1.016703e+002	5.130537e+001	-2.000000e+002	0.000000e+000	-2.000000e+002	0.000000e+000
70948910.000	-4.006212e-002	-9.533269e+001	-1.005089e+002	8.825323e+001	-2.000000e+002	0.000000e+000	-2.000000e+002	0.000000e+000
71598900.000	-4.169121e-002	-9.622254e+001	-9.763464e+001	6.245745e+001	-2.000000e+002	0.000000e+000	-2.000000e+002	0.000000e+000
72248890.000	-4.359508e-002	-9.711330e+001	-9.770906e+001	7.460618e+001	-2.000000e+002	0.000000e+000	-2.000000e+002	0.000000e+000
72898880.000	-4.536059e-002	-9.800282e+001	-9.866589e+001	3.695430e+001	-2.000000e+002	0.000000e+000	-2.000000e+002	0.000000e+000
73548870.000	-4.743601e-002	-9.889561e+001	-1.027080e+002	1.406664e+001	-2.000000e+002	0.000000e+000	-2.000000e+002	0.000000e+000
74198860.000	-4.912393e-002	-9.978880e+001	-9.618536e+001	3.604108e+001	-2.000000e+002	0.000000e+000	-2.000000e+002	0.000000e+000
74848850.000	-5.110339e-002	-1.006849e+002	-9.824154e+001	5.004690e+001	-2.000000e+002	0.000000e+000	-2.000000e+002	0.000000e+000
75498840.000	-5.313932e-002	-1.015772e+002	-1.000263e+002	6.591655e+001	-2.000000e+002	0.000000e+000	-2.000000e+002	0.000000e+000
76148830.000	-5.457662e-002	-1.024750e+002	-1.109240e+002	6.452687e+001	-2.000000e+002	0.000000e+000	-2.000000e+002	0.000000e+000
76798820.000	-5.674976e-002	-1.033683e+002	-1.124023e+002	1.780020e+002	-2.000000e+002	0.000000e+000	-2.000000e+002	0.000000e+000
77448810.000	-5.938097e-002	-1.042705e+002	-9.697048e+001	-1.395772e+000	-2.000000e+002	0.000000e+000	-2.000000e+002	0.000000e+000
78098800.000	-6.146674e-002	-1.051698e+002	-1.024465e+002	9.180533e+001	-2.000000e+002	0.000000e+000	-2.000000e+002	0.000000e+000
78748790.000	-6.386097e-002	-1.060666e+002	-1.058081e+002	2.782639e+001	-2.000000e+002	0.000000e+000	-2.000000e+002	0.000000e+000
79398780.000	-6.583746e-002	-1.069659e+002	-1.018760e+002	-3.403520e+001	-2.000000e+002	0.000000e+000	-2.000000e+002	0.000000e+000
80048770.000	-6.791033e-002	-1.078659e+002	-1.065721e+002	9.768237e+001	-2.000000e+002	0.000000e+000	-2.000000e+002	0.000000e+000
80698760.000	-7.037174e-002	-1.087637e+002	-9.477845e+001	6.337388e+001	-2.000000e+002	0.000000e+000	-2.000000e+002	0.000000e+000
81348750.000	-7.254067e-002	-1.096646e+002	-1.032825e+002	2.890596e+001	-2.000000e+002	0.000000e+000	-2.000000e+002	0.000000e+000
81998740.000	-7.476586e-002	-1.105673e+002	-9.741270e+001	9.930651e+000	-2.000000e+002	0.000000e+000	-2.000000e+002	0.000000e+000
82648730.000	-7.745745e-002	-1.114791e+002	-9.673414e+001	3.479285e+001	-2.000000e+002	0.000000e+000	-2.000000e+002	0.000000e+000
83298720.000	-8.013590e-002	-1.123848e+002	-9.895720e+001	1.718629e+001	-2.000000e+002	0.000000e+000	-2.000000e+002	0.000000e+000
83948710.000	-8.266763e-002	-1.132904e+002	-9.985161e+001	4.683884e+001	-2.000000e+002	0.000000e+000	-2.000000e+002	0.000000e+000
84598700.000	-8.559836e-002	-1.141958e+002	-9.769271e+001	8.845269e+001	-2.000000e+002	0.000000e+000	-2.000000e+002	0.000000e+000
85248690.000	-8.822011e-002	-1.151048e+002	-9.605137e+001	-5.762579e+000	-2.000000e+002	0.000000e+000	-2.000000e+002	0.000000e+000
85898680.000	-9.110856e-002	-1.160125e+002	-9.548603e+001	-1.643941e+001	-2.000000e+002	0.000000e+000	-2.000000e+002	0.000000e+000
86548670.000	-9.403234e-002	-1.169205e+002	-1.048890e+002	6.042802e+001	-2.000000e+002	0.000000e+000	-2.000000e+002	0.000000e+000
87198660.000	-9.688574e-002	-1.178301e+002	-9.868422e+001	2.406606e+001	-2.000000e+002	0.000000e+000	-2.000000e+002	0.000000e+000
87848650.000	-1.001577e-001	-1.187407e+002	-9.905788e+001	4.721868e+001	-2.000000e+002	0.000000e+000	-2.000000e+002	0.000000e+000
88498640.000	-1.030262e-001	-1.196532e+002	-9.324324e+001	3.284243e+001	-2.000000e+002	0.000000e+000	-2.000000e+002	0.000000e+000
89148630.000	-1.064167e-001	-1.205689e+002	-9.439480e+001	3.396615e+001	-2.000000e+002	0.000000e+000	-2.000000e+002	0.000000e+000
89798620.000	-1.100111e-001	-1.214828e+002	-9.553738e+001	6.463785e+001	-2.000000e+002	0.000000e+000	-2.000000e+002	0.000000e+000
90448610.000	-1.129582e-001	-1.224000e+002	-1.021550e+002	1.047218e+001	-2.000000e+002	0.000000e+000	-2.000000e+002	0.000000e+000
91098600.000	-1.167310e-001	-1.233206e+002	-9.641101e+001	4.117346e+001	-2.000000e+002	0.000000e+000	-2.000000e+002	0.000000e+000
91748590.000	-1.205993e-001	-1.242380e+002	-1.020630e+002	2.624298e+001	-2.000000e+002	0.000000e+000	-2.000000e+002	0.000000e+000
92398580.000	-1.253646e-001	-1.251572e+002	-1.003762e+002	-5.811779e+000	-2.000000e+002	0.000000e+000	-2.000000e+002	0.000000e+000
93048570.000	-1.301211e-001	-1.260755e+002	-9.824374e+001	7.633712e+001	-2.000000e+002	0.000000e+000	-2.000000e+002	0.000000e+000
93698560.000	-1.344783e-001	-1.269908e+002	-9.710523e+001	5.906797e+001	-2.000000e+002	0.000000e+000	-2.000000e+002	0.000000e+000
94348550.000	-1.387646e-001	-1.279060e+002	-9.640132e+001	5.338240e+001	-2.000000e+002	0.000000e+000	-2.000000e+002	0.000000e+000
94998540.000	-1.441200e-001	-1.288183e+002	-9.357956e+001	5.758759e+001	-2.000000e+002	0.000000e+000	-2.000000e+002	0.000000e+000
95648530.000	-1.477616e-001	-1.297365e+002	-9.392613e+001	5.411170e+001	-2.000000e+002	0.000000e+000	-2.000000e+002	0.000000e+000
96298520.000	-1.519453e-001	-1.306563e+002	-9.541252e+001	3.719197e+001	-2.000000e+002	0.000000e+000	-2.000000e+002	0.000000e+000
96948510.000	-1.560025e-001	-1.315733e+002	-9.720616e+001	1.251242e+002	-2.000000e+002	0.000000e+000	-2.000000e+002	0.000000e+000
97598500.000	-1.601725e-001	-1.324938e+002	-9.862637e+001	4.357535e+001	-2.000000e+002	0.000000e+000	-2.000000e+002	0.000000e+000
98248490.000	-1.644989e-001	-1.334197e+002	-9.231500e+001	5.032864e+001	-2.000000e+002	0.000000e+000	-2.000000e+002	0.000000e+000
