!Keysight Technologies,E5063A,MY54503115,A.05.08
!Date: Wed Oct 18 14:30:33 2023
!Data & Calibration Information:
!Freq	S11:NONE(--)	S21:NONE(--)	S12:NONE(--)	S22:NONE(--)
# Hz S dB R 50
300000.000	1.218356e-002	-4.495886e-001	-2.000000e+002	0.000000e+000	-6.274211e+001	1.346115e+002	-2.000000e+002	0.000000e+000
949970.000	-1.543784e-002	-3.570961e-001	-2.000000e+002	0.000000e+000	-6.902677e+001	-1.785960e+002	-2.000000e+002	0.000000e+000
1599940.000	-8.899240e-003	-3.256335e-001	-2.000000e+002	0.000000e+000	-6.341978e+001	1.058445e+002	-2.000000e+002	0.000000e+000
2249910.000	-7.900039e-003	-3.650032e-001	-2.000000e+002	0.000000e+000	-6.710053e+001	-1.474776e+002	-2.000000e+002	0.000000e+000
2899880.000	-1.018786e-002	-3.087239e-001	-2.000000e+002	0.000000e+000	-7.636724e+001	6.464214e+001	-2.000000e+002	0.000000e+000
3549850.000	-3.912322e-003	-2.959426e-001	-2.000000e+002	0.000000e+000	-7.031244e+001	-1.275699e+002	-2.000000e+002	0.000000e+000
4199820.000	-1.469581e-003	-3.205063e-001	-2.000000e+002	0.000000e+000	-6.964807e+001	-1.053292e+002	-2.000000e+002	0.000000e+000
4849790.000	-5.565481e-003	-3.308174e-001	-2.000000e+002	0.000000e+000	-7.194947e+001	-1.575675e+002	-2.000000e+002	0.000000e+000
5499760.000	-6.325120e-003	-2.823363e-001	-2.000000e+002	0.000000e+000	-8.338563e+001	1.652975e+002	-2.000000e+002	0.000000e+000
6149730.000	-1.211200e-002	-3.067266e-001	-2.000000e+002	0.000000e+000	-8.215504e+001	-5.434252e+001	-2.000000e+002	0.000000e+000
6799700.000	-1.090123e-002	-3.248778e-001	-2.000000e+002	0.000000e+000	-6.751132e+001	3.942479e+001	-2.000000e+002	0.000000e+000
7449670.000	-8.940289e-003	-2.915241e-001	-2.000000e+002	0.000000e+000	-7.192358e+001	2.055306e+001	-2.000000e+002	0.000000e+000
8099640.000	-1.718168e-003	-3.598159e-001	-2.000000e+002	0.000000e+000	-6.951419e+001	4.961488e+001	-2.000000e+002	0.000000e+000
8749610.000	-4.568328e-003	-3.660914e-001	-2.000000e+002	0.000000e+000	-8.311068e+001	1.369237e+002	-2.000000e+002	0.000000e+000
9399580.000	-2.160096e-003	-3.832326e-001	-2.000000e+002	0.000000e+000	-8.996756e+001	-1.765245e+002	-2.000000e+002	0.000000e+000
10049550.000	-2.679590e-003	-3.783189e-001	-2.000000e+002	0.000000e+000	-7.790999e+001	-4.925286e+001	-2.000000e+002	0.000000e+000
10699520.000	-9.630044e-003	-3.709666e-001	-2.000000e+002	0.000000e+000	-7.913533e+001	-8.485973e+001	-2.000000e+002	0.000000e+000
11349490.000	-5.234628e-003	-3.809068e-001	-2.000000e+002	0.000000e+000	-8.844717e+001	-7.762451e+001	-2.000000e+002	0.000000e+000
11999460.000	-6.368408e-003	-3.754142e-001	-2.000000e+002	0.000000e+000	-1.051548e+002	1.317724e+002	-2.000000e+002	0.000000e+000
12649430.000	-6.559867e-003	-4.056457e-001	-2.000000e+002	0.000000e+000	-8.532728e+001	1.163700e+002	-2.000000e+002	0.000000e+000
13299400.000	-4.186719e-003	-4.022995e-001	-2.000000e+002	0.000000e+000	-8.837693e+001	9.799289e+001	-2.000000e+002	0.000000e+000
13949370.000	-6.469284e-003	-4.213539e-001	-2.000000e+002	0.000000e+000	-8.727691e+001	5.272120e+001	-2.000000e+002	0.000000e+000
14599340.000	-5.036240e-003	-4.591019e-001	-2.000000e+002	0.000000e+000	-8.670984e+001	3.611846e+001	-2.000000e+002	0.000000e+000
15249310.000	-4.055972e-003	-4.400908e-001	-2.000000e+002	0.000000e+000	-1.017464e+002	1.181255e+002	-2.000000e+002	0.000000e+000
15899280.000	-5.483647e-003	-4.396506e-001	-2.000000e+002	0.000000e+000	-8.201905e+001	-6.448666e+001	-2.000000e+002	0.000000e+000
16549250.000	-5.968316e-003	-4.419766e-001	-2.000000e+002	0.000000e+000	-7.806743e+001	8.593929e+000	-2.000000e+002	0.000000e+000
17199220.000	-8.105129e-003	-4.743066e-001	-2.000000e+002	0.000000e+000	-1.001878e+002	-5.006629e+001	-2.000000e+002	0.000000e+000
17849190.000	-1.830759e-003	-4.937464e-001	-2.000000e+002	0.000000e+000	-8.098796e+001	1.235593e+002	-2.000000e+002	0.000000e+000
18499160.000	-3.727285e-004	-5.047877e-001	-2.000000e+002	0.000000e+000	-8.818793e+001	1.171028e+002	-2.000000e+002	0.000000e+000
19149130.000	-3.991599e-003	-5.035812e-001	-2.000000e+002	0.000000e+000	-9.130360e+001	1.095243e+002	-2.000000e+002	0.000000e+000
19799100.000	-9.679465e-003	-4.729454e-001	-2.000000e+002	0.000000e+000	-8.675641e+001	-5.203454e+001	-2.000000e+002	0.000000e+000
20449070.000	-1.278883e-002	-4.523227e-001	-2.000000e+002	0.000000e+000	-8.161541e+001	-1.428756e+002	-2.000000e+002	0.000000e+000
21099040.000	-1.088970e-002	-5.049473e-001	-2.000000e+002	0.000000e+000	-8.977950e+001	1.620600e+002	-2.000000e+002	0.000000e+000
21749010.000	-1.188044e-002	-5.049419e-001	-2.000000e+002	0.000000e+000	-8.483441e+001	1.457786e+002	-2.000000e+002	0.000000e+000
22398980.000	-1.001403e-002	-4.983803e-001	-2.000000e+002	0.000000e+000	-8.045036e+001	-1.509821e+002	-2.000000e+002	0.000000e+000
23048950.000	-3.504176e-003	-4.742788e-001	-2.000000e+002	0.000000e+000	-9.087560e+001	-4.882820e+001	-2.000000e+002	0.000000e+000
23698920.000	-4.958348e-003	-5.024282e-001	-2.000000e+002	0.000000e+000	-8.589197e+001	6.763586e+001	-2.000000e+002	0.000000e+000
24348890.000	-4.891679e-003	-5.119540e-001	-2.000000e+002	0.000000e+000	-8.249931e+001	1.327739e+002	-2.000000e+002	0.000000e+000
24998860.000	-5.921448e-003	-5.062542e-001	-2.000000e+002	0.000000e+000	-7.728243e+001	-1.110583e+002	-2.000000e+002	0.000000e+000
25648830.000	-2.069350e-003	-5.326500e-001	-2.000000e+002	0.000000e+000	-8.865021e+001	-6.663882e+001	-2.000000e+002	0.000000e+000
26298800.000	-1.743616e-003	-5.239837e-001	-2.000000e+002	0.000000e+000	-9.003041e+001	-1.170143e+002	-2.000000e+002	0.000000e+000
26948770.000	-1.321100e-004	-5.410594e-001	-2.000000e+002	0.000000e+000	-9.013158e+001	6.121368e+001	-2.000000e+002	0.000000e+000
27598740.000	7.917527e-004	-5.680821e-001	-2.000000e+002	0.000000e+000	-9.548319e+001	1.128044e+001	-2.000000e+002	0.000000e+000
28248710.000	6.321207e-004	-5.740052e-001	-2.000000e+002	0.000000e+000	-8.719140e+001	-1.105572e+002	-2.000000e+002	0.000000e+000
28898680.000	2.220828e-003	-5.834787e-001	-2.000000e+002	0.000000e+000	-8.206675e+001	-1.551636e+002	-2.000000e+002	0.000000e+000
29548650.000	1.445751e-004	-5.667584e-001	-2.000000e+002	0.000000e+000	-9.251431e+001	-8.828008e+001	-2.000000e+002	0.000000e+000
30198620.000	1.795195e-003	-5.981964e-001	-2.000000e+002	0.000000e+000	-8.320919e+001	6.689692e+001	-2.000000e+002	0.000000e+000
30848590.000	3.886888e-003	-6.274405e-001	-2.000000e+002	0.000000e+000	-8.224551e+001	-1.273653e+002	-2.000000e+002	0.000000e+000
31498560.000	-3.958721e-003	-6.233523e-001	-2.000000e+002	0.000000e+000	-8.366825e+001	-1.229267e+001	-2.000000e+002	0.000000e+000
32148530.000	4.942836e-004	-6.362726e-001	-2.000000e+002	0.000000e+000	-8.350668e+001	-9.701873e+001	-2.000000e+002	0.000000e+000
32798500.000	4.319671e-003	-6.505473e-001	-2.000000e+002	0.000000e+000	-8.149485e+001	7.454807e+001	-2.000000e+002	0.000000e+000
33448470.000	-2.279340e-004	-6.720464e-001	-2.000000e+002	0.000000e+000	-8.053562e+001	-2.506815e+001	-2.000000e+002	0.000000e+000
34098440.000	8.636535e-004	-6.689796e-001	-2.000000e+002	0.000000e+000	-8.508240e+001	-3.213234e+000	-2.000000e+002	0.000000e+000
34748410.000	5.441879e-003	-6.496580e-001	-2.000000e+002	0.000000e+000	-9.135120e+001	1.056866e+002	-2.000000e+002	0.000000e+000
35398380.000	2.163366e-004	-6.853996e-001	-2.000000e+002	0.000000e+000	-8.931813e+001	-4.080568e+001	-2.000000e+002	0.000000e+000
36048350.000	4.370481e-003	-6.730308e-001	-2.000000e+002	0.000000e+000	-8.353122e+001	1.122415e+002	-2.000000e+002	0.000000e+000
36698320.000	3.415246e-003	-6.715981e-001	-2.000000e+002	0.000000e+000	-8.463461e+001	1.215328e+002	-2.000000e+002	0.000000e+000
37348290.000	-2.976829e-003	-6.957348e-001	-2.000000e+002	0.000000e+000	-8.288856e+001	1.540485e+002	-2.000000e+002	0.000000e+000
37998260.000	-3.254819e-004	-6.931347e-001	-2.000000e+002	0.000000e+000	-8.653805e+001	6.492585e+001	-2.000000e+002	0.000000e+000
38648230.000	3.127899e-003	-7.500443e-001	-2.000000e+002	0.000000e+000	-9.003773e+001	-1.413633e+002	-2.000000e+002	0.000000e+000
39298200.000	3.975819e-003	-7.489636e-001	-2.000000e+002	0.000000e+000	-9.251437e+001	-3.156075e+001	-2.000000e+002	0.000000e+000
39948170.000	1.283658e-003	-7.804149e-001	-2.000000e+002	0.000000e+000	-8.237757e+001	-1.175496e+002	-2.000000e+002	0.000000e+000
40598140.000	1.574971e-003	-7.478040e-001	-2.000000e+002	0.000000e+000	-8.683388e+001	1.122016e+002	-2.000000e+002	0.000000e+000
41248110.000	2.893865e-003	-7.619727e-001	-2.000000e+002	0.000000e+000	-1.016679e+002	6.045150e-001	-2.000000e+002	0.000000e+000
41898080.000	2.778918e-003	-7.708377e-001	-2.000000e+002	0.000000e+000	-8.616510e+001	-1.146300e+002	-2.000000e+002	0.000000e+000
42548050.000	5.190332e-003	-7.932702e-001	-2.000000e+002	0.000000e+000	-8.219866e+001	-2.360177e+001	-2.000000e+002	0.000000e+000
43198020.000	4.159531e-003	-8.105564e-001	-2.000000e+002	0.000000e+000	-8.255589e+001	-9.328751e+001	-2.000000e+002	0.000000e+000
43847990.000	2.122535e-003	-7.881673e-001	-2.000000e+002	0.000000e+000	-8.768122e+001	-1.046302e+002	-2.000000e+002	0.000000e+000
44497960.000	4.781778e-003	-8.268584e-001	-2.000000e+002	0.000000e+000	-8.154148e+001	1.766228e+002	-2.000000e+002	0.000000e+000
45147930.000	1.747261e-003	-8.249197e-001	-2.000000e+002	0.000000e+000	-9.555669e+001	1.346891e+002	-2.000000e+002	0.000000e+000
45797900.000	2.094319e-003	-8.498992e-001	-2.000000e+002	0.000000e+000	-1.003065e+002	1.347993e+002	-2.000000e+002	0.000000e+000
46447870.000	3.638054e-003	-8.380862e-001	-2.000000e+002	0.000000e+000	-1.011846e+002	-1.212408e+002	-2.000000e+002	0.000000e+000
47097840.000	-5.325976e-004	-8.495183e-001	-2.000000e+002	0.000000e+000	-8.317804e+001	1.868505e+001	-2.000000e+002	0.000000e+000
47747810.000	4.473107e-003	-8.559908e-001	-2.000000e+002	0.000000e+000	-1.025171e+002	-1.155899e+002	-2.000000e+002	0.000000e+000
48397780.000	5.497883e-004	-8.811279e-001	-2.000000e+002	0.000000e+000	-8.742873e+001	-1.147239e+002	-2.000000e+002	0.000000e+000
49047750.000	2.564776e-003	-8.837621e-001	-2.000000e+002	0.000000e+000	-8.961382e+001	-1.050384e+002	-2.000000e+002	0.000000e+000
49697720.000	4.184205e-003	-9.051914e-001	-2.000000e+002	0.000000e+000	-8.102875e+001	-4.079310e+001	-2.000000e+002	0.000000e+000
50347690.000	2.225273e-003	-8.891559e-001	-2.000000e+002	0.000000e+000	-8.168075e+001	1.309836e+002	-2.000000e+002	0.000000e+000
50997660.000	-6.190690e-004	-9.139299e-001	-2.000000e+002	0.000000e+000	-9.459158e+001	1.599088e+002	-2.000000e+002	0.000000e+000
51647630.000	6.370956e-003	-9.124772e-001	-2.000000e+002	0.000000e+000	-8.063482e+001	7.162772e+001	-2.000000e+002	0.000000e+000
52297600.000	4.795026e-003	-9.139499e-001	-2.000000e+002	0.000000e+000	-8.650752e+001	-6.011161e+001	-2.000000e+002	0.000000e+000
52947570.000	3.794356e-003	-9.119711e-001	-2.000000e+002	0.000000e+000	-8.254574e+001	1.397621e+002	-2.000000e+002	0.000000e+000
53597540.000	4.001500e-003	-9.245146e-001	-2.000000e+002	0.000000e+000	-7.765309e+001	7.192347e+001	-2.000000e+002	0.000000e+000
54247510.000	2.504214e-003	-9.726809e-001	-2.000000e+002	0.000000e+000	-9.051671e+001	3.179994e+001	-2.000000e+002	0.000000e+000
54897480.000	3.258244e-003	-9.734547e-001	-2.000000e+002	0.000000e+000	-8.815462e+001	-2.973161e+001	-2.000000e+002	0.000000e+000
55547450.000	2.550107e-003	-9.967688e-001	-2.000000e+002	0.000000e+000	-8.952111e+001	6.395416e+001	-2.000000e+002	0.000000e+000
56197420.000	2.759228e-003	-1.002596e+000	-2.000000e+002	0.000000e+000	-1.037045e+002	4.500029e+001	-2.000000e+002	0.000000e+000
56847390.000	3.732955e-003	-1.010050e+000	-2.000000e+002	0.000000e+000	-8.053183e+001	-4.203380e+000	-2.000000e+002	0.000000e+000
57497360.000	7.724275e-004	-1.010259e+000	-2.000000e+002	0.000000e+000	-9.096331e+001	1.011054e+002	-2.000000e+002	0.000000e+000
58147330.000	3.956688e-003	-1.031641e+000	-2.000000e+002	0.000000e+000	-8.941571e+001	-7.317559e+001	-2.000000e+002	0.000000e+000
58797300.000	4.340443e-004	-1.020028e+000	-2.000000e+002	0.000000e+000	-8.685269e+001	1.559737e+002	-2.000000e+002	0.000000e+000
59447270.000	1.441633e-003	-1.028861e+000	-2.000000e+002	0.000000e+000	-9.023688e+001	-1.473325e+002	-2.000000e+002	0.000000e+000
60097240.000	2.901455e-003	-1.029280e+000	-2.000000e+002	0.000000e+000	-8.696401e+001	1.663429e+002	-2.000000e+002	0.000000e+000
60747210.000	1.324826e-003	-1.022751e+000	-2.000000e+002	0.000000e+000	-8.088121e+001	-1.172832e+002	-2.000000e+002	0.000000e+000
61397180.000	1.112619e-003	-1.029611e+000	-2.000000e+002	0.000000e+000	-8.883049e+001	1.383601e+002	-2.000000e+002	0.000000e+000
62047150.000	5.256886e-003	-1.043154e+000	-2.000000e+002	0.000000e+000	-8.187481e+001	-7.149180e+001	-2.000000e+002	0.000000e+000
62697120.000	1.903297e-003	-1.070177e+000	-2.000000e+002	0.000000e+000	-9.273361e+001	-4.758418e+001	-2.000000e+002	0.000000e+000
63347090.000	2.178896e-003	-1.050315e+000	-2.000000e+002	0.000000e+000	-9.362893e+001	8.608170e-001	-2.000000e+002	0.000000e+000
63997060.000	2.583662e-003	-1.055286e+000	-2.000000e+002	0.000000e+000	-9.444465e+001	1.298915e+002	-2.000000e+002	0.000000e+000
64647030.000	1.270941e-003	-1.066640e+000	-2.000000e+002	0.000000e+000	-8.245987e+001	-1.966211e+001	-2.000000e+002	0.000000e+000
65297000.000	3.055125e-003	-1.122824e+000	-2.000000e+002	0.000000e+000	-8.495772e+001	-1.505431e+002	-2.000000e+002	0.000000e+000
65946970.000	-2.538501e-003	-1.109929e+000	-2.000000e+002	0.000000e+000	-8.109126e+001	1.050733e+002	-2.000000e+002	0.000000e+000
66596940.000	6.105806e-004	-1.095349e+000	-2.000000e+002	0.000000e+000	-8.367869e+001	1.433887e+002	-2.000000e+002	0.000000e+000
67246910.000	5.698843e-004	-1.136298e+000	-2.000000e+002	0.000000e+000	-8.687332e+001	-7.526402e+001	-2.000000e+002	0.000000e+000
67896880.000	-7.753528e-004	-1.110650e+000	-2.000000e+002	0.000000e+000	-8.791637e+001	1.581803e+002	-2.000000e+002	0.000000e+000
68546850.000	-1.210883e-003	-1.127031e+000	-2.000000e+002	0.000000e+000	-8.948154e+001	-1.536501e+002	-2.000000e+002	0.000000e+000
69196820.000	1.420006e-003	-1.130894e+000	-2.000000e+002	0.000000e+000	-8.663640e+001	-1.652710e+002	-2.000000e+002	0.000000e+000
69846790.000	-8.277261e-004	-1.129430e+000	-2.000000e+002	0.000000e+000	-8.501088e+001	-1.157783e+002	-2.000000e+002	0.000000e+000
70496760.000	1.693067e-004	-1.146808e+000	-2.000000e+002	0.000000e+000	-7.802648e+001	6.925328e+001	-2.000000e+002	0.000000e+000
71146730.000	1.922482e-003	-1.171304e+000	-2.000000e+002	0.000000e+000	-9.152829e+001	-2.638597e+001	-2.000000e+002	0.000000e+000
71796700.000	-1.672987e-003	-1.187023e+000	-2.000000e+002	0.000000e+000	-9.667153e+001	2.610490e+001	-2.000000e+002	0.000000e+000
72446670.000	8.323898e-004	-1.216883e+000	-2.000000e+002	0.000000e+000	-8.272239e+001	-1.097572e+002	-2.000000e+002	0.000000e+000
73096640.000	-3.212488e-003	-1.187118e+000	-2.000000e+002	0.000000e+000	-9.684228e+001	6.929331e+001	-2.000000e+002	0.000000e+000
73746610.000	2.410684e-003	-1.186829e+000	-2.000000e+002	0.000000e+000	-8.592439e+001	-1.773451e+002	-2.000000e+002	0.000000e+000
74396580.000	2.815097e-003	-1.203798e+000	-2.000000e+002	0.000000e+000	-8.535643e+001	2.417073e+001	-2.000000e+002	0.000000e+000
75046550.000	1.001397e-003	-1.216156e+000	-2.000000e+002	0.000000e+000	-8.598818e+001	1.398940e+002	-2.000000e+002	0.000000e+000
75696520.000	-1.053346e-004	-1.231513e+000	-2.000000e+002	0.000000e+000	-8.925529e+001	5.741157e+001	-2.000000e+002	0.000000e+000
76346490.000	4.211874e-003	-1.199027e+000	-2.000000e+002	0.000000e+000	-8.456010e+001	1.272959e+002	-2.000000e+002	0.000000e+000
76996460.000	3.836584e-003	-1.237831e+000	-2.000000e+002	0.000000e+000	-9.029878e+001	-3.370168e+001	-2.000000e+002	0.000000e+000
77646430.000	-1.372050e-003	-1.248970e+000	-2.000000e+002	0.000000e+000	-8.426048e+001	-1.132061e+001	-2.000000e+002	0.000000e+000
78296400.000	4.139176e-003	-1.239603e+000	-2.000000e+002	0.000000e+000	-9.093051e+001	-7.946402e+001	-2.000000e+002	0.000000e+000
78946370.000	6.587474e-004	-1.243175e+000	-2.000000e+002	0.000000e+000	-8.532593e+001	3.197569e+001	-2.000000e+002	0.000000e+000
79596340.000	5.632266e-004	-1.287430e+000	-2.000000e+002	0.000000e+000	-8.158617e+001	1.097728e+002	-2.000000e+002	0.000000e+000
80246310.000	2.634412e-003	-1.285797e+000	-2.000000e+002	0.000000e+000	-8.865681e+001	8.504728e+001	-2.000000e+002	0.000000e+000
80896280.000	7.019236e-005	-1.275780e+000	-2.000000e+002	0.000000e+000	-8.422330e+001	7.158061e+001	-2.000000e+002	0.000000e+000
81546250.000	1.824769e-003	-1.280594e+000	-2.000000e+002	0.000000e+000	-8.377379e+001	-2.041812e+000	-2.000000e+002	0.000000e+000
82196220.000	-3.634200e-003	-1.284191e+000	-2.000000e+002	0.000000e+000	-8.062080e+001	-3.809570e+001	-2.000000e+002	0.000000e+000
82846190.000	-7.231716e-004	-1.308296e+000	-2.000000e+002	0.000000e+000	-8.114154e+001	1.300389e+001	-2.000000e+002	0.000000e+000
83496160.000	-2.799452e-004	-1.329119e+000	-2.000000e+002	0.000000e+000	-1.004397e+002	-2.492627e+001	-2.000000e+002	0.000000e+000
84146130.000	1.611060e-003	-1.329333e+000	-2.000000e+002	0.000000e+000	-8.092275e+001	-1.436642e+002	-2.000000e+002	0.000000e+000
84796100.000	-2.262294e-003	-1.326603e+000	-2.000000e+002	0.000000e+000	-8.149379e+001	9.204142e+001	-2.000000e+002	0.000000e+000
85446070.000	-3.058547e-003	-1.329400e+000	-2.000000e+002	0.000000e+000	-9.807370e+001	-7.661232e-001	-2.000000e+002	0.000000e+000
86096040.000	-2.837121e-003	-1.327041e+000	-2.000000e+002	0.000000e+000	-8.603367e+001	7.813459e+001	-2.000000e+002	0.000000e+000
86746010.000	2.127638e-004	-1.361460e+000	-2.000000e+002	0.000000e+000	-8.661129e+001	6.976418e+001	-2.000000e+002	0.000000e+000
87395980.000	5.937285e-004	-1.348019e+000	-2.000000e+002	0.000000e+000	-8.799369e+001	-5.510334e+000	-2.000000e+002	0.000000e+000
88045950.000	1.629054e-003	-1.338697e+000	-2.000000e+002	0.000000e+000	-7.995728e+001	1.589587e+002	-2.000000e+002	0.000000e+000
88695920.000	1.228865e-003	-1.354268e+000	-2.000000e+002	0.000000e+000	-8.960972e+001	-1.101107e+001	-2.000000e+002	0.000000e+000
89345890.000	-2.508380e-003	-1.396824e+000	-2.000000e+002	0.000000e+000	-8.017901e+001	-1.599048e+002	-2.000000e+002	0.000000e+000
89995860.000	-6.590130e-004	-1.377992e+000	-2.000000e+002	0.000000e+000	-8.758111e+001	1.199938e+002	-2.000000e+002	0.000000e+000
90645830.000	5.867009e-004	-1.379215e+000	-2.000000e+002	0.000000e+000	-8.451431e+001	-2.968429e+001	-2.000000e+002	0.000000e+000
91295800.000	-2.853994e-004	-1.414761e+000	-2.000000e+002	0.000000e+000	-8.273693e+001	9.960676e+001	-2.000000e+002	0.000000e+000
91945770.000	-2.905201e-003	-1.406134e+000	-2.000000e+002	0.000000e+000	-8.131107e+001	-1.536101e+002	-2.000000e+002	0.000000e+000
92595740.000	1.814448e-003	-1.430738e+000	-2.000000e+002	0.000000e+000	-8.858671e+001	-1.229655e+002	-2.000000e+002	0.000000e+000
93245710.000	-2.093445e-003	-1.427591e+000	-2.000000e+002	0.000000e+000	-8.092584e+001	-4.017739e+001	-2.000000e+002	0.000000e+000
93895680.000	3.770416e-004	-1.460426e+000	-2.000000e+002	0.000000e+000	-8.744833e+001	-1.632309e+002	-2.000000e+002	0.000000e+000
94545650.000	8.712100e-004	-1.455940e+000	-2.000000e+002	0.000000e+000	-8.792033e+001	1.290071e+002	-2.000000e+002	0.000000e+000
95195620.000	1.044627e-004	-1.450929e+000	-2.000000e+002	0.000000e+000	-8.270444e+001	-2.025359e+000	-2.000000e+002	0.000000e+000
95845590.000	-8.789179e-004	-1.441229e+000	-2.000000e+002	0.000000e+000	-8.475513e+001	1.137501e+002	-2.000000e+002	0.000000e+000
96495560.000	-1.504924e-004	-1.458017e+000	-2.000000e+002	0.000000e+000	-8.585185e+001	5.258280e+000	-2.000000e+002	0.000000e+000
97145530.000	1.617751e-003	-1.467474e+000	-2.000000e+002	0.000000e+000	-8.658119e+001	-1.454718e+002	-2.000000e+002	0.000000e+000
97795500.000	4.226540e-003	-1.481203e+000	-2.000000e+002	0.000000e+000	-1.009331e+002	2.700830e+001	-2.000000e+002	0.000000e+000
98445470.000	-2.809705e-003	-1.509106e+000	-2.000000e+002	0.000000e+000	-8.260851e+001	-4.391437e+000	-2.000000e+002	0.000000e+000
