!Keysight Technologies,E5063A,MY54503115,A.05.08
!Date: Fri Oct 20 10:03:29 2023
!Data & Calibration Information:
!Freq	S11:NONE(--)	S21:NONE(--)	S12:NONE(--)	S22:NONE(--)
# Hz S dB R 50
300000.000	5.154903e-003	-5.271197e-001	-7.909380e+001	-9.440977e+001	-2.000000e+002	0.000000e+000	-2.000000e+002	0.000000e+000
949970.000	-2.975884e-003	-6.361481e-001	-8.813081e+001	1.493500e+002	-2.000000e+002	0.000000e+000	-2.000000e+002	0.000000e+000
1599940.000	-2.833966e-003	-8.039713e-001	-7.863439e+001	6.128072e+001	-2.000000e+002	0.000000e+000	-2.000000e+002	0.000000e+000
2249910.000	-1.770734e-003	-1.000720e+000	-8.992830e+001	1.409909e+002	-2.000000e+002	0.000000e+000	-2.000000e+002	0.000000e+000
2899880.000	-2.203155e-003	-1.185089e+000	-8.096301e+001	9.776537e+001	-2.000000e+002	0.000000e+000	-2.000000e+002	0.000000e+000
3549850.000	-2.518160e-003	-1.387894e+000	-7.834836e+001	1.005244e+002	-2.000000e+002	0.000000e+000	-2.000000e+002	0.000000e+000
4199820.000	-1.809402e-003	-1.599059e+000	-7.733364e+001	1.082661e+002	-2.000000e+002	0.000000e+000	-2.000000e+002	0.000000e+000
4849790.000	-1.439813e-003	-1.798534e+000	-8.155129e+001	1.242743e+002	-2.000000e+002	0.000000e+000	-2.000000e+002	0.000000e+000
5499760.000	-1.428298e-003	-1.989631e+000	-7.571054e+001	8.245000e+001	-2.000000e+002	0.000000e+000	-2.000000e+002	0.000000e+000
6149730.000	-3.143009e-003	-2.207317e+000	-7.443178e+001	8.201730e+001	-2.000000e+002	0.000000e+000	-2.000000e+002	0.000000e+000
6799700.000	-3.033016e-003	-2.403719e+000	-7.457566e+001	9.388006e+001	-2.000000e+002	0.000000e+000	-2.000000e+002	0.000000e+000
7449670.000	-1.837146e-003	-2.613717e+000	-7.499546e+001	9.272125e+001	-2.000000e+002	0.000000e+000	-2.000000e+002	0.000000e+000
8099640.000	-2.621279e-003	-2.809151e+000	-7.130579e+001	8.366669e+001	-2.000000e+002	0.000000e+000	-2.000000e+002	0.000000e+000
8749610.000	-2.520674e-004	-3.024675e+000	-7.190472e+001	8.824579e+001	-2.000000e+002	0.000000e+000	-2.000000e+002	0.000000e+000
9399580.000	-2.218606e-003	-3.227170e+000	-7.150877e+001	8.954595e+001	-2.000000e+002	0.000000e+000	-2.000000e+002	0.000000e+000
10049550.000	-1.433687e-003	-3.429502e+000	-7.108533e+001	8.776554e+001	-2.000000e+002	0.000000e+000	-2.000000e+002	0.000000e+000
10699520.000	-2.928394e-003	-3.624248e+000	-7.021861e+001	8.671717e+001	-2.000000e+002	0.000000e+000	-2.000000e+002	0.000000e+000
11349490.000	-4.414679e-003	-3.817812e+000	-6.989378e+001	8.764921e+001	-2.000000e+002	0.000000e+000	-2.000000e+002	0.000000e+000
11999460.000	-4.081839e-003	-4.022156e+000	-6.936589e+001	8.908124e+001	-2.000000e+002	0.000000e+000	-2.000000e+002	0.000000e+000
12649430.000	-2.486597e-003	-4.233919e+000	-6.918382e+001	8.711874e+001	-2.000000e+002	0.000000e+000	-2.000000e+002	0.000000e+000
13299400.000	-2.014958e-003	-4.436072e+000	-6.874079e+001	8.723719e+001	-2.000000e+002	0.000000e+000	-2.000000e+002	0.000000e+000
13949370.000	-3.244410e-003	-4.645824e+000	-6.807557e+001	8.668525e+001	-2.000000e+002	0.000000e+000	-2.000000e+002	0.000000e+000
14599340.000	-3.098610e-003	-4.852281e+000	-6.784351e+001	8.696029e+001	-2.000000e+002	0.000000e+000	-2.000000e+002	0.000000e+000
15249310.000	-4.417831e-003	-5.061934e+000	-6.795987e+001	8.540082e+001	-2.000000e+002	0.000000e+000	-2.000000e+002	0.000000e+000
15899280.000	-2.817695e-003	-5.246693e+000	-6.726677e+001	8.714571e+001	-2.000000e+002	0.000000e+000	-2.000000e+002	0.000000e+000
16549250.000	-3.647784e-003	-5.449432e+000	-6.713148e+001	8.863222e+001	-2.000000e+002	0.000000e+000	-2.000000e+002	0.000000e+000
17199220.000	-3.294318e-003	-5.668715e+000	-6.679974e+001	8.888938e+001	-2.000000e+002	0.000000e+000	-2.000000e+002	0.000000e+000
17849190.000	3.069670e-003	-5.892855e+000	-6.662905e+001	9.116390e+001	-2.000000e+002	0.000000e+000	-2.000000e+002	0.000000e+000
18499160.000	3.339199e-003	-6.100730e+000	-6.613691e+001	9.271535e+001	-2.000000e+002	0.000000e+000	-2.000000e+002	0.000000e+000
19149130.000	8.894568e-004	-6.289692e+000	-6.538206e+001	9.195587e+001	-2.000000e+002	0.000000e+000	-2.000000e+002	0.000000e+000
19799100.000	-4.088132e-003	-6.450930e+000	-6.450002e+001	9.144888e+001	-2.000000e+002	0.000000e+000	-2.000000e+002	0.000000e+000
20449070.000	-8.024178e-003	-6.660424e+000	-6.424867e+001	9.129406e+001	-2.000000e+002	0.000000e+000	-2.000000e+002	0.000000e+000
21099040.000	-8.063165e-003	-6.885482e+000	-6.397939e+001	8.957237e+001	-2.000000e+002	0.000000e+000	-2.000000e+002	0.000000e+000
21749010.000	-8.433499e-003	-7.091203e+000	-6.366441e+001	8.989473e+001	-2.000000e+002	0.000000e+000	-2.000000e+002	0.000000e+000
22398980.000	-6.085509e-003	-7.276263e+000	-6.340490e+001	8.991920e+001	-2.000000e+002	0.000000e+000	-2.000000e+002	0.000000e+000
23048950.000	-2.964192e-003	-7.447713e+000	-6.315088e+001	8.937445e+001	-2.000000e+002	0.000000e+000	-2.000000e+002	0.000000e+000
23698920.000	-4.803347e-003	-7.658253e+000	-6.296909e+001	8.907562e+001	-2.000000e+002	0.000000e+000	-2.000000e+002	0.000000e+000
24348890.000	-5.317413e-003	-7.868002e+000	-6.261850e+001	8.792687e+001	-2.000000e+002	0.000000e+000	-2.000000e+002	0.000000e+000
24998860.000	-4.566413e-003	-8.068206e+000	-6.242674e+001	8.809949e+001	-2.000000e+002	0.000000e+000	-2.000000e+002	0.000000e+000
25648830.000	-1.498491e-003	-8.271897e+000	-6.211258e+001	8.765900e+001	-2.000000e+002	0.000000e+000	-2.000000e+002	0.000000e+000
26298800.000	-3.685430e-003	-8.469986e+000	-6.178815e+001	8.852788e+001	-2.000000e+002	0.000000e+000	-2.000000e+002	0.000000e+000
26948770.000	-3.249822e-003	-8.679385e+000	-6.151004e+001	8.637269e+001	-2.000000e+002	0.000000e+000	-2.000000e+002	0.000000e+000
27598740.000	-2.626578e-003	-8.885610e+000	-6.123548e+001	8.469048e+001	-2.000000e+002	0.000000e+000	-2.000000e+002	0.000000e+000
28248710.000	-3.177472e-003	-9.091915e+000	-6.112277e+001	8.456807e+001	-2.000000e+002	0.000000e+000	-2.000000e+002	0.000000e+000
28898680.000	-3.898407e-003	-9.285767e+000	-6.102529e+001	8.417754e+001	-2.000000e+002	0.000000e+000	-2.000000e+002	0.000000e+000
29548650.000	-3.815508e-003	-9.485274e+000	-6.083505e+001	8.324195e+001	-2.000000e+002	0.000000e+000	-2.000000e+002	0.000000e+000
30198620.000	-3.876824e-003	-9.689196e+000	-6.063030e+001	8.309149e+001	-2.000000e+002	0.000000e+000	-2.000000e+002	0.000000e+000
30848590.000	-3.180837e-003	-9.900643e+000	-6.051207e+001	8.331551e+001	-2.000000e+002	0.000000e+000	-2.000000e+002	0.000000e+000
31498560.000	-3.665102e-003	-1.010855e+001	-6.037632e+001	8.249568e+001	-2.000000e+002	0.000000e+000	-2.000000e+002	0.000000e+000
32148530.000	-3.409206e-003	-1.031412e+001	-6.033008e+001	8.290999e+001	-2.000000e+002	0.000000e+000	-2.000000e+002	0.000000e+000
32798500.000	-3.898140e-003	-1.051339e+001	-6.019327e+001	8.324604e+001	-2.000000e+002	0.000000e+000	-2.000000e+002	0.000000e+000
33448470.000	-4.163042e-003	-1.072035e+001	-6.012544e+001	8.281949e+001	-2.000000e+002	0.000000e+000	-2.000000e+002	0.000000e+000
34098440.000	-4.762748e-003	-1.092030e+001	-5.992569e+001	8.226737e+001	-2.000000e+002	0.000000e+000	-2.000000e+002	0.000000e+000
34748410.000	-5.643379e-003	-1.111835e+001	-5.994760e+001	8.296663e+001	-2.000000e+002	0.000000e+000	-2.000000e+002	0.000000e+000
35398380.000	-5.602968e-003	-1.131755e+001	-5.969865e+001	8.309772e+001	-2.000000e+002	0.000000e+000	-2.000000e+002	0.000000e+000
36048350.000	-5.627870e-003	-1.151951e+001	-5.944200e+001	8.417771e+001	-2.000000e+002	0.000000e+000	-2.000000e+002	0.000000e+000
36698320.000	-5.644163e-003	-1.171877e+001	-5.937247e+001	8.413075e+001	-2.000000e+002	0.000000e+000	-2.000000e+002	0.000000e+000
37348290.000	-5.418624e-003	-1.192373e+001	-5.913429e+001	8.411999e+001	-2.000000e+002	0.000000e+000	-2.000000e+002	0.000000e+000
37998260.000	-5.719423e-003	-1.212888e+001	-5.889362e+001	8.422983e+001	-2.000000e+002	0.000000e+000	-2.000000e+002	0.000000e+000
38648230.000	-6.738134e-003	-1.233258e+001	-5.871497e+001	8.360117e+001	-2.000000e+002	0.000000e+000	-2.000000e+002	0.000000e+000
39298200.000	-7.287177e-003	-1.254157e+001	-5.862646e+001	8.287339e+001	-2.000000e+002	0.000000e+000	-2.000000e+002	0.000000e+000
39948170.000	-7.426990e-003	-1.274770e+001	-5.854571e+001	8.381986e+001	-2.000000e+002	0.000000e+000	-2.000000e+002	0.000000e+000
40598140.000	-7.535924e-003	-1.295781e+001	-5.857171e+001	8.398403e+001	-2.000000e+002	0.000000e+000	-2.000000e+002	0.000000e+000
41248110.000	-6.920332e-003	-1.315675e+001	-5.828061e+001	8.474065e+001	-2.000000e+002	0.000000e+000	-2.000000e+002	0.000000e+000
41898080.000	-7.007046e-003	-1.335754e+001	-5.805353e+001	8.533311e+001	-2.000000e+002	0.000000e+000	-2.000000e+002	0.000000e+000
42548050.000	-6.237115e-003	-1.355791e+001	-5.781201e+001	8.446112e+001	-2.000000e+002	0.000000e+000	-2.000000e+002	0.000000e+000
43198020.000	-7.510377e-003	-1.375808e+001	-5.759756e+001	8.547309e+001	-2.000000e+002	0.000000e+000	-2.000000e+002	0.000000e+000
43847990.000	-7.267984e-003	-1.395992e+001	-5.742100e+001	8.467970e+001	-2.000000e+002	0.000000e+000	-2.000000e+002	0.000000e+000
44497960.000	-7.642002e-003	-1.416604e+001	-5.720428e+001	8.419602e+001	-2.000000e+002	0.000000e+000	-2.000000e+002	0.000000e+000
45147930.000	-8.065669e-003	-1.437235e+001	-5.704845e+001	8.414014e+001	-2.000000e+002	0.000000e+000	-2.000000e+002	0.000000e+000
45797900.000	-7.728213e-003	-1.457722e+001	-5.689346e+001	8.436846e+001	-2.000000e+002	0.000000e+000	-2.000000e+002	0.000000e+000
46447870.000	-9.260442e-003	-1.477875e+001	-5.674670e+001	8.445594e+001	-2.000000e+002	0.000000e+000	-2.000000e+002	0.000000e+000
47097840.000	-9.978487e-003	-1.497929e+001	-5.659706e+001	8.467242e+001	-2.000000e+002	0.000000e+000	-2.000000e+002	0.000000e+000
47747810.000	-1.108597e-002	-1.517974e+001	-5.634733e+001	8.418058e+001	-2.000000e+002	0.000000e+000	-2.000000e+002	0.000000e+000
48397780.000	-1.175125e-002	-1.538935e+001	-5.624126e+001	8.387542e+001	-2.000000e+002	0.000000e+000	-2.000000e+002	0.000000e+000
49047750.000	-1.219789e-002	-1.558931e+001	-5.602192e+001	8.406769e+001	-2.000000e+002	0.000000e+000	-2.000000e+002	0.000000e+000
49697720.000	-1.293604e-002	-1.578822e+001	-5.576878e+001	8.359459e+001	-2.000000e+002	0.000000e+000	-2.000000e+002	0.000000e+000
50347690.000	-1.188262e-002	-1.599376e+001	-5.560605e+001	8.314896e+001	-2.000000e+002	0.000000e+000	-2.000000e+002	0.000000e+000
50997660.000	-1.198229e-002	-1.620041e+001	-5.544000e+001	8.218925e+001	-2.000000e+002	0.000000e+000	-2.000000e+002	0.000000e+000
51647630.000	-1.182549e-002	-1.640266e+001	-5.527395e+001	8.165735e+001	-2.000000e+002	0.000000e+000	-2.000000e+002	0.000000e+000
52297600.000	-1.271237e-002	-1.660613e+001	-5.521622e+001	8.119857e+001	-2.000000e+002	0.000000e+000	-2.000000e+002	0.000000e+000
52947570.000	-1.278646e-002	-1.680892e+001	-5.512024e+001	8.071929e+001	-2.000000e+002	0.000000e+000	-2.000000e+002	0.000000e+000
53597540.000	-1.257093e-002	-1.700724e+001	-5.498735e+001	8.062195e+001	-2.000000e+002	0.000000e+000	-2.000000e+002	0.000000e+000
54247510.000	-1.307725e-002	-1.721630e+001	-5.484979e+001	8.065953e+001	-2.000000e+002	0.000000e+000	-2.000000e+002	0.000000e+000
54897480.000	-1.359610e-002	-1.741892e+001	-5.467422e+001	8.100376e+001	-2.000000e+002	0.000000e+000	-2.000000e+002	0.000000e+000
55547450.000	-1.426053e-002	-1.762197e+001	-5.452264e+001	8.052278e+001	-2.000000e+002	0.000000e+000	-2.000000e+002	0.000000e+000
56197420.000	-1.401291e-002	-1.782468e+001	-5.429660e+001	8.017017e+001	-2.000000e+002	0.000000e+000	-2.000000e+002	0.000000e+000
56847390.000	-1.471717e-002	-1.802464e+001	-5.405151e+001	7.971610e+001	-2.000000e+002	0.000000e+000	-2.000000e+002	0.000000e+000
57497360.000	-1.488027e-002	-1.822648e+001	-5.384349e+001	7.858239e+001	-2.000000e+002	0.000000e+000	-2.000000e+002	0.000000e+000
58147330.000	-1.575395e-002	-1.842877e+001	-5.373029e+001	7.752919e+001	-2.000000e+002	0.000000e+000	-2.000000e+002	0.000000e+000
58797300.000	-1.597693e-002	-1.863013e+001	-5.370186e+001	7.634879e+001	-2.000000e+002	0.000000e+000	-2.000000e+002	0.000000e+000
59447270.000	-1.591024e-002	-1.882696e+001	-5.362134e+001	7.566774e+001	-2.000000e+002	0.000000e+000	-2.000000e+002	0.000000e+000
60097240.000	-1.645047e-002	-1.902947e+001	-5.355944e+001	7.463056e+001	-2.000000e+002	0.000000e+000	-2.000000e+002	0.000000e+000
60747210.000	-1.687091e-002	-1.923161e+001	-5.353700e+001	7.444213e+001	-2.000000e+002	0.000000e+000	-2.000000e+002	0.000000e+000
61397180.000	-1.759366e-002	-1.943325e+001	-5.346958e+001	7.377261e+001	-2.000000e+002	0.000000e+000	-2.000000e+002	0.000000e+000
62047150.000	-1.794373e-002	-1.963076e+001	-5.339313e+001	7.336960e+001	-2.000000e+002	0.000000e+000	-2.000000e+002	0.000000e+000
62697120.000	-1.825014e-002	-1.983210e+001	-5.336638e+001	7.278257e+001	-2.000000e+002	0.000000e+000	-2.000000e+002	0.000000e+000
63347090.000	-1.888957e-002	-2.003490e+001	-5.333652e+001	7.277242e+001	-2.000000e+002	0.000000e+000	-2.000000e+002	0.000000e+000
63997060.000	-1.955257e-002	-2.023697e+001	-5.328472e+001	7.239474e+001	-2.000000e+002	0.000000e+000	-2.000000e+002	0.000000e+000
64647030.000	-2.068736e-002	-2.043913e+001	-5.320080e+001	7.214729e+001	-2.000000e+002	0.000000e+000	-2.000000e+002	0.000000e+000
65297000.000	-2.037453e-002	-2.064076e+001	-5.315363e+001	7.196896e+001	-2.000000e+002	0.000000e+000	-2.000000e+002	0.000000e+000
65946970.000	-2.129918e-002	-2.084115e+001	-5.314096e+001	7.173905e+001	-2.000000e+002	0.000000e+000	-2.000000e+002	0.000000e+000
66596940.000	-2.120582e-002	-2.104203e+001	-5.301288e+001	7.171557e+001	-2.000000e+002	0.000000e+000	-2.000000e+002	0.000000e+000
67246910.000	-2.190383e-002	-2.124437e+001	-5.288671e+001	7.173868e+001	-2.000000e+002	0.000000e+000	-2.000000e+002	0.000000e+000
67896880.000	-2.190480e-002	-2.144554e+001	-5.287380e+001	7.121163e+001	-2.000000e+002	0.000000e+000	-2.000000e+002	0.000000e+000
68546850.000	-2.260785e-002	-2.164666e+001	-5.278548e+001	7.116221e+001	-2.000000e+002	0.000000e+000	-2.000000e+002	0.000000e+000
69196820.000	-2.335898e-002	-2.184491e+001	-5.267378e+001	7.054240e+001	-2.000000e+002	0.000000e+000	-2.000000e+002	0.000000e+000
69846790.000	-2.344378e-002	-2.205022e+001	-5.268524e+001	7.050901e+001	-2.000000e+002	0.000000e+000	-2.000000e+002	0.000000e+000
70496760.000	-2.264624e-002	-2.225693e+001	-5.258107e+001	6.999728e+001	-2.000000e+002	0.000000e+000	-2.000000e+002	0.000000e+000
71146730.000	-2.335513e-002	-2.245717e+001	-5.252049e+001	6.948254e+001	-2.000000e+002	0.000000e+000	-2.000000e+002	0.000000e+000
71796700.000	-2.399275e-002	-2.266037e+001	-5.247811e+001	6.947210e+001	-2.000000e+002	0.000000e+000	-2.000000e+002	0.000000e+000
72446670.000	-2.344104e-002	-2.286428e+001	-5.236329e+001	6.890304e+001	-2.000000e+002	0.000000e+000	-2.000000e+002	0.000000e+000
73096640.000	-2.411956e-002	-2.306749e+001	-5.235235e+001	6.899105e+001	-2.000000e+002	0.000000e+000	-2.000000e+002	0.000000e+000
73746610.000	-2.467408e-002	-2.326946e+001	-5.229258e+001	6.874981e+001	-2.000000e+002	0.000000e+000	-2.000000e+002	0.000000e+000
74396580.000	-2.516784e-002	-2.347455e+001	-5.223238e+001	6.838006e+001	-2.000000e+002	0.000000e+000	-2.000000e+002	0.000000e+000
75046550.000	-2.455468e-002	-2.367252e+001	-5.220733e+001	6.844828e+001	-2.000000e+002	0.000000e+000	-2.000000e+002	0.000000e+000
75696520.000	-2.562786e-002	-2.387900e+001	-5.218474e+001	6.796928e+001	-2.000000e+002	0.000000e+000	-2.000000e+002	0.000000e+000
76346490.000	-2.608191e-002	-2.407969e+001	-5.205395e+001	6.836559e+001	-2.000000e+002	0.000000e+000	-2.000000e+002	0.000000e+000
76996460.000	-2.678514e-002	-2.427751e+001	-5.199392e+001	6.839169e+001	-2.000000e+002	0.000000e+000	-2.000000e+002	0.000000e+000
77646430.000	-2.701272e-002	-2.448018e+001	-5.195814e+001	6.807955e+001	-2.000000e+002	0.000000e+000	-2.000000e+002	0.000000e+000
78296400.000	-2.812064e-002	-2.468233e+001	-5.188774e+001	6.794826e+001	-2.000000e+002	0.000000e+000	-2.000000e+002	0.000000e+000
78946370.000	-2.820051e-002	-2.488399e+001	-5.178171e+001	6.802468e+001	-2.000000e+002	0.000000e+000	-2.000000e+002	0.000000e+000
79596340.000	-2.730356e-002	-2.509384e+001	-5.175100e+001	6.712533e+001	-2.000000e+002	0.000000e+000	-2.000000e+002	0.000000e+000
80246310.000	-2.843135e-002	-2.529753e+001	-5.166192e+001	6.716348e+001	-2.000000e+002	0.000000e+000	-2.000000e+002	0.000000e+000
80896280.000	-2.892528e-002	-2.549840e+001	-5.161936e+001	6.703962e+001	-2.000000e+002	0.000000e+000	-2.000000e+002	0.000000e+000
81546250.000	-2.896903e-002	-2.570189e+001	-5.155502e+001	6.669093e+001	-2.000000e+002	0.000000e+000	-2.000000e+002	0.000000e+000
82196220.000	-2.931997e-002	-2.589811e+001	-5.153158e+001	6.650441e+001	-2.000000e+002	0.000000e+000	-2.000000e+002	0.000000e+000
82846190.000	-2.989268e-002	-2.610579e+001	-5.144420e+001	6.666072e+001	-2.000000e+002	0.000000e+000	-2.000000e+002	0.000000e+000
83496160.000	-3.019641e-002	-2.630966e+001	-5.133494e+001	6.657475e+001	-2.000000e+002	0.000000e+000	-2.000000e+002	0.000000e+000
84146130.000	-3.073509e-002	-2.651337e+001	-5.127820e+001	6.660481e+001	-2.000000e+002	0.000000e+000	-2.000000e+002	0.000000e+000
84796100.000	-3.096702e-002	-2.672107e+001	-5.124120e+001	6.583281e+001	-2.000000e+002	0.000000e+000	-2.000000e+002	0.000000e+000
85446070.000	-3.114526e-002	-2.692256e+001	-5.117857e+001	6.570107e+001	-2.000000e+002	0.000000e+000	-2.000000e+002	0.000000e+000
86096040.000	-3.164457e-002	-2.712472e+001	-5.112627e+001	6.557121e+001	-2.000000e+002	0.000000e+000	-2.000000e+002	0.000000e+000
86746010.000	-3.201129e-002	-2.732267e+001	-5.112341e+001	6.496930e+001	-2.000000e+002	0.000000e+000	-2.000000e+002	0.000000e+000
87395980.000	-3.287659e-002	-2.752681e+001	-5.107446e+001	6.516764e+001	-2.000000e+002	0.000000e+000	-2.000000e+002	0.000000e+000
88045950.000	-3.313318e-002	-2.772787e+001	-5.092306e+001	6.490173e+001	-2.000000e+002	0.000000e+000	-2.000000e+002	0.000000e+000
88695920.000	-3.380556e-002	-2.793008e+001	-5.100630e+001	6.499756e+001	-2.000000e+002	0.000000e+000	-2.000000e+002	0.000000e+000
89345890.000	-3.437662e-002	-2.813186e+001	-5.094634e+001	6.464478e+001	-2.000000e+002	0.000000e+000	-2.000000e+002	0.000000e+000
89995860.000	-3.441752e-002	-2.833522e+001	-5.079518e+001	6.477711e+001	-2.000000e+002	0.000000e+000	-2.000000e+002	0.000000e+000
90645830.000	-3.513346e-002	-2.854046e+001	-5.091524e+001	6.473562e+001	-2.000000e+002	0.000000e+000	-2.000000e+002	0.000000e+000
91295800.000	-3.411576e-002	-2.874477e+001	-5.082704e+001	6.459705e+001	-2.000000e+002	0.000000e+000	-2.000000e+002	0.000000e+000
91945770.000	-3.548584e-002	-2.895282e+001	-5.078046e+001	6.452600e+001	-2.000000e+002	0.000000e+000	-2.000000e+002	0.000000e+000
92595740.000	-3.563920e-002	-2.915539e+001	-5.076710e+001	6.483218e+001	-2.000000e+002	0.000000e+000	-2.000000e+002	0.000000e+000
93245710.000	-3.550506e-002	-2.935866e+001	-5.066887e+001	6.478476e+001	-2.000000e+002	0.000000e+000	-2.000000e+002	0.000000e+000
93895680.000	-3.637573e-002	-2.956584e+001	-5.056952e+001	6.462042e+001	-2.000000e+002	0.000000e+000	-2.000000e+002	0.000000e+000
94545650.000	-3.660402e-002	-2.977172e+001	-5.051323e+001	6.470622e+001	-2.000000e+002	0.000000e+000	-2.000000e+002	0.000000e+000
95195620.000	-3.615321e-002	-2.996850e+001	-5.041966e+001	6.469742e+001	-2.000000e+002	0.000000e+000	-2.000000e+002	0.000000e+000
95845590.000	-3.688969e-002	-3.016943e+001	-5.034097e+001	6.450838e+001	-2.000000e+002	0.000000e+000	-2.000000e+002	0.000000e+000
96495560.000	-3.810579e-002	-3.037281e+001	-5.027214e+001	6.425196e+001	-2.000000e+002	0.000000e+000	-2.000000e+002	0.000000e+000
97145530.000	-3.816789e-002	-3.057742e+001	-5.027082e+001	6.415111e+001	-2.000000e+002	0.000000e+000	-2.000000e+002	0.000000e+000
97795500.000	-3.924825e-002	-3.077841e+001	-5.020174e+001	6.411242e+001	-2.000000e+002	0.000000e+000	-2.000000e+002	0.000000e+000
98445470.000	-3.940838e-002	-3.098167e+001	-5.016600e+001	6.393828e+001	-2.000000e+002	0.000000e+000	-2.000000e+002	0.000000e+000
