!Keysight Technologies,E5063A,MY54503115,A.05.08
!Date: Wed Oct 18 19:26:28 2023
!Data & Calibration Information:
!Freq	S11:NONE(--)	S21:NONE(--)	S12:NONE(--)	S22:NONE(--)
# Hz S dB R 50
300000.000	6.421247e-003	-5.259913e-001	-2.000000e+002	0.000000e+000	-6.919177e+001	5.735500e+001	-2.000000e+002	0.000000e+000
949970.000	-1.397876e-003	-6.327934e-001	-2.000000e+002	0.000000e+000	-7.189378e+001	1.299433e+002	-2.000000e+002	0.000000e+000
1599940.000	-2.147713e-003	-7.898844e-001	-2.000000e+002	0.000000e+000	-8.843740e+001	1.012447e+002	-2.000000e+002	0.000000e+000
2249910.000	8.661309e-004	-9.893832e-001	-2.000000e+002	0.000000e+000	-8.983773e+001	7.402930e+001	-2.000000e+002	0.000000e+000
2899880.000	6.336916e-005	-1.180369e+000	-2.000000e+002	0.000000e+000	-8.139159e+001	9.891100e+001	-2.000000e+002	0.000000e+000
3549850.000	-2.322789e-003	-1.405347e+000	-2.000000e+002	0.000000e+000	-8.010655e+001	8.098713e+001	-2.000000e+002	0.000000e+000
4199820.000	7.734795e-004	-1.585084e+000	-2.000000e+002	0.000000e+000	-7.608870e+001	8.135414e+001	-2.000000e+002	0.000000e+000
4849790.000	1.598142e-003	-1.788546e+000	-2.000000e+002	0.000000e+000	-7.426287e+001	1.277099e+002	-2.000000e+002	0.000000e+000
5499760.000	-1.706686e-003	-1.990997e+000	-2.000000e+002	0.000000e+000	-7.309208e+001	8.568904e+001	-2.000000e+002	0.000000e+000
6149730.000	-1.980030e-003	-2.188787e+000	-2.000000e+002	0.000000e+000	-7.356020e+001	9.874242e+001	-2.000000e+002	0.000000e+000
6799700.000	-1.949796e-003	-2.399549e+000	-2.000000e+002	0.000000e+000	-8.069923e+001	1.347388e+002	-2.000000e+002	0.000000e+000
7449670.000	-1.927082e-004	-2.616066e+000	-2.000000e+002	0.000000e+000	-7.335257e+001	8.700513e+001	-2.000000e+002	0.000000e+000
8099640.000	-3.494920e-003	-2.823719e+000	-2.000000e+002	0.000000e+000	-7.431935e+001	8.247114e+001	-2.000000e+002	0.000000e+000
8749610.000	-7.704423e-004	-3.020213e+000	-2.000000e+002	0.000000e+000	-7.325713e+001	8.353465e+001	-2.000000e+002	0.000000e+000
9399580.000	-1.899111e-003	-3.231373e+000	-2.000000e+002	0.000000e+000	-7.165782e+001	8.913237e+001	-2.000000e+002	0.000000e+000
10049550.000	-7.674463e-004	-3.432178e+000	-2.000000e+002	0.000000e+000	-7.177345e+001	8.524891e+001	-2.000000e+002	0.000000e+000
10699520.000	-2.220727e-003	-3.622776e+000	-2.000000e+002	0.000000e+000	-7.136769e+001	8.995364e+001	-2.000000e+002	0.000000e+000
11349490.000	-4.205881e-003	-3.812595e+000	-2.000000e+002	0.000000e+000	-7.091147e+001	8.585448e+001	-2.000000e+002	0.000000e+000
11999460.000	-2.530933e-003	-4.017090e+000	-2.000000e+002	0.000000e+000	-6.978350e+001	8.702219e+001	-2.000000e+002	0.000000e+000
12649430.000	-2.309014e-003	-4.233436e+000	-2.000000e+002	0.000000e+000	-6.950489e+001	8.501198e+001	-2.000000e+002	0.000000e+000
13299400.000	-8.327618e-004	-4.436400e+000	-2.000000e+002	0.000000e+000	-6.892001e+001	8.551948e+001	-2.000000e+002	0.000000e+000
13949370.000	-2.363160e-003	-4.651105e+000	-2.000000e+002	0.000000e+000	-6.844816e+001	8.408599e+001	-2.000000e+002	0.000000e+000
14599340.000	-2.519179e-003	-4.849698e+000	-2.000000e+002	0.000000e+000	-6.800359e+001	8.717802e+001	-2.000000e+002	0.000000e+000
15249310.000	-3.692736e-003	-5.064255e+000	-2.000000e+002	0.000000e+000	-6.810872e+001	9.028842e+001	-2.000000e+002	0.000000e+000
15899280.000	-1.145763e-003	-5.245717e+000	-2.000000e+002	0.000000e+000	-6.719018e+001	8.736806e+001	-2.000000e+002	0.000000e+000
16549250.000	-3.033978e-003	-5.455413e+000	-2.000000e+002	0.000000e+000	-6.711138e+001	8.834072e+001	-2.000000e+002	0.000000e+000
17199220.000	-1.185582e-003	-5.677228e+000	-2.000000e+002	0.000000e+000	-6.704578e+001	8.698621e+001	-2.000000e+002	0.000000e+000
17849190.000	4.128701e-003	-5.898068e+000	-2.000000e+002	0.000000e+000	-6.665030e+001	8.639736e+001	-2.000000e+002	0.000000e+000
18499160.000	4.350085e-003	-6.108288e+000	-2.000000e+002	0.000000e+000	-6.593006e+001	8.395809e+001	-2.000000e+002	0.000000e+000
19149130.000	7.656432e-004	-6.299420e+000	-2.000000e+002	0.000000e+000	-6.592117e+001	8.281634e+001	-2.000000e+002	0.000000e+000
19799100.000	-4.271361e-003	-6.457875e+000	-2.000000e+002	0.000000e+000	-6.583353e+001	8.931741e+001	-2.000000e+002	0.000000e+000
20449070.000	-7.595798e-003	-6.666468e+000	-2.000000e+002	0.000000e+000	-6.588879e+001	8.819234e+001	-2.000000e+002	0.000000e+000
21099040.000	-9.326811e-003	-6.897304e+000	-2.000000e+002	0.000000e+000	-6.571625e+001	8.861924e+001	-2.000000e+002	0.000000e+000
21749010.000	-8.847911e-003	-7.095390e+000	-2.000000e+002	0.000000e+000	-6.565491e+001	9.247204e+001	-2.000000e+002	0.000000e+000
22398980.000	-5.042677e-003	-7.282250e+000	-2.000000e+002	0.000000e+000	-6.510902e+001	9.166626e+001	-2.000000e+002	0.000000e+000
23048950.000	-3.015967e-003	-7.447209e+000	-2.000000e+002	0.000000e+000	-6.461107e+001	9.582541e+001	-2.000000e+002	0.000000e+000
23698920.000	-5.507087e-003	-7.660851e+000	-2.000000e+002	0.000000e+000	-6.360763e+001	9.559145e+001	-2.000000e+002	0.000000e+000
24348890.000	-7.454370e-003	-7.860784e+000	-2.000000e+002	0.000000e+000	-6.345809e+001	9.461082e+001	-2.000000e+002	0.000000e+000
24998860.000	-4.468735e-003	-8.072243e+000	-2.000000e+002	0.000000e+000	-6.301546e+001	9.387461e+001	-2.000000e+002	0.000000e+000
25648830.000	-2.324756e-003	-8.264694e+000	-2.000000e+002	0.000000e+000	-6.270189e+001	9.254711e+001	-2.000000e+002	0.000000e+000
26298800.000	-4.319513e-003	-8.475758e+000	-2.000000e+002	0.000000e+000	-6.226487e+001	9.021197e+001	-2.000000e+002	0.000000e+000
26948770.000	-4.074270e-003	-8.672880e+000	-2.000000e+002	0.000000e+000	-6.213122e+001	8.871212e+001	-2.000000e+002	0.000000e+000
27598740.000	-3.938604e-003	-8.880870e+000	-2.000000e+002	0.000000e+000	-6.171941e+001	8.838240e+001	-2.000000e+002	0.000000e+000
28248710.000	-2.978201e-003	-9.091038e+000	-2.000000e+002	0.000000e+000	-6.186435e+001	8.800389e+001	-2.000000e+002	0.000000e+000
28898680.000	-3.584935e-003	-9.286349e+000	-2.000000e+002	0.000000e+000	-6.165797e+001	8.849186e+001	-2.000000e+002	0.000000e+000
29548650.000	-2.892052e-003	-9.489025e+000	-2.000000e+002	0.000000e+000	-6.167935e+001	8.651716e+001	-2.000000e+002	0.000000e+000
30198620.000	-4.260380e-003	-9.688223e+000	-2.000000e+002	0.000000e+000	-6.155544e+001	8.733798e+001	-2.000000e+002	0.000000e+000
30848590.000	-3.555764e-003	-9.897409e+000	-2.000000e+002	0.000000e+000	-6.127074e+001	8.646206e+001	-2.000000e+002	0.000000e+000
31498560.000	-2.635240e-003	-1.011066e+001	-2.000000e+002	0.000000e+000	-6.097402e+001	8.478851e+001	-2.000000e+002	0.000000e+000
32148530.000	-3.495952e-003	-1.031218e+001	-2.000000e+002	0.000000e+000	-6.084617e+001	8.635461e+001	-2.000000e+002	0.000000e+000
32798500.000	-3.369886e-003	-1.051507e+001	-2.000000e+002	0.000000e+000	-6.087115e+001	8.636418e+001	-2.000000e+002	0.000000e+000
33448470.000	-4.114181e-003	-1.072757e+001	-2.000000e+002	0.000000e+000	-6.092816e+001	8.641494e+001	-2.000000e+002	0.000000e+000
34098440.000	-4.663243e-003	-1.092877e+001	-2.000000e+002	0.000000e+000	-6.111556e+001	8.785595e+001	-2.000000e+002	0.000000e+000
34748410.000	-5.059734e-003	-1.112803e+001	-2.000000e+002	0.000000e+000	-6.096555e+001	8.695459e+001	-2.000000e+002	0.000000e+000
35398380.000	-5.629640e-003	-1.132027e+001	-2.000000e+002	0.000000e+000	-6.067861e+001	8.785120e+001	-2.000000e+002	0.000000e+000
36048350.000	-6.061223e-003	-1.152876e+001	-2.000000e+002	0.000000e+000	-6.083575e+001	8.895679e+001	-2.000000e+002	0.000000e+000
36698320.000	-6.642458e-003	-1.172829e+001	-2.000000e+002	0.000000e+000	-6.078461e+001	9.090829e+001	-2.000000e+002	0.000000e+000
37348290.000	-6.981258e-003	-1.193158e+001	-2.000000e+002	0.000000e+000	-6.057653e+001	9.540803e+001	-2.000000e+002	0.000000e+000
37998260.000	-6.379827e-003	-1.213714e+001	-2.000000e+002	0.000000e+000	-6.041561e+001	9.711245e+001	-2.000000e+002	0.000000e+000
38648230.000	-7.660831e-003	-1.234499e+001	-2.000000e+002	0.000000e+000	-5.949665e+001	9.941321e+001	-2.000000e+002	0.000000e+000
39298200.000	-7.824217e-003	-1.254518e+001	-2.000000e+002	0.000000e+000	-5.866312e+001	1.011012e+002	-2.000000e+002	0.000000e+000
39948170.000	-1.023420e-002	-1.275604e+001	-2.000000e+002	0.000000e+000	-5.799242e+001	1.002088e+002	-2.000000e+002	0.000000e+000
40598140.000	-8.836550e-003	-1.295122e+001	-2.000000e+002	0.000000e+000	-5.739545e+001	9.680744e+001	-2.000000e+002	0.000000e+000
41248110.000	-7.548482e-003	-1.315533e+001	-2.000000e+002	0.000000e+000	-5.677118e+001	9.461094e+001	-2.000000e+002	0.000000e+000
41898080.000	-7.319814e-003	-1.335629e+001	-2.000000e+002	0.000000e+000	-5.668849e+001	9.158666e+001	-2.000000e+002	0.000000e+000
42548050.000	-6.268578e-003	-1.355429e+001	-2.000000e+002	0.000000e+000	-5.655220e+001	8.806004e+001	-2.000000e+002	0.000000e+000
43198020.000	-5.592947e-003	-1.375625e+001	-2.000000e+002	0.000000e+000	-5.666192e+001	8.552355e+001	-2.000000e+002	0.000000e+000
43847990.000	-6.989429e-003	-1.396328e+001	-2.000000e+002	0.000000e+000	-5.683900e+001	8.466498e+001	-2.000000e+002	0.000000e+000
44497960.000	-7.935657e-003	-1.416705e+001	-2.000000e+002	0.000000e+000	-5.692474e+001	8.503771e+001	-2.000000e+002	0.000000e+000
45147930.000	-7.986434e-003	-1.438022e+001	-2.000000e+002	0.000000e+000	-5.696409e+001	8.493013e+001	-2.000000e+002	0.000000e+000
45797900.000	-9.041003e-003	-1.458447e+001	-2.000000e+002	0.000000e+000	-5.665492e+001	8.561446e+001	-2.000000e+002	0.000000e+000
46447870.000	-8.799473e-003	-1.478809e+001	-2.000000e+002	0.000000e+000	-5.657597e+001	8.579131e+001	-2.000000e+002	0.000000e+000
47097840.000	-9.356971e-003	-1.498415e+001	-2.000000e+002	0.000000e+000	-5.641240e+001	8.524179e+001	-2.000000e+002	0.000000e+000
47747810.000	-1.006471e-002	-1.519233e+001	-2.000000e+002	0.000000e+000	-5.616881e+001	8.479943e+001	-2.000000e+002	0.000000e+000
48397780.000	-1.115677e-002	-1.539681e+001	-2.000000e+002	0.000000e+000	-5.627450e+001	8.411817e+001	-2.000000e+002	0.000000e+000
49047750.000	-1.281476e-002	-1.559916e+001	-2.000000e+002	0.000000e+000	-5.594218e+001	8.520828e+001	-2.000000e+002	0.000000e+000
49697720.000	-1.339610e-002	-1.580196e+001	-2.000000e+002	0.000000e+000	-5.596627e+001	8.452088e+001	-2.000000e+002	0.000000e+000
50347690.000	-1.277188e-002	-1.600254e+001	-2.000000e+002	0.000000e+000	-5.567625e+001	8.416367e+001	-2.000000e+002	0.000000e+000
50997660.000	-1.231092e-002	-1.620989e+001	-2.000000e+002	0.000000e+000	-5.554636e+001	8.437298e+001	-2.000000e+002	0.000000e+000
51647630.000	-1.281557e-002	-1.641676e+001	-2.000000e+002	0.000000e+000	-5.535874e+001	8.368746e+001	-2.000000e+002	0.000000e+000
52297600.000	-1.287028e-002	-1.661478e+001	-2.000000e+002	0.000000e+000	-5.523760e+001	8.311465e+001	-2.000000e+002	0.000000e+000
52947570.000	-1.359566e-002	-1.681248e+001	-2.000000e+002	0.000000e+000	-5.520907e+001	8.272240e+001	-2.000000e+002	0.000000e+000
53597540.000	-1.288693e-002	-1.702088e+001	-2.000000e+002	0.000000e+000	-5.485411e+001	8.245813e+001	-2.000000e+002	0.000000e+000
54247510.000	-1.349727e-002	-1.722639e+001	-2.000000e+002	0.000000e+000	-5.469034e+001	8.197384e+001	-2.000000e+002	0.000000e+000
54897480.000	-1.291046e-002	-1.742517e+001	-2.000000e+002	0.000000e+000	-5.461305e+001	8.130838e+001	-2.000000e+002	0.000000e+000
55547450.000	-1.408838e-002	-1.763054e+001	-2.000000e+002	0.000000e+000	-5.448664e+001	7.985792e+001	-2.000000e+002	0.000000e+000
56197420.000	-1.403087e-002	-1.784171e+001	-2.000000e+002	0.000000e+000	-5.444788e+001	7.983137e+001	-2.000000e+002	0.000000e+000
56847390.000	-1.352705e-002	-1.804161e+001	-2.000000e+002	0.000000e+000	-5.442096e+001	7.974771e+001	-2.000000e+002	0.000000e+000
57497360.000	-1.552280e-002	-1.824151e+001	-2.000000e+002	0.000000e+000	-5.433620e+001	7.840974e+001	-2.000000e+002	0.000000e+000
58147330.000	-1.487901e-002	-1.844489e+001	-2.000000e+002	0.000000e+000	-5.412951e+001	7.839030e+001	-2.000000e+002	0.000000e+000
58797300.000	-1.620862e-002	-1.864679e+001	-2.000000e+002	0.000000e+000	-5.413268e+001	7.762495e+001	-2.000000e+002	0.000000e+000
59447270.000	-1.667218e-002	-1.884810e+001	-2.000000e+002	0.000000e+000	-5.408903e+001	7.727598e+001	-2.000000e+002	0.000000e+000
60097240.000	-1.762174e-002	-1.905960e+001	-2.000000e+002	0.000000e+000	-5.405511e+001	7.744995e+001	-2.000000e+002	0.000000e+000
60747210.000	-1.713547e-002	-1.925994e+001	-2.000000e+002	0.000000e+000	-5.395188e+001	7.768683e+001	-2.000000e+002	0.000000e+000
61397180.000	-1.766290e-002	-1.945180e+001	-2.000000e+002	0.000000e+000	-5.384626e+001	7.694381e+001	-2.000000e+002	0.000000e+000
62047150.000	-1.843038e-002	-1.965954e+001	-2.000000e+002	0.000000e+000	-5.386623e+001	7.644681e+001	-2.000000e+002	0.000000e+000
62697120.000	-1.833031e-002	-1.985504e+001	-2.000000e+002	0.000000e+000	-5.371875e+001	7.592640e+001	-2.000000e+002	0.000000e+000
63347090.000	-1.920324e-002	-2.006028e+001	-2.000000e+002	0.000000e+000	-5.357699e+001	7.621464e+001	-2.000000e+002	0.000000e+000
63997060.000	-2.071341e-002	-2.026152e+001	-2.000000e+002	0.000000e+000	-5.353700e+001	7.576643e+001	-2.000000e+002	0.000000e+000
64647030.000	-2.156492e-002	-2.045714e+001	-2.000000e+002	0.000000e+000	-5.345374e+001	7.558928e+001	-2.000000e+002	0.000000e+000
65297000.000	-2.118212e-002	-2.065817e+001	-2.000000e+002	0.000000e+000	-5.335178e+001	7.579151e+001	-2.000000e+002	0.000000e+000
65946970.000	-2.322611e-002	-2.086332e+001	-2.000000e+002	0.000000e+000	-5.331727e+001	7.429535e+001	-2.000000e+002	0.000000e+000
66596940.000	-2.262470e-002	-2.107083e+001	-2.000000e+002	0.000000e+000	-5.315095e+001	7.408158e+001	-2.000000e+002	0.000000e+000
67246910.000	-2.233930e-002	-2.126595e+001	-2.000000e+002	0.000000e+000	-5.324747e+001	7.337734e+001	-2.000000e+002	0.000000e+000
67896880.000	-2.248846e-002	-2.146767e+001	-2.000000e+002	0.000000e+000	-5.312024e+001	7.329208e+001	-2.000000e+002	0.000000e+000
68546850.000	-2.434867e-002	-2.167733e+001	-2.000000e+002	0.000000e+000	-5.309373e+001	7.257036e+001	-2.000000e+002	0.000000e+000
69196820.000	-2.335605e-002	-2.187476e+001	-2.000000e+002	0.000000e+000	-5.306101e+001	7.204546e+001	-2.000000e+002	0.000000e+000
69846790.000	-2.446120e-002	-2.208029e+001	-2.000000e+002	0.000000e+000	-5.294021e+001	7.279877e+001	-2.000000e+002	0.000000e+000
70496760.000	-2.390875e-002	-2.228855e+001	-2.000000e+002	0.000000e+000	-5.298054e+001	7.243827e+001	-2.000000e+002	0.000000e+000
71146730.000	-2.511403e-002	-2.249230e+001	-2.000000e+002	0.000000e+000	-5.293271e+001	7.280014e+001	-2.000000e+002	0.000000e+000
71796700.000	-2.409254e-002	-2.269136e+001	-2.000000e+002	0.000000e+000	-5.284764e+001	7.262050e+001	-2.000000e+002	0.000000e+000
72446670.000	-2.539891e-002	-2.290000e+001	-2.000000e+002	0.000000e+000	-5.276373e+001	7.285676e+001	-2.000000e+002	0.000000e+000
73096640.000	-2.690985e-002	-2.309812e+001	-2.000000e+002	0.000000e+000	-5.273262e+001	7.268393e+001	-2.000000e+002	0.000000e+000
73746610.000	-2.607197e-002	-2.330574e+001	-2.000000e+002	0.000000e+000	-5.269495e+001	7.367515e+001	-2.000000e+002	0.000000e+000
74396580.000	-2.734134e-002	-2.350849e+001	-2.000000e+002	0.000000e+000	-5.247899e+001	7.311447e+001	-2.000000e+002	0.000000e+000
75046550.000	-2.757032e-002	-2.370463e+001	-2.000000e+002	0.000000e+000	-5.238726e+001	7.303435e+001	-2.000000e+002	0.000000e+000
75696520.000	-2.677331e-002	-2.390812e+001	-2.000000e+002	0.000000e+000	-5.222066e+001	7.207976e+001	-2.000000e+002	0.000000e+000
76346490.000	-2.656021e-002	-2.411823e+001	-2.000000e+002	0.000000e+000	-5.220310e+001	7.176580e+001	-2.000000e+002	0.000000e+000
76996460.000	-2.775670e-002	-2.431383e+001	-2.000000e+002	0.000000e+000	-5.203146e+001	7.171157e+001	-2.000000e+002	0.000000e+000
77646430.000	-2.830773e-002	-2.451606e+001	-2.000000e+002	0.000000e+000	-5.203740e+001	7.117772e+001	-2.000000e+002	0.000000e+000
78296400.000	-2.853719e-002	-2.471455e+001	-2.000000e+002	0.000000e+000	-5.201691e+001	7.092942e+001	-2.000000e+002	0.000000e+000
78946370.000	-2.874579e-002	-2.492311e+001	-2.000000e+002	0.000000e+000	-5.197247e+001	7.043902e+001	-2.000000e+002	0.000000e+000
79596340.000	-2.855455e-002	-2.513413e+001	-2.000000e+002	0.000000e+000	-5.191471e+001	7.031283e+001	-2.000000e+002	0.000000e+000
80246310.000	-2.985280e-002	-2.533783e+001	-2.000000e+002	0.000000e+000	-5.202434e+001	7.018350e+001	-2.000000e+002	0.000000e+000
80896280.000	-3.043723e-002	-2.553909e+001	-2.000000e+002	0.000000e+000	-5.192030e+001	7.013466e+001	-2.000000e+002	0.000000e+000
81546250.000	-3.015394e-002	-2.574562e+001	-2.000000e+002	0.000000e+000	-5.174201e+001	6.992018e+001	-2.000000e+002	0.000000e+000
82196220.000	-3.077775e-002	-2.594044e+001	-2.000000e+002	0.000000e+000	-5.176087e+001	7.013893e+001	-2.000000e+002	0.000000e+000
82846190.000	-3.230789e-002	-2.615849e+001	-2.000000e+002	0.000000e+000	-5.171043e+001	7.006786e+001	-2.000000e+002	0.000000e+000
83496160.000	-3.147368e-002	-2.636282e+001	-2.000000e+002	0.000000e+000	-5.151339e+001	7.008770e+001	-2.000000e+002	0.000000e+000
84146130.000	-3.217402e-002	-2.655893e+001	-2.000000e+002	0.000000e+000	-5.152361e+001	7.017627e+001	-2.000000e+002	0.000000e+000
84796100.000	-3.271579e-002	-2.676801e+001	-2.000000e+002	0.000000e+000	-5.141569e+001	6.963944e+001	-2.000000e+002	0.000000e+000
85446070.000	-3.241280e-002	-2.697081e+001	-2.000000e+002	0.000000e+000	-5.130769e+001	6.941098e+001	-2.000000e+002	0.000000e+000
86096040.000	-3.387748e-002	-2.718022e+001	-2.000000e+002	0.000000e+000	-5.117639e+001	6.937126e+001	-2.000000e+002	0.000000e+000
86746010.000	-3.408112e-002	-2.737660e+001	-2.000000e+002	0.000000e+000	-5.115224e+001	6.879488e+001	-2.000000e+002	0.000000e+000
87395980.000	-3.434094e-002	-2.757690e+001	-2.000000e+002	0.000000e+000	-5.112000e+001	6.816437e+001	-2.000000e+002	0.000000e+000
88045950.000	-3.491088e-002	-2.778113e+001	-2.000000e+002	0.000000e+000	-5.102323e+001	6.719883e+001	-2.000000e+002	0.000000e+000
88695920.000	-3.622543e-002	-2.798218e+001	-2.000000e+002	0.000000e+000	-5.096406e+001	6.773592e+001	-2.000000e+002	0.000000e+000
89345890.000	-3.609074e-002	-2.819234e+001	-2.000000e+002	0.000000e+000	-5.098431e+001	6.746930e+001	-2.000000e+002	0.000000e+000
89995860.000	-3.616033e-002	-2.838602e+001	-2.000000e+002	0.000000e+000	-5.090732e+001	6.636679e+001	-2.000000e+002	0.000000e+000
90645830.000	-3.627968e-002	-2.859873e+001	-2.000000e+002	0.000000e+000	-5.092887e+001	6.636976e+001	-2.000000e+002	0.000000e+000
91295800.000	-3.635899e-002	-2.880580e+001	-2.000000e+002	0.000000e+000	-5.093250e+001	6.622700e+001	-2.000000e+002	0.000000e+000
91945770.000	-3.720890e-002	-2.900925e+001	-2.000000e+002	0.000000e+000	-5.097584e+001	6.626060e+001	-2.000000e+002	0.000000e+000
92595740.000	-3.665383e-002	-2.921977e+001	-2.000000e+002	0.000000e+000	-5.087160e+001	6.598234e+001	-2.000000e+002	0.000000e+000
93245710.000	-3.701487e-002	-2.943020e+001	-2.000000e+002	0.000000e+000	-5.094998e+001	6.571107e+001	-2.000000e+002	0.000000e+000
93895680.000	-3.711273e-002	-2.963487e+001	-2.000000e+002	0.000000e+000	-5.097808e+001	6.521945e+001	-2.000000e+002	0.000000e+000
94545650.000	-3.841353e-002	-2.984264e+001	-2.000000e+002	0.000000e+000	-5.099554e+001	6.427682e+001	-2.000000e+002	0.000000e+000
95195620.000	-3.879746e-002	-3.004368e+001	-2.000000e+002	0.000000e+000	-5.086405e+001	6.605162e+001	-2.000000e+002	0.000000e+000
95845590.000	-3.966421e-002	-3.024264e+001	-2.000000e+002	0.000000e+000	-5.080298e+001	6.543096e+001	-2.000000e+002	0.000000e+000
96495560.000	-3.950087e-002	-3.044254e+001	-2.000000e+002	0.000000e+000	-5.075610e+001	6.588227e+001	-2.000000e+002	0.000000e+000
97145530.000	-4.016563e-002	-3.065327e+001	-2.000000e+002	0.000000e+000	-5.074378e+001	6.639942e+001	-2.000000e+002	0.000000e+000
97795500.000	-4.005363e-002	-3.084626e+001	-2.000000e+002	0.000000e+000	-5.075473e+001	6.616335e+001	-2.000000e+002	0.000000e+000
98445470.000	-4.174612e-002	-3.105572e+001	-2.000000e+002	0.000000e+000	-5.060142e+001	6.631338e+001	-2.000000e+002	0.000000e+000
