!Keysight Technologies,E5063A,MY54503115,A.05.08
!Date: Wed Oct 18 14:40:37 2023
!Data & Calibration Information:
!Freq	S11:NONE(--)	S21:NONE(--)	S12:NONE(--)	S22:NONE(--)
# Hz S dB R 50
300000.000	1.196185e-003	-5.589318e-001	-2.000000e+002	0.000000e+000	-7.466471e+001	4.343076e+001	-2.000000e+002	0.000000e+000
949970.000	-7.760053e-003	-6.347557e-001	-2.000000e+002	0.000000e+000	-8.192653e+001	1.586328e+002	-2.000000e+002	0.000000e+000
1599940.000	-7.890981e-003	-8.085653e-001	-2.000000e+002	0.000000e+000	-8.891785e+001	-1.675716e+002	-2.000000e+002	0.000000e+000
2249910.000	-8.646898e-003	-1.006519e+000	-2.000000e+002	0.000000e+000	-7.934197e+001	1.235675e+002	-2.000000e+002	0.000000e+000
2899880.000	-7.600508e-003	-1.175488e+000	-2.000000e+002	0.000000e+000	-7.601553e+001	8.941426e+001	-2.000000e+002	0.000000e+000
3549850.000	-1.002872e-002	-1.383782e+000	-2.000000e+002	0.000000e+000	-7.764863e+001	5.087261e+001	-2.000000e+002	0.000000e+000
4199820.000	-6.046383e-003	-1.591551e+000	-2.000000e+002	0.000000e+000	-7.826664e+001	1.085908e+002	-2.000000e+002	0.000000e+000
4849790.000	-7.164584e-003	-1.791231e+000	-2.000000e+002	0.000000e+000	-7.796042e+001	2.372163e+001	-2.000000e+002	0.000000e+000
5499760.000	-6.922896e-003	-1.994619e+000	-2.000000e+002	0.000000e+000	-7.487782e+001	5.597063e+001	-2.000000e+002	0.000000e+000
6149730.000	-8.973663e-003	-2.202250e+000	-2.000000e+002	0.000000e+000	-8.072705e+001	1.183698e+002	-2.000000e+002	0.000000e+000
6799700.000	-8.302773e-003	-2.404569e+000	-2.000000e+002	0.000000e+000	-7.293612e+001	1.063395e+002	-2.000000e+002	0.000000e+000
7449670.000	-5.930475e-003	-2.627349e+000	-2.000000e+002	0.000000e+000	-7.136496e+001	8.916054e+001	-2.000000e+002	0.000000e+000
8099640.000	-6.055057e-003	-2.806692e+000	-2.000000e+002	0.000000e+000	-7.042441e+001	8.216727e+001	-2.000000e+002	0.000000e+000
8749610.000	-5.713513e-003	-3.030820e+000	-2.000000e+002	0.000000e+000	-7.298597e+001	8.819620e+001	-2.000000e+002	0.000000e+000
9399580.000	-6.801066e-003	-3.229881e+000	-2.000000e+002	0.000000e+000	-7.175162e+001	9.189178e+001	-2.000000e+002	0.000000e+000
10049550.000	-7.070137e-003	-3.438572e+000	-2.000000e+002	0.000000e+000	-7.125582e+001	8.700540e+001	-2.000000e+002	0.000000e+000
10699520.000	-7.298031e-003	-3.631277e+000	-2.000000e+002	0.000000e+000	-7.062771e+001	8.843800e+001	-2.000000e+002	0.000000e+000
11349490.000	-9.753439e-003	-3.825710e+000	-2.000000e+002	0.000000e+000	-7.008546e+001	8.692155e+001	-2.000000e+002	0.000000e+000
11999460.000	-8.664104e-003	-4.033668e+000	-2.000000e+002	0.000000e+000	-6.945279e+001	8.918331e+001	-2.000000e+002	0.000000e+000
12649430.000	-7.892202e-003	-4.252518e+000	-2.000000e+002	0.000000e+000	-6.949501e+001	8.753706e+001	-2.000000e+002	0.000000e+000
13299400.000	-7.241240e-003	-4.452070e+000	-2.000000e+002	0.000000e+000	-6.937373e+001	8.466995e+001	-2.000000e+002	0.000000e+000
13949370.000	-8.128610e-003	-4.670753e+000	-2.000000e+002	0.000000e+000	-6.903685e+001	8.698459e+001	-2.000000e+002	0.000000e+000
14599340.000	-9.221247e-003	-4.874411e+000	-2.000000e+002	0.000000e+000	-6.889005e+001	8.722965e+001	-2.000000e+002	0.000000e+000
15249310.000	-1.034619e-002	-5.088733e+000	-2.000000e+002	0.000000e+000	-6.812248e+001	8.859116e+001	-2.000000e+002	0.000000e+000
15899280.000	-1.026490e-002	-5.271487e+000	-2.000000e+002	0.000000e+000	-6.841838e+001	8.762298e+001	-2.000000e+002	0.000000e+000
16549250.000	-1.216788e-002	-5.475605e+000	-2.000000e+002	0.000000e+000	-6.774609e+001	8.858205e+001	-2.000000e+002	0.000000e+000
17199220.000	-1.240175e-002	-5.691429e+000	-2.000000e+002	0.000000e+000	-6.732625e+001	8.949255e+001	-2.000000e+002	0.000000e+000
17849190.000	-7.282109e-003	-5.912126e+000	-2.000000e+002	0.000000e+000	-6.679856e+001	9.355679e+001	-2.000000e+002	0.000000e+000
18499160.000	-6.831305e-003	-6.112803e+000	-2.000000e+002	0.000000e+000	-6.662743e+001	9.321661e+001	-2.000000e+002	0.000000e+000
19149130.000	-8.927485e-003	-6.294817e+000	-2.000000e+002	0.000000e+000	-6.573929e+001	9.499289e+001	-2.000000e+002	0.000000e+000
19799100.000	-1.363004e-002	-6.450484e+000	-2.000000e+002	0.000000e+000	-6.543240e+001	9.290013e+001	-2.000000e+002	0.000000e+000
20449070.000	-1.621862e-002	-6.655693e+000	-2.000000e+002	0.000000e+000	-6.514050e+001	9.259196e+001	-2.000000e+002	0.000000e+000
21099040.000	-1.665521e-002	-6.886279e+000	-2.000000e+002	0.000000e+000	-6.465508e+001	9.138351e+001	-2.000000e+002	0.000000e+000
21749010.000	-1.566184e-002	-7.082008e+000	-2.000000e+002	0.000000e+000	-6.412816e+001	9.021229e+001	-2.000000e+002	0.000000e+000
22398980.000	-1.278986e-002	-7.268467e+000	-2.000000e+002	0.000000e+000	-6.443828e+001	9.038383e+001	-2.000000e+002	0.000000e+000
23048950.000	-8.059752e-003	-7.442355e+000	-2.000000e+002	0.000000e+000	-6.385033e+001	8.827374e+001	-2.000000e+002	0.000000e+000
23698920.000	-1.088621e-002	-7.654080e+000	-2.000000e+002	0.000000e+000	-6.376901e+001	8.857033e+001	-2.000000e+002	0.000000e+000
24348890.000	-1.066226e-002	-7.865833e+000	-2.000000e+002	0.000000e+000	-6.343999e+001	8.821456e+001	-2.000000e+002	0.000000e+000
24998860.000	-8.428503e-003	-8.075952e+000	-2.000000e+002	0.000000e+000	-6.319407e+001	8.911417e+001	-2.000000e+002	0.000000e+000
25648830.000	-5.826274e-003	-8.277187e+000	-2.000000e+002	0.000000e+000	-6.289790e+001	8.884373e+001	-2.000000e+002	0.000000e+000
26298800.000	-8.276303e-003	-8.480305e+000	-2.000000e+002	0.000000e+000	-6.261205e+001	8.738454e+001	-2.000000e+002	0.000000e+000
26948770.000	-7.365572e-003	-8.690803e+000	-2.000000e+002	0.000000e+000	-6.213701e+001	8.667707e+001	-2.000000e+002	0.000000e+000
27598740.000	-8.590994e-003	-8.900392e+000	-2.000000e+002	0.000000e+000	-6.258101e+001	8.697388e+001	-2.000000e+002	0.000000e+000
28248710.000	-6.305560e-003	-9.106842e+000	-2.000000e+002	0.000000e+000	-6.243226e+001	8.557760e+001	-2.000000e+002	0.000000e+000
28898680.000	-7.901830e-003	-9.306501e+000	-2.000000e+002	0.000000e+000	-6.232320e+001	8.661836e+001	-2.000000e+002	0.000000e+000
29548650.000	-7.864762e-003	-9.504861e+000	-2.000000e+002	0.000000e+000	-6.221961e+001	8.779123e+001	-2.000000e+002	0.000000e+000
30198620.000	-8.388946e-003	-9.708523e+000	-2.000000e+002	0.000000e+000	-6.182728e+001	8.939219e+001	-2.000000e+002	0.000000e+000
30848590.000	-7.932789e-003	-9.921922e+000	-2.000000e+002	0.000000e+000	-6.128824e+001	9.050511e+001	-2.000000e+002	0.000000e+000
31498560.000	-8.084732e-003	-1.013153e+001	-2.000000e+002	0.000000e+000	-6.100407e+001	9.150180e+001	-2.000000e+002	0.000000e+000
32148530.000	-8.465262e-003	-1.033467e+001	-2.000000e+002	0.000000e+000	-6.059231e+001	8.905479e+001	-2.000000e+002	0.000000e+000
32798500.000	-9.017463e-003	-1.054519e+001	-2.000000e+002	0.000000e+000	-6.026933e+001	8.740227e+001	-2.000000e+002	0.000000e+000
33448470.000	-8.619231e-003	-1.074307e+001	-2.000000e+002	0.000000e+000	-6.019560e+001	8.548610e+001	-2.000000e+002	0.000000e+000
34098440.000	-9.151251e-003	-1.094750e+001	-2.000000e+002	0.000000e+000	-6.019441e+001	8.601554e+001	-2.000000e+002	0.000000e+000
34748410.000	-9.149521e-003	-1.114266e+001	-2.000000e+002	0.000000e+000	-6.020246e+001	8.351576e+001	-2.000000e+002	0.000000e+000
35398380.000	-9.425425e-003	-1.134712e+001	-2.000000e+002	0.000000e+000	-6.026988e+001	8.347170e+001	-2.000000e+002	0.000000e+000
36048350.000	-8.822273e-003	-1.155205e+001	-2.000000e+002	0.000000e+000	-6.022543e+001	8.213663e+001	-2.000000e+002	0.000000e+000
36698320.000	-9.393558e-003	-1.175316e+001	-2.000000e+002	0.000000e+000	-6.012917e+001	8.292478e+001	-2.000000e+002	0.000000e+000
37348290.000	-9.441840e-003	-1.195793e+001	-2.000000e+002	0.000000e+000	-6.022391e+001	8.268543e+001	-2.000000e+002	0.000000e+000
37998260.000	-9.559331e-003	-1.217036e+001	-2.000000e+002	0.000000e+000	-6.006877e+001	8.314595e+001	-2.000000e+002	0.000000e+000
38648230.000	-1.037749e-002	-1.237216e+001	-2.000000e+002	0.000000e+000	-6.035789e+001	8.412885e+001	-2.000000e+002	0.000000e+000
39298200.000	-1.058512e-002	-1.258586e+001	-2.000000e+002	0.000000e+000	-6.014123e+001	8.500000e+001	-2.000000e+002	0.000000e+000
39948170.000	-1.138691e-002	-1.279616e+001	-2.000000e+002	0.000000e+000	-6.018628e+001	8.705453e+001	-2.000000e+002	0.000000e+000
40598140.000	-1.141992e-002	-1.299604e+001	-2.000000e+002	0.000000e+000	-6.024650e+001	8.772392e+001	-2.000000e+002	0.000000e+000
41248110.000	-1.142186e-002	-1.320351e+001	-2.000000e+002	0.000000e+000	-6.005593e+001	9.038921e+001	-2.000000e+002	0.000000e+000
41898080.000	-1.104624e-002	-1.340369e+001	-2.000000e+002	0.000000e+000	-5.957068e+001	9.385205e+001	-2.000000e+002	0.000000e+000
42548050.000	-1.182977e-002	-1.360731e+001	-2.000000e+002	0.000000e+000	-5.922550e+001	9.605099e+001	-2.000000e+002	0.000000e+000
43198020.000	-1.111592e-002	-1.381372e+001	-2.000000e+002	0.000000e+000	-5.876049e+001	9.607504e+001	-2.000000e+002	0.000000e+000
43847990.000	-1.296428e-002	-1.401143e+001	-2.000000e+002	0.000000e+000	-5.847622e+001	9.681865e+001	-2.000000e+002	0.000000e+000
44497960.000	-1.203388e-002	-1.422169e+001	-2.000000e+002	0.000000e+000	-5.812956e+001	9.700017e+001	-2.000000e+002	0.000000e+000
45147930.000	-1.327862e-002	-1.442203e+001	-2.000000e+002	0.000000e+000	-5.751993e+001	9.734001e+001	-2.000000e+002	0.000000e+000
45797900.000	-1.423022e-002	-1.462869e+001	-2.000000e+002	0.000000e+000	-5.723952e+001	9.705870e+001	-2.000000e+002	0.000000e+000
46447870.000	-1.374269e-002	-1.482968e+001	-2.000000e+002	0.000000e+000	-5.675778e+001	9.678615e+001	-2.000000e+002	0.000000e+000
47097840.000	-1.499305e-002	-1.502805e+001	-2.000000e+002	0.000000e+000	-5.643275e+001	9.615811e+001	-2.000000e+002	0.000000e+000
47747810.000	-1.491765e-002	-1.523385e+001	-2.000000e+002	0.000000e+000	-5.606995e+001	9.444609e+001	-2.000000e+002	0.000000e+000
48397780.000	-1.679634e-002	-1.544058e+001	-2.000000e+002	0.000000e+000	-5.587823e+001	9.275548e+001	-2.000000e+002	0.000000e+000
49047750.000	-1.732808e-002	-1.564791e+001	-2.000000e+002	0.000000e+000	-5.572909e+001	9.131852e+001	-2.000000e+002	0.000000e+000
49697720.000	-1.734706e-002	-1.584636e+001	-2.000000e+002	0.000000e+000	-5.544238e+001	9.061723e+001	-2.000000e+002	0.000000e+000
50347690.000	-1.696916e-002	-1.605526e+001	-2.000000e+002	0.000000e+000	-5.527715e+001	9.006120e+001	-2.000000e+002	0.000000e+000
50997660.000	-1.710905e-002	-1.625716e+001	-2.000000e+002	0.000000e+000	-5.505863e+001	8.931059e+001	-2.000000e+002	0.000000e+000
51647630.000	-1.662565e-002	-1.646271e+001	-2.000000e+002	0.000000e+000	-5.492605e+001	8.782517e+001	-2.000000e+002	0.000000e+000
52297600.000	-1.699486e-002	-1.666202e+001	-2.000000e+002	0.000000e+000	-5.457268e+001	8.766519e+001	-2.000000e+002	0.000000e+000
52947570.000	-1.658275e-002	-1.686233e+001	-2.000000e+002	0.000000e+000	-5.448243e+001	8.616770e+001	-2.000000e+002	0.000000e+000
53597540.000	-1.680615e-002	-1.706694e+001	-2.000000e+002	0.000000e+000	-5.422453e+001	8.525242e+001	-2.000000e+002	0.000000e+000
54247510.000	-1.781339e-002	-1.727775e+001	-2.000000e+002	0.000000e+000	-5.418126e+001	8.301101e+001	-2.000000e+002	0.000000e+000
54897480.000	-1.663527e-002	-1.748522e+001	-2.000000e+002	0.000000e+000	-5.415730e+001	8.263483e+001	-2.000000e+002	0.000000e+000
55547450.000	-1.655217e-002	-1.768206e+001	-2.000000e+002	0.000000e+000	-5.399552e+001	8.122342e+001	-2.000000e+002	0.000000e+000
56197420.000	-1.624496e-002	-1.789245e+001	-2.000000e+002	0.000000e+000	-5.400261e+001	8.006681e+001	-2.000000e+002	0.000000e+000
56847390.000	-1.691108e-002	-1.809428e+001	-2.000000e+002	0.000000e+000	-5.394956e+001	7.979754e+001	-2.000000e+002	0.000000e+000
57497360.000	-1.807918e-002	-1.830358e+001	-2.000000e+002	0.000000e+000	-5.389368e+001	7.860139e+001	-2.000000e+002	0.000000e+000
58147330.000	-1.707099e-002	-1.850539e+001	-2.000000e+002	0.000000e+000	-5.377878e+001	7.820014e+001	-2.000000e+002	0.000000e+000
58797300.000	-1.820307e-002	-1.870832e+001	-2.000000e+002	0.000000e+000	-5.380459e+001	7.769328e+001	-2.000000e+002	0.000000e+000
59447270.000	-1.768012e-002	-1.891315e+001	-2.000000e+002	0.000000e+000	-5.374904e+001	7.742481e+001	-2.000000e+002	0.000000e+000
60097240.000	-2.011174e-002	-1.911524e+001	-2.000000e+002	0.000000e+000	-5.370593e+001	7.642142e+001	-2.000000e+002	0.000000e+000
60747210.000	-1.947093e-002	-1.931442e+001	-2.000000e+002	0.000000e+000	-5.369467e+001	7.594003e+001	-2.000000e+002	0.000000e+000
61397180.000	-2.051124e-002	-1.951833e+001	-2.000000e+002	0.000000e+000	-5.363658e+001	7.509189e+001	-2.000000e+002	0.000000e+000
62047150.000	-2.149797e-002	-1.971948e+001	-2.000000e+002	0.000000e+000	-5.357742e+001	7.548609e+001	-2.000000e+002	0.000000e+000
62697120.000	-2.080557e-002	-1.992260e+001	-2.000000e+002	0.000000e+000	-5.362049e+001	7.542410e+001	-2.000000e+002	0.000000e+000
63347090.000	-2.224523e-002	-2.012560e+001	-2.000000e+002	0.000000e+000	-5.348841e+001	7.455369e+001	-2.000000e+002	0.000000e+000
63997060.000	-2.205549e-002	-2.032793e+001	-2.000000e+002	0.000000e+000	-5.341047e+001	7.478730e+001	-2.000000e+002	0.000000e+000
64647030.000	-2.276124e-002	-2.053275e+001	-2.000000e+002	0.000000e+000	-5.333888e+001	7.401248e+001	-2.000000e+002	0.000000e+000
65297000.000	-2.366890e-002	-2.073327e+001	-2.000000e+002	0.000000e+000	-5.333880e+001	7.354817e+001	-2.000000e+002	0.000000e+000
65946970.000	-2.375847e-002	-2.094066e+001	-2.000000e+002	0.000000e+000	-5.328723e+001	7.406843e+001	-2.000000e+002	0.000000e+000
66596940.000	-2.380594e-002	-2.114388e+001	-2.000000e+002	0.000000e+000	-5.320189e+001	7.306802e+001	-2.000000e+002	0.000000e+000
67246910.000	-2.485364e-002	-2.134850e+001	-2.000000e+002	0.000000e+000	-5.317768e+001	7.320230e+001	-2.000000e+002	0.000000e+000
67896880.000	-2.454214e-002	-2.154620e+001	-2.000000e+002	0.000000e+000	-5.320861e+001	7.234390e+001	-2.000000e+002	0.000000e+000
68546850.000	-2.552535e-002	-2.175398e+001	-2.000000e+002	0.000000e+000	-5.312075e+001	7.234664e+001	-2.000000e+002	0.000000e+000
69196820.000	-2.638933e-002	-2.195494e+001	-2.000000e+002	0.000000e+000	-5.310506e+001	7.215770e+001	-2.000000e+002	0.000000e+000
69846790.000	-2.607998e-002	-2.215889e+001	-2.000000e+002	0.000000e+000	-5.314348e+001	7.186251e+001	-2.000000e+002	0.000000e+000
70496760.000	-2.572223e-002	-2.237283e+001	-2.000000e+002	0.000000e+000	-5.305627e+001	7.227627e+001	-2.000000e+002	0.000000e+000
71146730.000	-2.656601e-002	-2.257933e+001	-2.000000e+002	0.000000e+000	-5.305647e+001	7.229153e+001	-2.000000e+002	0.000000e+000
71796700.000	-2.707429e-002	-2.278204e+001	-2.000000e+002	0.000000e+000	-5.302857e+001	7.281246e+001	-2.000000e+002	0.000000e+000
72446670.000	-2.734730e-002	-2.298472e+001	-2.000000e+002	0.000000e+000	-5.297419e+001	7.325194e+001	-2.000000e+002	0.000000e+000
73096640.000	-2.797651e-002	-2.318752e+001	-2.000000e+002	0.000000e+000	-5.276983e+001	7.365877e+001	-2.000000e+002	0.000000e+000
73746610.000	-2.785515e-002	-2.339454e+001	-2.000000e+002	0.000000e+000	-5.261847e+001	7.330473e+001	-2.000000e+002	0.000000e+000
74396580.000	-2.876426e-002	-2.359513e+001	-2.000000e+002	0.000000e+000	-5.243890e+001	7.326593e+001	-2.000000e+002	0.000000e+000
75046550.000	-2.807601e-002	-2.380324e+001	-2.000000e+002	0.000000e+000	-5.232759e+001	7.284027e+001	-2.000000e+002	0.000000e+000
75696520.000	-2.785935e-002	-2.400040e+001	-2.000000e+002	0.000000e+000	-5.223525e+001	7.143023e+001	-2.000000e+002	0.000000e+000
76346490.000	-2.774365e-002	-2.421122e+001	-2.000000e+002	0.000000e+000	-5.211585e+001	7.112167e+001	-2.000000e+002	0.000000e+000
76996460.000	-2.878889e-002	-2.440554e+001	-2.000000e+002	0.000000e+000	-5.211232e+001	7.028179e+001	-2.000000e+002	0.000000e+000
77646430.000	-3.002095e-002	-2.461096e+001	-2.000000e+002	0.000000e+000	-5.205379e+001	7.006004e+001	-2.000000e+002	0.000000e+000
78296400.000	-3.052419e-002	-2.481701e+001	-2.000000e+002	0.000000e+000	-5.214586e+001	6.918586e+001	-2.000000e+002	0.000000e+000
78946370.000	-2.964128e-002	-2.501559e+001	-2.000000e+002	0.000000e+000	-5.207815e+001	6.923909e+001	-2.000000e+002	0.000000e+000
79596340.000	-3.104297e-002	-2.523447e+001	-2.000000e+002	0.000000e+000	-5.207723e+001	6.891624e+001	-2.000000e+002	0.000000e+000
80246310.000	-3.055246e-002	-2.543699e+001	-2.000000e+002	0.000000e+000	-5.216118e+001	6.891061e+001	-2.000000e+002	0.000000e+000
80896280.000	-3.131647e-002	-2.564470e+001	-2.000000e+002	0.000000e+000	-5.211347e+001	6.941465e+001	-2.000000e+002	0.000000e+000
81546250.000	-3.155796e-002	-2.585449e+001	-2.000000e+002	0.000000e+000	-5.210120e+001	6.953349e+001	-2.000000e+002	0.000000e+000
82196220.000	-3.250424e-002	-2.604977e+001	-2.000000e+002	0.000000e+000	-5.196369e+001	6.984081e+001	-2.000000e+002	0.000000e+000
82846190.000	-3.303823e-002	-2.625868e+001	-2.000000e+002	0.000000e+000	-5.199029e+001	6.969438e+001	-2.000000e+002	0.000000e+000
83496160.000	-3.328877e-002	-2.646109e+001	-2.000000e+002	0.000000e+000	-5.191442e+001	7.009565e+001	-2.000000e+002	0.000000e+000
84146130.000	-3.351248e-002	-2.667023e+001	-2.000000e+002	0.000000e+000	-5.183908e+001	7.023330e+001	-2.000000e+002	0.000000e+000
84796100.000	-3.364433e-002	-2.687423e+001	-2.000000e+002	0.000000e+000	-5.173223e+001	6.983092e+001	-2.000000e+002	0.000000e+000
85446070.000	-3.451224e-002	-2.708070e+001	-2.000000e+002	0.000000e+000	-5.167531e+001	6.995620e+001	-2.000000e+002	0.000000e+000
86096040.000	-3.530557e-002	-2.728191e+001	-2.000000e+002	0.000000e+000	-5.162870e+001	6.945122e+001	-2.000000e+002	0.000000e+000
86746010.000	-3.634476e-002	-2.748834e+001	-2.000000e+002	0.000000e+000	-5.151384e+001	6.968637e+001	-2.000000e+002	0.000000e+000
87395980.000	-3.605584e-002	-2.769201e+001	-2.000000e+002	0.000000e+000	-5.151587e+001	6.945499e+001	-2.000000e+002	0.000000e+000
88045950.000	-3.703797e-002	-2.789504e+001	-2.000000e+002	0.000000e+000	-5.151083e+001	7.041773e+001	-2.000000e+002	0.000000e+000
88695920.000	-3.682816e-002	-2.810371e+001	-2.000000e+002	0.000000e+000	-5.140975e+001	6.976739e+001	-2.000000e+002	0.000000e+000
89345890.000	-3.813342e-002	-2.830477e+001	-2.000000e+002	0.000000e+000	-5.135525e+001	7.032555e+001	-2.000000e+002	0.000000e+000
89995860.000	-3.794166e-002	-2.850783e+001	-2.000000e+002	0.000000e+000	-5.126423e+001	7.052221e+001	-2.000000e+002	0.000000e+000
90645830.000	-3.904893e-002	-2.871674e+001	-2.000000e+002	0.000000e+000	-5.115084e+001	7.079061e+001	-2.000000e+002	0.000000e+000
91295800.000	-3.878330e-002	-2.892334e+001	-2.000000e+002	0.000000e+000	-5.096814e+001	7.026022e+001	-2.000000e+002	0.000000e+000
91945770.000	-3.961982e-002	-2.912953e+001	-2.000000e+002	0.000000e+000	-5.088412e+001	6.961782e+001	-2.000000e+002	0.000000e+000
92595740.000	-3.852790e-002	-2.933637e+001	-2.000000e+002	0.000000e+000	-5.079521e+001	6.918992e+001	-2.000000e+002	0.000000e+000
93245710.000	-3.954983e-002	-2.954308e+001	-2.000000e+002	0.000000e+000	-5.076015e+001	6.832022e+001	-2.000000e+002	0.000000e+000
93895680.000	-3.917645e-002	-2.974781e+001	-2.000000e+002	0.000000e+000	-5.074426e+001	6.847349e+001	-2.000000e+002	0.000000e+000
94545650.000	-4.027043e-002	-2.995737e+001	-2.000000e+002	0.000000e+000	-5.069760e+001	6.827894e+001	-2.000000e+002	0.000000e+000
95195620.000	-4.081606e-002	-3.016180e+001	-2.000000e+002	0.000000e+000	-5.063333e+001	6.844350e+001	-2.000000e+002	0.000000e+000
95845590.000	-4.082467e-002	-3.036128e+001	-2.000000e+002	0.000000e+000	-5.061948e+001	6.893547e+001	-2.000000e+002	0.000000e+000
96495560.000	-4.184856e-002	-3.057006e+001	-2.000000e+002	0.000000e+000	-5.051778e+001	6.919961e+001	-2.000000e+002	0.000000e+000
97145530.000	-4.348934e-002	-3.077371e+001	-2.000000e+002	0.000000e+000	-5.036312e+001	6.900413e+001	-2.000000e+002	0.000000e+000
97795500.000	-4.287478e-002	-3.097377e+001	-2.000000e+002	0.000000e+000	-5.024392e+001	6.875972e+001	-2.000000e+002	0.000000e+000
98445470.000	-4.276941e-002	-3.118157e+001	-2.000000e+002	0.000000e+000	-5.016597e+001	6.837899e+001	-2.000000e+002	0.000000e+000
