!Keysight Technologies,E5063A,MY54503115,A.05.08
!Date: Mon Dec 11 14:01:19 2023
!Data & Calibration Information:
!Freq	S11:NONE(--)	S21:NONE(--)	S12:NONE(--)	S22:NONE(--)
# Hz S dB R 50
100000.000	4.861861e-002	-5.800961e-001	-8.549893e+001	-5.299634e+001	-2.000000e+002	0.000000e+000	-2.000000e+002	0.000000e+000
749990.000	1.926796e-003	-5.739088e-001	-9.580701e+001	1.229671e+002	-2.000000e+002	0.000000e+000	-2.000000e+002	0.000000e+000
1399980.000	9.639235e-004	-7.483032e-001	-8.846238e+001	-1.622754e+002	-2.000000e+002	0.000000e+000	-2.000000e+002	0.000000e+000
2049970.000	1.036176e-003	-9.397507e-001	-8.109850e+001	1.143483e+002	-2.000000e+002	0.000000e+000	-2.000000e+002	0.000000e+000
2699960.000	2.301163e-004	-1.147899e+000	-8.416874e+001	1.084224e+002	-2.000000e+002	0.000000e+000	-2.000000e+002	0.000000e+000
3349950.000	2.473899e-003	-1.359628e+000	-7.789354e+001	9.343037e+001	-2.000000e+002	0.000000e+000	-2.000000e+002	0.000000e+000
3999940.000	7.579914e-004	-1.552404e+000	-7.845935e+001	9.052669e+001	-2.000000e+002	0.000000e+000	-2.000000e+002	0.000000e+000
4649930.000	8.860290e-004	-1.762011e+000	-7.480968e+001	1.027618e+002	-2.000000e+002	0.000000e+000	-2.000000e+002	0.000000e+000
5299920.000	1.468477e-003	-1.969028e+000	-7.590101e+001	1.028457e+002	-2.000000e+002	0.000000e+000	-2.000000e+002	0.000000e+000
5949910.000	1.515309e-004	-2.173529e+000	-7.391524e+001	9.189772e+001	-2.000000e+002	0.000000e+000	-2.000000e+002	0.000000e+000
6599900.000	6.530913e-004	-2.382107e+000	-7.260901e+001	8.315075e+001	-2.000000e+002	0.000000e+000	-2.000000e+002	0.000000e+000
7249890.000	7.016469e-004	-2.584970e+000	-7.347149e+001	9.323483e+001	-2.000000e+002	0.000000e+000	-2.000000e+002	0.000000e+000
7899880.000	-5.563996e-005	-2.797560e+000	-7.128218e+001	8.457289e+001	-2.000000e+002	0.000000e+000	-2.000000e+002	0.000000e+000
8549870.000	2.607059e-003	-3.014535e+000	-7.003977e+001	8.849708e+001	-2.000000e+002	0.000000e+000	-2.000000e+002	0.000000e+000
9199860.000	1.746255e-003	-3.222924e+000	-7.033750e+001	8.887232e+001	-2.000000e+002	0.000000e+000	-2.000000e+002	0.000000e+000
9849850.000	1.469286e-003	-3.425077e+000	-6.992265e+001	8.632992e+001	-2.000000e+002	0.000000e+000	-2.000000e+002	0.000000e+000
10499840.000	8.762376e-004	-3.622478e+000	-6.960914e+001	8.798871e+001	-2.000000e+002	0.000000e+000	-2.000000e+002	0.000000e+000
11149830.000	-7.269626e-004	-3.824582e+000	-6.863163e+001	8.673009e+001	-2.000000e+002	0.000000e+000	-2.000000e+002	0.000000e+000
11799820.000	-1.374793e-003	-4.026293e+000	-6.840007e+001	8.736741e+001	-2.000000e+002	0.000000e+000	-2.000000e+002	0.000000e+000
12449810.000	-8.174147e-004	-4.243057e+000	-6.800476e+001	8.778804e+001	-2.000000e+002	0.000000e+000	-2.000000e+002	0.000000e+000
13099800.000	9.660724e-004	-4.453368e+000	-6.740750e+001	8.710690e+001	-2.000000e+002	0.000000e+000	-2.000000e+002	0.000000e+000
13749790.000	-3.368171e-004	-4.658798e+000	-6.698430e+001	8.643469e+001	-2.000000e+002	0.000000e+000	-2.000000e+002	0.000000e+000
14399780.000	-1.125440e-003	-4.868941e+000	-6.662896e+001	8.678757e+001	-2.000000e+002	0.000000e+000	-2.000000e+002	0.000000e+000
15049770.000	-2.050032e-003	-5.086811e+000	-6.601860e+001	8.721123e+001	-2.000000e+002	0.000000e+000	-2.000000e+002	0.000000e+000
15699760.000	2.193139e-004	-5.273059e+000	-6.598617e+001	8.557319e+001	-2.000000e+002	0.000000e+000	-2.000000e+002	0.000000e+000
16349750.000	5.375878e-004	-5.469590e+000	-6.573489e+001	8.485786e+001	-2.000000e+002	0.000000e+000	-2.000000e+002	0.000000e+000
16999740.000	-2.208044e-003	-5.690457e+000	-6.525603e+001	8.685723e+001	-2.000000e+002	0.000000e+000	-2.000000e+002	0.000000e+000
17649730.000	5.238843e-003	-5.923606e+000	-6.506910e+001	8.431688e+001	-2.000000e+002	0.000000e+000	-2.000000e+002	0.000000e+000
18299720.000	8.546268e-003	-6.140003e+000	-6.472958e+001	8.510634e+001	-2.000000e+002	0.000000e+000	-2.000000e+002	0.000000e+000
18949710.000	7.657837e-003	-6.343812e+000	-6.445715e+001	8.460339e+001	-2.000000e+002	0.000000e+000	-2.000000e+002	0.000000e+000
19599700.000	1.714496e-003	-6.517945e+000	-6.417215e+001	8.471395e+001	-2.000000e+002	0.000000e+000	-2.000000e+002	0.000000e+000
20249690.000	-1.911965e-003	-6.710655e+000	-6.390463e+001	8.440833e+001	-2.000000e+002	0.000000e+000	-2.000000e+002	0.000000e+000
20899680.000	-3.652583e-003	-6.948118e+000	-6.382199e+001	8.460835e+001	-2.000000e+002	0.000000e+000	-2.000000e+002	0.000000e+000
21549670.000	-3.940950e-003	-7.165118e+000	-6.353049e+001	8.566102e+001	-2.000000e+002	0.000000e+000	-2.000000e+002	0.000000e+000
22199660.000	-2.883010e-003	-7.362601e+000	-6.319169e+001	8.660901e+001	-2.000000e+002	0.000000e+000	-2.000000e+002	0.000000e+000
22849650.000	6.352367e-004	-7.535419e+000	-6.309442e+001	8.741918e+001	-2.000000e+002	0.000000e+000	-2.000000e+002	0.000000e+000
23499640.000	-7.355963e-004	-7.739703e+000	-6.278926e+001	8.796227e+001	-2.000000e+002	0.000000e+000	-2.000000e+002	0.000000e+000
24149630.000	-2.712231e-003	-7.953470e+000	-6.215357e+001	8.898279e+001	-2.000000e+002	0.000000e+000	-2.000000e+002	0.000000e+000
24799620.000	-1.915937e-003	-8.161365e+000	-6.167356e+001	8.830056e+001	-2.000000e+002	0.000000e+000	-2.000000e+002	0.000000e+000
25449610.000	5.366328e-004	-8.364314e+000	-6.121829e+001	8.663102e+001	-2.000000e+002	0.000000e+000	-2.000000e+002	0.000000e+000
26099600.000	3.606622e-004	-8.572096e+000	-6.112233e+001	8.679712e+001	-2.000000e+002	0.000000e+000	-2.000000e+002	0.000000e+000
26749590.000	-9.478518e-004	-8.777332e+000	-6.071958e+001	8.596409e+001	-2.000000e+002	0.000000e+000	-2.000000e+002	0.000000e+000
27399580.000	-7.684259e-004	-8.990390e+000	-6.062587e+001	8.529867e+001	-2.000000e+002	0.000000e+000	-2.000000e+002	0.000000e+000
28049570.000	-1.812608e-004	-9.199008e+000	-6.031139e+001	8.471226e+001	-2.000000e+002	0.000000e+000	-2.000000e+002	0.000000e+000
28699560.000	-6.179233e-004	-9.398305e+000	-6.009531e+001	8.434884e+001	-2.000000e+002	0.000000e+000	-2.000000e+002	0.000000e+000
29349550.000	-6.288664e-004	-9.597108e+000	-5.986362e+001	8.372746e+001	-2.000000e+002	0.000000e+000	-2.000000e+002	0.000000e+000
29999540.000	-8.196768e-004	-9.803283e+000	-5.978517e+001	8.164832e+001	-2.000000e+002	0.000000e+000	-2.000000e+002	0.000000e+000
30649530.000	-1.480038e-003	-1.001774e+001	-5.952842e+001	8.176988e+001	-2.000000e+002	0.000000e+000	-2.000000e+002	0.000000e+000
31299520.000	-9.135883e-004	-1.023239e+001	-5.942699e+001	8.228579e+001	-2.000000e+002	0.000000e+000	-2.000000e+002	0.000000e+000
31949510.000	-1.287670e-003	-1.043923e+001	-5.925865e+001	8.113348e+001	-2.000000e+002	0.000000e+000	-2.000000e+002	0.000000e+000
32599500.000	-1.679042e-003	-1.064639e+001	-5.923511e+001	8.122673e+001	-2.000000e+002	0.000000e+000	-2.000000e+002	0.000000e+000
33249490.000	-1.887585e-003	-1.085391e+001	-5.894217e+001	8.070098e+001	-2.000000e+002	0.000000e+000	-2.000000e+002	0.000000e+000
33899480.000	-2.048710e-003	-1.106189e+001	-5.884790e+001	8.125428e+001	-2.000000e+002	0.000000e+000	-2.000000e+002	0.000000e+000
34549470.000	-2.385495e-003	-1.126105e+001	-5.871833e+001	8.056506e+001	-2.000000e+002	0.000000e+000	-2.000000e+002	0.000000e+000
35199460.000	-2.345507e-003	-1.146258e+001	-5.853114e+001	8.017448e+001	-2.000000e+002	0.000000e+000	-2.000000e+002	0.000000e+000
35849450.000	-2.005031e-003	-1.166806e+001	-5.839180e+001	8.038938e+001	-2.000000e+002	0.000000e+000	-2.000000e+002	0.000000e+000
36499440.000	-2.669271e-003	-1.187191e+001	-5.824735e+001	7.944182e+001	-2.000000e+002	0.000000e+000	-2.000000e+002	0.000000e+000
37149430.000	-2.693518e-003	-1.208062e+001	-5.805186e+001	7.927424e+001	-2.000000e+002	0.000000e+000	-2.000000e+002	0.000000e+000
37799420.000	-2.936957e-003	-1.228643e+001	-5.792041e+001	7.977690e+001	-2.000000e+002	0.000000e+000	-2.000000e+002	0.000000e+000
38449410.000	-3.144271e-003	-1.249365e+001	-5.780544e+001	7.906463e+001	-2.000000e+002	0.000000e+000	-2.000000e+002	0.000000e+000
39099400.000	-3.346859e-003	-1.270473e+001	-5.764845e+001	7.861391e+001	-2.000000e+002	0.000000e+000	-2.000000e+002	0.000000e+000
39749390.000	-4.294480e-003	-1.292168e+001	-5.756886e+001	7.835250e+001	-2.000000e+002	0.000000e+000	-2.000000e+002	0.000000e+000
40399380.000	-4.951999e-003	-1.312989e+001	-5.740948e+001	7.816521e+001	-2.000000e+002	0.000000e+000	-2.000000e+002	0.000000e+000
41049370.000	-4.028363e-003	-1.333394e+001	-5.732477e+001	7.823912e+001	-2.000000e+002	0.000000e+000	-2.000000e+002	0.000000e+000
41699360.000	-3.295593e-003	-1.353973e+001	-5.721520e+001	7.800597e+001	-2.000000e+002	0.000000e+000	-2.000000e+002	0.000000e+000
42349350.000	-2.872346e-003	-1.374524e+001	-5.703639e+001	7.757349e+001	-2.000000e+002	0.000000e+000	-2.000000e+002	0.000000e+000
42999340.000	-4.413959e-003	-1.395076e+001	-5.696472e+001	7.764939e+001	-2.000000e+002	0.000000e+000	-2.000000e+002	0.000000e+000
43649330.000	-3.448554e-003	-1.415735e+001	-5.686357e+001	7.725598e+001	-2.000000e+002	0.000000e+000	-2.000000e+002	0.000000e+000
44299320.000	-3.840436e-003	-1.436587e+001	-5.671198e+001	7.723852e+001	-2.000000e+002	0.000000e+000	-2.000000e+002	0.000000e+000
44949310.000	-4.346317e-003	-1.457622e+001	-5.665655e+001	7.716522e+001	-2.000000e+002	0.000000e+000	-2.000000e+002	0.000000e+000
45599300.000	-5.131294e-003	-1.478472e+001	-5.653785e+001	7.733298e+001	-2.000000e+002	0.000000e+000	-2.000000e+002	0.000000e+000
46249290.000	-5.217477e-003	-1.499137e+001	-5.641089e+001	7.659385e+001	-2.000000e+002	0.000000e+000	-2.000000e+002	0.000000e+000
46899280.000	-5.339761e-003	-1.519680e+001	-5.635155e+001	7.712078e+001	-2.000000e+002	0.000000e+000	-2.000000e+002	0.000000e+000
47549270.000	-6.979853e-003	-1.540537e+001	-5.620023e+001	7.685132e+001	-2.000000e+002	0.000000e+000	-2.000000e+002	0.000000e+000
48199260.000	-7.222751e-003	-1.561364e+001	-5.619126e+001	7.704323e+001	-2.000000e+002	0.000000e+000	-2.000000e+002	0.000000e+000
48849250.000	-8.938193e-003	-1.582176e+001	-5.614114e+001	7.632463e+001	-2.000000e+002	0.000000e+000	-2.000000e+002	0.000000e+000
49499240.000	-8.595966e-003	-1.602701e+001	-5.604739e+001	7.682754e+001	-2.000000e+002	0.000000e+000	-2.000000e+002	0.000000e+000
50149230.000	-9.113981e-003	-1.623880e+001	-5.595652e+001	7.688763e+001	-2.000000e+002	0.000000e+000	-2.000000e+002	0.000000e+000
50799220.000	-9.333024e-003	-1.644550e+001	-5.590194e+001	7.689337e+001	-2.000000e+002	0.000000e+000	-2.000000e+002	0.000000e+000
51449210.000	-8.917335e-003	-1.665379e+001	-5.583123e+001	7.677188e+001	-2.000000e+002	0.000000e+000	-2.000000e+002	0.000000e+000
52099200.000	-9.135565e-003	-1.686382e+001	-5.577967e+001	7.691724e+001	-2.000000e+002	0.000000e+000	-2.000000e+002	0.000000e+000
52749190.000	-9.263890e-003	-1.706499e+001	-5.569452e+001	7.782284e+001	-2.000000e+002	0.000000e+000	-2.000000e+002	0.000000e+000
53399180.000	-9.377331e-003	-1.727541e+001	-5.570390e+001	7.900965e+001	-2.000000e+002	0.000000e+000	-2.000000e+002	0.000000e+000
54049170.000	-9.968675e-003	-1.748201e+001	-5.554039e+001	8.002542e+001	-2.000000e+002	0.000000e+000	-2.000000e+002	0.000000e+000
54699160.000	-1.038279e-002	-1.769023e+001	-5.517962e+001	8.112537e+001	-2.000000e+002	0.000000e+000	-2.000000e+002	0.000000e+000
55349150.000	-1.162394e-002	-1.789441e+001	-5.496656e+001	8.130601e+001	-2.000000e+002	0.000000e+000	-2.000000e+002	0.000000e+000
55999140.000	-1.182110e-002	-1.810508e+001	-5.462327e+001	8.128935e+001	-2.000000e+002	0.000000e+000	-2.000000e+002	0.000000e+000
56649130.000	-1.253094e-002	-1.830881e+001	-5.417900e+001	8.088339e+001	-2.000000e+002	0.000000e+000	-2.000000e+002	0.000000e+000
57299120.000	-1.309772e-002	-1.851036e+001	-5.397309e+001	7.947002e+001	-2.000000e+002	0.000000e+000	-2.000000e+002	0.000000e+000
57949110.000	-1.301570e-002	-1.871780e+001	-5.390391e+001	7.728955e+001	-2.000000e+002	0.000000e+000	-2.000000e+002	0.000000e+000
58599100.000	-1.271299e-002	-1.892335e+001	-5.385713e+001	7.635641e+001	-2.000000e+002	0.000000e+000	-2.000000e+002	0.000000e+000
59249090.000	-1.347440e-002	-1.912889e+001	-5.380173e+001	7.626849e+001	-2.000000e+002	0.000000e+000	-2.000000e+002	0.000000e+000
59899080.000	-1.319849e-002	-1.933574e+001	-5.380033e+001	7.588642e+001	-2.000000e+002	0.000000e+000	-2.000000e+002	0.000000e+000
60549070.000	-1.427612e-002	-1.954377e+001	-5.378470e+001	7.541694e+001	-2.000000e+002	0.000000e+000	-2.000000e+002	0.000000e+000
61199060.000	-1.545982e-002	-1.974813e+001	-5.370459e+001	7.571018e+001	-2.000000e+002	0.000000e+000	-2.000000e+002	0.000000e+000
61849050.000	-1.601231e-002	-1.995010e+001	-5.363661e+001	7.586887e+001	-2.000000e+002	0.000000e+000	-2.000000e+002	0.000000e+000
62499040.000	-1.656427e-002	-2.015353e+001	-5.354024e+001	7.638723e+001	-2.000000e+002	0.000000e+000	-2.000000e+002	0.000000e+000
63149030.000	-1.743853e-002	-2.036034e+001	-5.336450e+001	7.676531e+001	-2.000000e+002	0.000000e+000	-2.000000e+002	0.000000e+000
63799020.000	-1.811904e-002	-2.056574e+001	-5.314752e+001	7.630163e+001	-2.000000e+002	0.000000e+000	-2.000000e+002	0.000000e+000
64449010.000	-1.897848e-002	-2.076881e+001	-5.301247e+001	7.610056e+001	-2.000000e+002	0.000000e+000	-2.000000e+002	0.000000e+000
65099000.000	-1.955108e-002	-2.097086e+001	-5.294302e+001	7.577627e+001	-2.000000e+002	0.000000e+000	-2.000000e+002	0.000000e+000
65748990.000	-1.915776e-002	-2.117832e+001	-5.279655e+001	7.506754e+001	-2.000000e+002	0.000000e+000	-2.000000e+002	0.000000e+000
66398980.000	-2.015965e-002	-2.138177e+001	-5.266192e+001	7.495681e+001	-2.000000e+002	0.000000e+000	-2.000000e+002	0.000000e+000
67048970.000	-1.981013e-002	-2.158723e+001	-5.257597e+001	7.441412e+001	-2.000000e+002	0.000000e+000	-2.000000e+002	0.000000e+000
67698960.000	-2.043623e-002	-2.179107e+001	-5.243287e+001	7.312238e+001	-2.000000e+002	0.000000e+000	-2.000000e+002	0.000000e+000
68348950.000	-2.104593e-002	-2.199267e+001	-5.241366e+001	7.314073e+001	-2.000000e+002	0.000000e+000	-2.000000e+002	0.000000e+000
68998940.000	-2.164866e-002	-2.220193e+001	-5.237871e+001	7.281940e+001	-2.000000e+002	0.000000e+000	-2.000000e+002	0.000000e+000
69648930.000	-2.130575e-002	-2.240685e+001	-5.232927e+001	7.246852e+001	-2.000000e+002	0.000000e+000	-2.000000e+002	0.000000e+000
70298920.000	-2.108651e-002	-2.261895e+001	-5.222369e+001	7.225721e+001	-2.000000e+002	0.000000e+000	-2.000000e+002	0.000000e+000
70948910.000	-2.174492e-002	-2.283036e+001	-5.220372e+001	7.213142e+001	-2.000000e+002	0.000000e+000	-2.000000e+002	0.000000e+000
71598900.000	-2.176263e-002	-2.303451e+001	-5.214021e+001	7.162385e+001	-2.000000e+002	0.000000e+000	-2.000000e+002	0.000000e+000
72248890.000	-2.185824e-002	-2.324046e+001	-5.207582e+001	7.180599e+001	-2.000000e+002	0.000000e+000	-2.000000e+002	0.000000e+000
72898880.000	-2.240540e-002	-2.344693e+001	-5.202890e+001	7.157595e+001	-2.000000e+002	0.000000e+000	-2.000000e+002	0.000000e+000
73548870.000	-2.348534e-002	-2.365571e+001	-5.192162e+001	7.135480e+001	-2.000000e+002	0.000000e+000	-2.000000e+002	0.000000e+000
74198860.000	-2.312766e-002	-2.386100e+001	-5.190800e+001	7.125613e+001	-2.000000e+002	0.000000e+000	-2.000000e+002	0.000000e+000
74848850.000	-2.386087e-002	-2.407062e+001	-5.184755e+001	7.105713e+001	-2.000000e+002	0.000000e+000	-2.000000e+002	0.000000e+000
75498840.000	-2.410237e-002	-2.427415e+001	-5.178074e+001	7.120215e+001	-2.000000e+002	0.000000e+000	-2.000000e+002	0.000000e+000
76148830.000	-2.433919e-002	-2.448151e+001	-5.175064e+001	7.117668e+001	-2.000000e+002	0.000000e+000	-2.000000e+002	0.000000e+000
76798820.000	-2.417164e-002	-2.468789e+001	-5.164022e+001	7.094018e+001	-2.000000e+002	0.000000e+000	-2.000000e+002	0.000000e+000
77448810.000	-2.569130e-002	-2.488947e+001	-5.165693e+001	7.126676e+001	-2.000000e+002	0.000000e+000	-2.000000e+002	0.000000e+000
78098800.000	-2.679576e-002	-2.509618e+001	-5.154810e+001	7.136318e+001	-2.000000e+002	0.000000e+000	-2.000000e+002	0.000000e+000
78748790.000	-2.697314e-002	-2.530485e+001	-5.144517e+001	7.153570e+001	-2.000000e+002	0.000000e+000	-2.000000e+002	0.000000e+000
79398780.000	-2.678207e-002	-2.551144e+001	-5.138507e+001	7.147540e+001	-2.000000e+002	0.000000e+000	-2.000000e+002	0.000000e+000
80048770.000	-2.745605e-002	-2.572183e+001	-5.132365e+001	7.161634e+001	-2.000000e+002	0.000000e+000	-2.000000e+002	0.000000e+000
80698760.000	-2.794724e-002	-2.592888e+001	-5.126483e+001	7.154798e+001	-2.000000e+002	0.000000e+000	-2.000000e+002	0.000000e+000
81348750.000	-2.883656e-002	-2.613506e+001	-5.117641e+001	7.207893e+001	-2.000000e+002	0.000000e+000	-2.000000e+002	0.000000e+000
81998740.000	-2.897226e-002	-2.634136e+001	-5.104310e+001	7.251749e+001	-2.000000e+002	0.000000e+000	-2.000000e+002	0.000000e+000
82648730.000	-2.972804e-002	-2.654287e+001	-5.086131e+001	7.285028e+001	-2.000000e+002	0.000000e+000	-2.000000e+002	0.000000e+000
83298720.000	-3.062690e-002	-2.674943e+001	-5.065384e+001	7.243064e+001	-2.000000e+002	0.000000e+000	-2.000000e+002	0.000000e+000
83948710.000	-3.070846e-002	-2.695492e+001	-5.047998e+001	7.226107e+001	-2.000000e+002	0.000000e+000	-2.000000e+002	0.000000e+000
84598700.000	-3.078617e-002	-2.716048e+001	-5.028603e+001	7.130980e+001	-2.000000e+002	0.000000e+000	-2.000000e+002	0.000000e+000
85248690.000	-3.125591e-002	-2.736755e+001	-5.012590e+001	7.056660e+001	-2.000000e+002	0.000000e+000	-2.000000e+002	0.000000e+000
85898680.000	-3.115251e-002	-2.757503e+001	-5.006778e+001	6.971955e+001	-2.000000e+002	0.000000e+000	-2.000000e+002	0.000000e+000
86548670.000	-3.180850e-002	-2.778046e+001	-4.998866e+001	6.890193e+001	-2.000000e+002	0.000000e+000	-2.000000e+002	0.000000e+000
87198660.000	-3.152055e-002	-2.798546e+001	-5.001533e+001	6.828697e+001	-2.000000e+002	0.000000e+000	-2.000000e+002	0.000000e+000
87848650.000	-3.215977e-002	-2.819212e+001	-4.998151e+001	6.783478e+001	-2.000000e+002	0.000000e+000	-2.000000e+002	0.000000e+000
88498640.000	-3.180043e-002	-2.839421e+001	-4.997154e+001	6.758530e+001	-2.000000e+002	0.000000e+000	-2.000000e+002	0.000000e+000
89148630.000	-3.333007e-002	-2.860402e+001	-4.995759e+001	6.712545e+001	-2.000000e+002	0.000000e+000	-2.000000e+002	0.000000e+000
89798620.000	-3.342269e-002	-2.881448e+001	-4.993867e+001	6.671542e+001	-2.000000e+002	0.000000e+000	-2.000000e+002	0.000000e+000
90448610.000	-3.301270e-002	-2.902298e+001	-4.993460e+001	6.734313e+001	-2.000000e+002	0.000000e+000	-2.000000e+002	0.000000e+000
91098600.000	-3.383351e-002	-2.923426e+001	-4.988306e+001	6.700509e+001	-2.000000e+002	0.000000e+000	-2.000000e+002	0.000000e+000
91748590.000	-3.379883e-002	-2.943910e+001	-4.981798e+001	6.701907e+001	-2.000000e+002	0.000000e+000	-2.000000e+002	0.000000e+000
92398580.000	-3.424696e-002	-2.965165e+001	-4.983211e+001	6.695632e+001	-2.000000e+002	0.000000e+000	-2.000000e+002	0.000000e+000
93048570.000	-3.434182e-002	-2.986258e+001	-4.974537e+001	6.738475e+001	-2.000000e+002	0.000000e+000	-2.000000e+002	0.000000e+000
93698560.000	-3.514888e-002	-3.007158e+001	-4.965211e+001	6.759225e+001	-2.000000e+002	0.000000e+000	-2.000000e+002	0.000000e+000
94348550.000	-3.506014e-002	-3.027871e+001	-4.957467e+001	6.723910e+001	-2.000000e+002	0.000000e+000	-2.000000e+002	0.000000e+000
94998540.000	-3.645733e-002	-3.048885e+001	-4.948774e+001	6.765252e+001	-2.000000e+002	0.000000e+000	-2.000000e+002	0.000000e+000
95648530.000	-3.680455e-002	-3.069127e+001	-4.942758e+001	6.703050e+001	-2.000000e+002	0.000000e+000	-2.000000e+002	0.000000e+000
96298520.000	-3.646900e-002	-3.089796e+001	-4.936893e+001	6.695103e+001	-2.000000e+002	0.000000e+000	-2.000000e+002	0.000000e+000
96948510.000	-3.751016e-002	-3.110492e+001	-4.933798e+001	6.683358e+001	-2.000000e+002	0.000000e+000	-2.000000e+002	0.000000e+000
97598500.000	-3.807181e-002	-3.131113e+001	-4.924173e+001	6.687614e+001	-2.000000e+002	0.000000e+000	-2.000000e+002	0.000000e+000
98248490.000	-3.753919e-002	-3.151529e+001	-4.912903e+001	6.683449e+001	-2.000000e+002	0.000000e+000	-2.000000e+002	0.000000e+000
