!Keysight Technologies,E5063A,MY54503115,A.05.08
!Date: Mon Dec 11 14:07:12 2023
!Data & Calibration Information:
!Freq	S11:NONE(--)	S21:NONE(--)	S12:NONE(--)	S22:NONE(--)
# Hz S dB R 50
100000.000	4.929116e-002	-6.025587e-001	-8.202540e+001	6.670045e+001	-2.000000e+002	0.000000e+000	-2.000000e+002	0.000000e+000
749990.000	1.576978e-003	-5.900431e-001	-8.628451e+001	-1.737330e+001	-2.000000e+002	0.000000e+000	-2.000000e+002	0.000000e+000
1399980.000	6.143959e-004	-7.599863e-001	-8.723213e+001	1.368467e+002	-2.000000e+002	0.000000e+000	-2.000000e+002	0.000000e+000
2049970.000	1.669803e-003	-9.446552e-001	-9.085914e+001	1.669174e+002	-2.000000e+002	0.000000e+000	-2.000000e+002	0.000000e+000
2699960.000	1.010485e-003	-1.151995e+000	-8.225380e+001	1.202010e+002	-2.000000e+002	0.000000e+000	-2.000000e+002	0.000000e+000
3349950.000	2.027481e-003	-1.357324e+000	-7.752389e+001	9.931682e+001	-2.000000e+002	0.000000e+000	-2.000000e+002	0.000000e+000
3999940.000	2.527619e-003	-1.563971e+000	-7.677445e+001	9.263131e+001	-2.000000e+002	0.000000e+000	-2.000000e+002	0.000000e+000
4649930.000	3.980834e-003	-1.776897e+000	-7.493014e+001	7.825588e+001	-2.000000e+002	0.000000e+000	-2.000000e+002	0.000000e+000
5299920.000	1.660774e-003	-1.973301e+000	-7.439196e+001	7.722105e+001	-2.000000e+002	0.000000e+000	-2.000000e+002	0.000000e+000
5949910.000	1.854272e-003	-2.183573e+000	-7.269676e+001	7.753231e+001	-2.000000e+002	0.000000e+000	-2.000000e+002	0.000000e+000
6599900.000	1.071695e-003	-2.383571e+000	-7.333415e+001	7.170039e+001	-2.000000e+002	0.000000e+000	-2.000000e+002	0.000000e+000
7249890.000	2.157748e-003	-2.595811e+000	-7.161326e+001	8.216730e+001	-2.000000e+002	0.000000e+000	-2.000000e+002	0.000000e+000
7899880.000	1.154905e-003	-2.809224e+000	-7.178113e+001	8.112896e+001	-2.000000e+002	0.000000e+000	-2.000000e+002	0.000000e+000
8549870.000	3.691774e-003	-3.022907e+000	-7.085702e+001	8.698378e+001	-2.000000e+002	0.000000e+000	-2.000000e+002	0.000000e+000
9199860.000	2.244995e-003	-3.228260e+000	-7.037173e+001	8.641498e+001	-2.000000e+002	0.000000e+000	-2.000000e+002	0.000000e+000
9849850.000	2.348929e-003	-3.435333e+000	-7.000826e+001	8.622901e+001	-2.000000e+002	0.000000e+000	-2.000000e+002	0.000000e+000
10499840.000	2.108688e-003	-3.633029e+000	-6.945590e+001	8.822281e+001	-2.000000e+002	0.000000e+000	-2.000000e+002	0.000000e+000
11149830.000	-5.835285e-004	-3.829928e+000	-6.839616e+001	8.764546e+001	-2.000000e+002	0.000000e+000	-2.000000e+002	0.000000e+000
11799820.000	-4.998974e-004	-4.033836e+000	-6.825515e+001	8.700871e+001	-2.000000e+002	0.000000e+000	-2.000000e+002	0.000000e+000
12449810.000	1.060944e-004	-4.248287e+000	-6.768784e+001	8.754430e+001	-2.000000e+002	0.000000e+000	-2.000000e+002	0.000000e+000
13099800.000	1.812583e-003	-4.462814e+000	-6.733374e+001	8.662535e+001	-2.000000e+002	0.000000e+000	-2.000000e+002	0.000000e+000
13749790.000	1.171918e-003	-4.663499e+000	-6.681928e+001	8.603644e+001	-2.000000e+002	0.000000e+000	-2.000000e+002	0.000000e+000
14399780.000	-3.461772e-004	-4.875810e+000	-6.635474e+001	8.399982e+001	-2.000000e+002	0.000000e+000	-2.000000e+002	0.000000e+000
15049770.000	-5.371133e-004	-5.093509e+000	-6.645852e+001	8.529697e+001	-2.000000e+002	0.000000e+000	-2.000000e+002	0.000000e+000
15699760.000	1.395459e-003	-5.276677e+000	-6.563743e+001	8.538867e+001	-2.000000e+002	0.000000e+000	-2.000000e+002	0.000000e+000
16349750.000	1.588180e-003	-5.479695e+000	-6.553552e+001	8.600380e+001	-2.000000e+002	0.000000e+000	-2.000000e+002	0.000000e+000
16999740.000	-5.450603e-004	-5.695791e+000	-6.492267e+001	8.549687e+001	-2.000000e+002	0.000000e+000	-2.000000e+002	0.000000e+000
17649730.000	6.613173e-003	-5.929238e+000	-6.470363e+001	8.497188e+001	-2.000000e+002	0.000000e+000	-2.000000e+002	0.000000e+000
18299720.000	9.508628e-003	-6.144482e+000	-6.460971e+001	8.395161e+001	-2.000000e+002	0.000000e+000	-2.000000e+002	0.000000e+000
18949710.000	8.579058e-003	-6.350052e+000	-6.440969e+001	8.447945e+001	-2.000000e+002	0.000000e+000	-2.000000e+002	0.000000e+000
19599700.000	2.958036e-003	-6.527857e+000	-6.402094e+001	8.426144e+001	-2.000000e+002	0.000000e+000	-2.000000e+002	0.000000e+000
20249690.000	-5.492473e-004	-6.718476e+000	-6.377223e+001	8.498661e+001	-2.000000e+002	0.000000e+000	-2.000000e+002	0.000000e+000
20899680.000	-2.768817e-003	-6.957163e+000	-6.355065e+001	8.480476e+001	-2.000000e+002	0.000000e+000	-2.000000e+002	0.000000e+000
21549670.000	-2.716925e-003	-7.172788e+000	-6.336849e+001	8.479821e+001	-2.000000e+002	0.000000e+000	-2.000000e+002	0.000000e+000
22199660.000	-1.404734e-003	-7.366498e+000	-6.334297e+001	8.516640e+001	-2.000000e+002	0.000000e+000	-2.000000e+002	0.000000e+000
22849650.000	1.725693e-003	-7.545487e+000	-6.299495e+001	8.692626e+001	-2.000000e+002	0.000000e+000	-2.000000e+002	0.000000e+000
23499640.000	1.549780e-003	-7.749446e+000	-6.257466e+001	8.906447e+001	-2.000000e+002	0.000000e+000	-2.000000e+002	0.000000e+000
24149630.000	-1.340742e-003	-7.960398e+000	-6.202474e+001	8.897651e+001	-2.000000e+002	0.000000e+000	-2.000000e+002	0.000000e+000
24799620.000	-1.252534e-003	-8.165443e+000	-6.172653e+001	8.895684e+001	-2.000000e+002	0.000000e+000	-2.000000e+002	0.000000e+000
25449610.000	1.902023e-003	-8.374435e+000	-6.126242e+001	8.677750e+001	-2.000000e+002	0.000000e+000	-2.000000e+002	0.000000e+000
26099600.000	1.293250e-003	-8.573856e+000	-6.105148e+001	8.666320e+001	-2.000000e+002	0.000000e+000	-2.000000e+002	0.000000e+000
26749590.000	3.612554e-004	-8.785474e+000	-6.069174e+001	8.493829e+001	-2.000000e+002	0.000000e+000	-2.000000e+002	0.000000e+000
27399580.000	-3.274851e-004	-8.995778e+000	-6.058451e+001	8.514882e+001	-2.000000e+002	0.000000e+000	-2.000000e+002	0.000000e+000
28049570.000	7.966365e-004	-9.208741e+000	-6.032834e+001	8.614208e+001	-2.000000e+002	0.000000e+000	-2.000000e+002	0.000000e+000
28699560.000	7.252768e-005	-9.407378e+000	-6.003533e+001	8.388916e+001	-2.000000e+002	0.000000e+000	-2.000000e+002	0.000000e+000
29349550.000	4.552626e-004	-9.607667e+000	-5.981522e+001	8.368207e+001	-2.000000e+002	0.000000e+000	-2.000000e+002	0.000000e+000
29999540.000	-4.955119e-004	-9.810745e+000	-5.964990e+001	8.179369e+001	-2.000000e+002	0.000000e+000	-2.000000e+002	0.000000e+000
30649530.000	-1.116464e-003	-1.002483e+001	-5.947265e+001	8.215738e+001	-2.000000e+002	0.000000e+000	-2.000000e+002	0.000000e+000
31299520.000	1.993840e-004	-1.023925e+001	-5.933578e+001	8.249978e+001	-2.000000e+002	0.000000e+000	-2.000000e+002	0.000000e+000
31949510.000	-1.519909e-004	-1.044541e+001	-5.924531e+001	8.113861e+001	-2.000000e+002	0.000000e+000	-2.000000e+002	0.000000e+000
32599500.000	-6.806237e-004	-1.065012e+001	-5.897583e+001	8.135207e+001	-2.000000e+002	0.000000e+000	-2.000000e+002	0.000000e+000
33249490.000	-2.453678e-004	-1.085708e+001	-5.903226e+001	8.170036e+001	-2.000000e+002	0.000000e+000	-2.000000e+002	0.000000e+000
33899480.000	-9.399259e-004	-1.106725e+001	-5.866028e+001	8.095753e+001	-2.000000e+002	0.000000e+000	-2.000000e+002	0.000000e+000
34549470.000	-1.464680e-003	-1.126406e+001	-5.856544e+001	7.998268e+001	-2.000000e+002	0.000000e+000	-2.000000e+002	0.000000e+000
35199460.000	-1.096270e-003	-1.147038e+001	-5.839080e+001	8.055725e+001	-2.000000e+002	0.000000e+000	-2.000000e+002	0.000000e+000
35849450.000	-1.634893e-003	-1.167203e+001	-5.826938e+001	8.030095e+001	-2.000000e+002	0.000000e+000	-2.000000e+002	0.000000e+000
36499440.000	-1.239499e-003	-1.187766e+001	-5.813320e+001	8.017955e+001	-2.000000e+002	0.000000e+000	-2.000000e+002	0.000000e+000
37149430.000	-1.942358e-003	-1.208522e+001	-5.805082e+001	7.950523e+001	-2.000000e+002	0.000000e+000	-2.000000e+002	0.000000e+000
37799420.000	-1.682805e-003	-1.229123e+001	-5.782407e+001	7.917461e+001	-2.000000e+002	0.000000e+000	-2.000000e+002	0.000000e+000
38449410.000	-1.805165e-003	-1.250095e+001	-5.769765e+001	7.880471e+001	-2.000000e+002	0.000000e+000	-2.000000e+002	0.000000e+000
39099400.000	-2.818300e-003	-1.271203e+001	-5.765879e+001	7.870619e+001	-2.000000e+002	0.000000e+000	-2.000000e+002	0.000000e+000
39749390.000	-3.553337e-003	-1.292380e+001	-5.753972e+001	7.906007e+001	-2.000000e+002	0.000000e+000	-2.000000e+002	0.000000e+000
40399380.000	-3.720662e-003	-1.313590e+001	-5.738158e+001	7.886969e+001	-2.000000e+002	0.000000e+000	-2.000000e+002	0.000000e+000
41049370.000	-3.013717e-003	-1.334119e+001	-5.719757e+001	7.818022e+001	-2.000000e+002	0.000000e+000	-2.000000e+002	0.000000e+000
41699360.000	-2.212095e-003	-1.354491e+001	-5.709359e+001	7.827952e+001	-2.000000e+002	0.000000e+000	-2.000000e+002	0.000000e+000
42349350.000	-1.809984e-003	-1.374882e+001	-5.702048e+001	7.810607e+001	-2.000000e+002	0.000000e+000	-2.000000e+002	0.000000e+000
42999340.000	-3.396641e-003	-1.395548e+001	-5.685413e+001	7.770262e+001	-2.000000e+002	0.000000e+000	-2.000000e+002	0.000000e+000
43649330.000	-2.611711e-003	-1.416366e+001	-5.674558e+001	7.788984e+001	-2.000000e+002	0.000000e+000	-2.000000e+002	0.000000e+000
44299320.000	-2.889549e-003	-1.436819e+001	-5.669363e+001	7.694795e+001	-2.000000e+002	0.000000e+000	-2.000000e+002	0.000000e+000
44949310.000	-2.769266e-003	-1.457916e+001	-5.657768e+001	7.719462e+001	-2.000000e+002	0.000000e+000	-2.000000e+002	0.000000e+000
45599300.000	-3.386597e-003	-1.479299e+001	-5.645646e+001	7.702861e+001	-2.000000e+002	0.000000e+000	-2.000000e+002	0.000000e+000
46249290.000	-4.449859e-003	-1.499682e+001	-5.638786e+001	7.722669e+001	-2.000000e+002	0.000000e+000	-2.000000e+002	0.000000e+000
46899280.000	-4.612644e-003	-1.520195e+001	-5.625566e+001	7.669407e+001	-2.000000e+002	0.000000e+000	-2.000000e+002	0.000000e+000
47549270.000	-5.577524e-003	-1.540908e+001	-5.613565e+001	7.691911e+001	-2.000000e+002	0.000000e+000	-2.000000e+002	0.000000e+000
48199260.000	-6.933602e-003	-1.561742e+001	-5.615412e+001	7.687068e+001	-2.000000e+002	0.000000e+000	-2.000000e+002	0.000000e+000
48849250.000	-8.228298e-003	-1.583089e+001	-5.601671e+001	7.638381e+001	-2.000000e+002	0.000000e+000	-2.000000e+002	0.000000e+000
49499240.000	-8.163073e-003	-1.603198e+001	-5.590145e+001	7.685009e+001	-2.000000e+002	0.000000e+000	-2.000000e+002	0.000000e+000
50149230.000	-7.836349e-003	-1.624275e+001	-5.584865e+001	7.653755e+001	-2.000000e+002	0.000000e+000	-2.000000e+002	0.000000e+000
50799220.000	-8.363622e-003	-1.645498e+001	-5.579415e+001	7.772501e+001	-2.000000e+002	0.000000e+000	-2.000000e+002	0.000000e+000
51449210.000	-7.570295e-003	-1.665643e+001	-5.579484e+001	7.786121e+001	-2.000000e+002	0.000000e+000	-2.000000e+002	0.000000e+000
52099200.000	-7.995667e-003	-1.686567e+001	-5.567181e+001	7.843858e+001	-2.000000e+002	0.000000e+000	-2.000000e+002	0.000000e+000
52749190.000	-8.326295e-003	-1.707145e+001	-5.546381e+001	7.876923e+001	-2.000000e+002	0.000000e+000	-2.000000e+002	0.000000e+000
53399180.000	-9.132212e-003	-1.727932e+001	-5.532024e+001	7.938918e+001	-2.000000e+002	0.000000e+000	-2.000000e+002	0.000000e+000
54049170.000	-9.376101e-003	-1.748453e+001	-5.505920e+001	8.002512e+001	-2.000000e+002	0.000000e+000	-2.000000e+002	0.000000e+000
54699160.000	-9.503127e-003	-1.769181e+001	-5.479286e+001	8.005078e+001	-2.000000e+002	0.000000e+000	-2.000000e+002	0.000000e+000
55349150.000	-1.022700e-002	-1.789913e+001	-5.450136e+001	8.054625e+001	-2.000000e+002	0.000000e+000	-2.000000e+002	0.000000e+000
55999140.000	-1.101500e-002	-1.810068e+001	-5.424847e+001	7.950978e+001	-2.000000e+002	0.000000e+000	-2.000000e+002	0.000000e+000
56649130.000	-1.117739e-002	-1.831019e+001	-5.408808e+001	7.870220e+001	-2.000000e+002	0.000000e+000	-2.000000e+002	0.000000e+000
57299120.000	-1.148247e-002	-1.851402e+001	-5.386657e+001	7.788993e+001	-2.000000e+002	0.000000e+000	-2.000000e+002	0.000000e+000
57949110.000	-1.161707e-002	-1.871745e+001	-5.375679e+001	7.713686e+001	-2.000000e+002	0.000000e+000	-2.000000e+002	0.000000e+000
58599100.000	-1.142741e-002	-1.892394e+001	-5.370050e+001	7.614664e+001	-2.000000e+002	0.000000e+000	-2.000000e+002	0.000000e+000
59249090.000	-1.230808e-002	-1.912958e+001	-5.364404e+001	7.566795e+001	-2.000000e+002	0.000000e+000	-2.000000e+002	0.000000e+000
59899080.000	-1.222157e-002	-1.933770e+001	-5.364721e+001	7.542534e+001	-2.000000e+002	0.000000e+000	-2.000000e+002	0.000000e+000
60549070.000	-1.303846e-002	-1.954004e+001	-5.346800e+001	7.512443e+001	-2.000000e+002	0.000000e+000	-2.000000e+002	0.000000e+000
61199060.000	-1.461531e-002	-1.974817e+001	-5.342055e+001	7.475324e+001	-2.000000e+002	0.000000e+000	-2.000000e+002	0.000000e+000
61849050.000	-1.469437e-002	-1.994956e+001	-5.338561e+001	7.439118e+001	-2.000000e+002	0.000000e+000	-2.000000e+002	0.000000e+000
62499040.000	-1.575056e-002	-2.015394e+001	-5.324263e+001	7.428157e+001	-2.000000e+002	0.000000e+000	-2.000000e+002	0.000000e+000
63149030.000	-1.560822e-002	-2.035752e+001	-5.319605e+001	7.425565e+001	-2.000000e+002	0.000000e+000	-2.000000e+002	0.000000e+000
63799020.000	-1.682225e-002	-2.056206e+001	-5.305995e+001	7.423769e+001	-2.000000e+002	0.000000e+000	-2.000000e+002	0.000000e+000
64449010.000	-1.721746e-002	-2.076649e+001	-5.298632e+001	7.356560e+001	-2.000000e+002	0.000000e+000	-2.000000e+002	0.000000e+000
65099000.000	-1.739721e-002	-2.097275e+001	-5.287859e+001	7.364986e+001	-2.000000e+002	0.000000e+000	-2.000000e+002	0.000000e+000
65748990.000	-1.721602e-002	-2.117759e+001	-5.276180e+001	7.315305e+001	-2.000000e+002	0.000000e+000	-2.000000e+002	0.000000e+000
66398980.000	-1.821567e-002	-2.138546e+001	-5.271698e+001	7.288343e+001	-2.000000e+002	0.000000e+000	-2.000000e+002	0.000000e+000
67048970.000	-1.826703e-002	-2.159257e+001	-5.262140e+001	7.296656e+001	-2.000000e+002	0.000000e+000	-2.000000e+002	0.000000e+000
67698960.000	-1.874585e-002	-2.179441e+001	-5.256338e+001	7.239726e+001	-2.000000e+002	0.000000e+000	-2.000000e+002	0.000000e+000
68348950.000	-1.977802e-002	-2.199891e+001	-5.245338e+001	7.185708e+001	-2.000000e+002	0.000000e+000	-2.000000e+002	0.000000e+000
68998940.000	-2.009724e-002	-2.220368e+001	-5.245765e+001	7.173956e+001	-2.000000e+002	0.000000e+000	-2.000000e+002	0.000000e+000
69648930.000	-1.994651e-002	-2.240925e+001	-5.239441e+001	7.133411e+001	-2.000000e+002	0.000000e+000	-2.000000e+002	0.000000e+000
70298920.000	-2.003506e-002	-2.262324e+001	-5.230540e+001	7.139045e+001	-2.000000e+002	0.000000e+000	-2.000000e+002	0.000000e+000
70948910.000	-2.023699e-002	-2.282945e+001	-5.219052e+001	7.114374e+001	-2.000000e+002	0.000000e+000	-2.000000e+002	0.000000e+000
71598900.000	-2.036535e-002	-2.303684e+001	-5.212763e+001	7.114157e+001	-2.000000e+002	0.000000e+000	-2.000000e+002	0.000000e+000
72248890.000	-2.121063e-002	-2.324465e+001	-5.208513e+001	7.093792e+001	-2.000000e+002	0.000000e+000	-2.000000e+002	0.000000e+000
72898880.000	-2.068856e-002	-2.344958e+001	-5.204439e+001	7.082861e+001	-2.000000e+002	0.000000e+000	-2.000000e+002	0.000000e+000
73548870.000	-2.184945e-002	-2.366044e+001	-5.196584e+001	7.083882e+001	-2.000000e+002	0.000000e+000	-2.000000e+002	0.000000e+000
74198860.000	-2.214532e-002	-2.386258e+001	-5.191149e+001	7.060018e+001	-2.000000e+002	0.000000e+000	-2.000000e+002	0.000000e+000
74848850.000	-2.290306e-002	-2.407105e+001	-5.183287e+001	7.065446e+001	-2.000000e+002	0.000000e+000	-2.000000e+002	0.000000e+000
75498840.000	-2.263316e-002	-2.427781e+001	-5.179299e+001	7.078489e+001	-2.000000e+002	0.000000e+000	-2.000000e+002	0.000000e+000
76148830.000	-2.312682e-002	-2.448138e+001	-5.170856e+001	7.022288e+001	-2.000000e+002	0.000000e+000	-2.000000e+002	0.000000e+000
76798820.000	-2.259339e-002	-2.468701e+001	-5.159841e+001	7.076171e+001	-2.000000e+002	0.000000e+000	-2.000000e+002	0.000000e+000
77448810.000	-2.500718e-002	-2.488962e+001	-5.156916e+001	7.071164e+001	-2.000000e+002	0.000000e+000	-2.000000e+002	0.000000e+000
78098800.000	-2.528787e-002	-2.509698e+001	-5.147873e+001	7.053538e+001	-2.000000e+002	0.000000e+000	-2.000000e+002	0.000000e+000
78748790.000	-2.548332e-002	-2.530135e+001	-5.138624e+001	7.038660e+001	-2.000000e+002	0.000000e+000	-2.000000e+002	0.000000e+000
79398780.000	-2.520235e-002	-2.550773e+001	-5.133472e+001	7.024094e+001	-2.000000e+002	0.000000e+000	-2.000000e+002	0.000000e+000
80048770.000	-2.571533e-002	-2.572272e+001	-5.128444e+001	7.028080e+001	-2.000000e+002	0.000000e+000	-2.000000e+002	0.000000e+000
80698760.000	-2.608938e-002	-2.592949e+001	-5.120139e+001	7.026137e+001	-2.000000e+002	0.000000e+000	-2.000000e+002	0.000000e+000
81348750.000	-2.684408e-002	-2.613565e+001	-5.115437e+001	7.027981e+001	-2.000000e+002	0.000000e+000	-2.000000e+002	0.000000e+000
81998740.000	-2.748876e-002	-2.634023e+001	-5.101815e+001	7.074732e+001	-2.000000e+002	0.000000e+000	-2.000000e+002	0.000000e+000
82648730.000	-2.797390e-002	-2.654364e+001	-5.093857e+001	7.111850e+001	-2.000000e+002	0.000000e+000	-2.000000e+002	0.000000e+000
83298720.000	-2.942979e-002	-2.675168e+001	-5.076909e+001	7.109684e+001	-2.000000e+002	0.000000e+000	-2.000000e+002	0.000000e+000
83948710.000	-2.951492e-002	-2.695636e+001	-5.064233e+001	7.141199e+001	-2.000000e+002	0.000000e+000	-2.000000e+002	0.000000e+000
84598700.000	-2.964236e-002	-2.716452e+001	-5.046539e+001	7.128297e+001	-2.000000e+002	0.000000e+000	-2.000000e+002	0.000000e+000
85248690.000	-2.982775e-002	-2.737153e+001	-5.029760e+001	7.052873e+001	-2.000000e+002	0.000000e+000	-2.000000e+002	0.000000e+000
85898680.000	-3.003591e-002	-2.757771e+001	-5.014895e+001	6.972859e+001	-2.000000e+002	0.000000e+000	-2.000000e+002	0.000000e+000
86548670.000	-3.012717e-002	-2.778092e+001	-5.008246e+001	6.904091e+001	-2.000000e+002	0.000000e+000	-2.000000e+002	0.000000e+000
87198660.000	-3.051997e-002	-2.798935e+001	-4.998869e+001	6.848906e+001	-2.000000e+002	0.000000e+000	-2.000000e+002	0.000000e+000
87848650.000	-3.115020e-002	-2.819203e+001	-4.997464e+001	6.791292e+001	-2.000000e+002	0.000000e+000	-2.000000e+002	0.000000e+000
88498640.000	-3.086378e-002	-2.839741e+001	-4.993600e+001	6.738146e+001	-2.000000e+002	0.000000e+000	-2.000000e+002	0.000000e+000
89148630.000	-3.190548e-002	-2.860543e+001	-4.996838e+001	6.710072e+001	-2.000000e+002	0.000000e+000	-2.000000e+002	0.000000e+000
89798620.000	-3.179820e-002	-2.881329e+001	-4.993523e+001	6.695643e+001	-2.000000e+002	0.000000e+000	-2.000000e+002	0.000000e+000
90448610.000	-3.162968e-002	-2.902220e+001	-4.990251e+001	6.663813e+001	-2.000000e+002	0.000000e+000	-2.000000e+002	0.000000e+000
91098600.000	-3.292377e-002	-2.923421e+001	-4.988037e+001	6.680194e+001	-2.000000e+002	0.000000e+000	-2.000000e+002	0.000000e+000
91748590.000	-3.297185e-002	-2.944594e+001	-4.981462e+001	6.658819e+001	-2.000000e+002	0.000000e+000	-2.000000e+002	0.000000e+000
92398580.000	-3.351286e-002	-2.964876e+001	-4.975699e+001	6.683346e+001	-2.000000e+002	0.000000e+000	-2.000000e+002	0.000000e+000
93048570.000	-3.300385e-002	-2.986158e+001	-4.968868e+001	6.726819e+001	-2.000000e+002	0.000000e+000	-2.000000e+002	0.000000e+000
93698560.000	-3.346984e-002	-3.006862e+001	-4.961676e+001	6.705574e+001	-2.000000e+002	0.000000e+000	-2.000000e+002	0.000000e+000
94348550.000	-3.377733e-002	-3.027705e+001	-4.957894e+001	6.721050e+001	-2.000000e+002	0.000000e+000	-2.000000e+002	0.000000e+000
94998540.000	-3.494996e-002	-3.048878e+001	-4.949043e+001	6.688408e+001	-2.000000e+002	0.000000e+000	-2.000000e+002	0.000000e+000
95648530.000	-3.504763e-002	-3.068979e+001	-4.940354e+001	6.728832e+001	-2.000000e+002	0.000000e+000	-2.000000e+002	0.000000e+000
96298520.000	-3.565966e-002	-3.089384e+001	-4.929425e+001	6.696261e+001	-2.000000e+002	0.000000e+000	-2.000000e+002	0.000000e+000
96948510.000	-3.671439e-002	-3.110117e+001	-4.913889e+001	6.691691e+001	-2.000000e+002	0.000000e+000	-2.000000e+002	0.000000e+000
97598500.000	-3.709019e-002	-3.130711e+001	-4.904298e+001	6.628247e+001	-2.000000e+002	0.000000e+000	-2.000000e+002	0.000000e+000
98248490.000	-3.631645e-002	-3.150624e+001	-4.901513e+001	6.582962e+001	-2.000000e+002	0.000000e+000	-2.000000e+002	0.000000e+000
