!Keysight Technologies,E5063A,MY54503115,A.05.08
!Date: Mon Dec 11 14:23:37 2023
!Data & Calibration Information:
!Freq	S11:NONE(--)	S21:NONE(--)	S12:NONE(--)	S22:NONE(--)
# Hz S dB R 50
100000.000	4.843346e-002	-6.114364e-001	-7.973586e+001	5.714718e+001	-2.000000e+002	0.000000e+000	-2.000000e+002	0.000000e+000
749990.000	-6.235416e-004	-5.899741e-001	-9.125293e+001	1.151001e+002	-2.000000e+002	0.000000e+000	-2.000000e+002	0.000000e+000
1399980.000	7.094389e-004	-7.657480e-001	-9.448398e+001	-1.797247e+002	-2.000000e+002	0.000000e+000	-2.000000e+002	0.000000e+000
2049970.000	-6.086414e-004	-9.563229e-001	-8.141828e+001	1.264903e+002	-2.000000e+002	0.000000e+000	-2.000000e+002	0.000000e+000
2699960.000	-1.193330e-005	-1.150009e+000	-8.073397e+001	1.130738e+002	-2.000000e+002	0.000000e+000	-2.000000e+002	0.000000e+000
3349950.000	7.692930e-005	-1.363744e+000	-7.670887e+001	1.054335e+002	-2.000000e+002	0.000000e+000	-2.000000e+002	0.000000e+000
3999940.000	-1.965944e-004	-1.566439e+000	-7.926510e+001	6.263675e+001	-2.000000e+002	0.000000e+000	-2.000000e+002	0.000000e+000
4649930.000	-1.749491e-005	-1.780951e+000	-7.478941e+001	7.765505e+001	-2.000000e+002	0.000000e+000	-2.000000e+002	0.000000e+000
5299920.000	-8.201312e-004	-1.979632e+000	-7.408672e+001	8.572749e+001	-2.000000e+002	0.000000e+000	-2.000000e+002	0.000000e+000
5949910.000	1.550203e-004	-2.185906e+000	-7.353775e+001	7.989604e+001	-2.000000e+002	0.000000e+000	-2.000000e+002	0.000000e+000
6599900.000	-8.419195e-004	-2.393037e+000	-7.379167e+001	8.864571e+001	-2.000000e+002	0.000000e+000	-2.000000e+002	0.000000e+000
7249890.000	-5.557555e-004	-2.602183e+000	-7.262717e+001	8.146777e+001	-2.000000e+002	0.000000e+000	-2.000000e+002	0.000000e+000
7899880.000	-1.570907e-003	-2.816990e+000	-7.140940e+001	9.350164e+001	-2.000000e+002	0.000000e+000	-2.000000e+002	0.000000e+000
8549870.000	1.377920e-003	-3.027098e+000	-7.085411e+001	9.007485e+001	-2.000000e+002	0.000000e+000	-2.000000e+002	0.000000e+000
9199860.000	5.460021e-004	-3.231369e+000	-7.058971e+001	8.701920e+001	-2.000000e+002	0.000000e+000	-2.000000e+002	0.000000e+000
9849850.000	3.065474e-004	-3.441694e+000	-6.969322e+001	8.965953e+001	-2.000000e+002	0.000000e+000	-2.000000e+002	0.000000e+000
10499840.000	-1.329813e-004	-3.637811e+000	-6.910795e+001	8.886268e+001	-2.000000e+002	0.000000e+000	-2.000000e+002	0.000000e+000
11149830.000	-1.784441e-003	-3.834365e+000	-6.868785e+001	8.654352e+001	-2.000000e+002	0.000000e+000	-2.000000e+002	0.000000e+000
11799820.000	-2.662314e-003	-4.039554e+000	-6.806465e+001	8.758468e+001	-2.000000e+002	0.000000e+000	-2.000000e+002	0.000000e+000
12449810.000	-9.618143e-004	-4.250546e+000	-6.788490e+001	8.562384e+001	-2.000000e+002	0.000000e+000	-2.000000e+002	0.000000e+000
13099800.000	7.655172e-005	-4.466756e+000	-6.717938e+001	8.493407e+001	-2.000000e+002	0.000000e+000	-2.000000e+002	0.000000e+000
13749790.000	-6.395664e-004	-4.669189e+000	-6.690504e+001	8.571332e+001	-2.000000e+002	0.000000e+000	-2.000000e+002	0.000000e+000
14399780.000	-2.137050e-003	-4.884686e+000	-6.631650e+001	8.537959e+001	-2.000000e+002	0.000000e+000	-2.000000e+002	0.000000e+000
15049770.000	-2.514418e-003	-5.099068e+000	-6.613129e+001	8.551637e+001	-2.000000e+002	0.000000e+000	-2.000000e+002	0.000000e+000
15699760.000	-4.387602e-004	-5.286010e+000	-6.584677e+001	8.452287e+001	-2.000000e+002	0.000000e+000	-2.000000e+002	0.000000e+000
16349750.000	-6.503952e-004	-5.486730e+000	-6.538536e+001	8.513457e+001	-2.000000e+002	0.000000e+000	-2.000000e+002	0.000000e+000
16999740.000	-3.268320e-003	-5.703626e+000	-6.500685e+001	8.599821e+001	-2.000000e+002	0.000000e+000	-2.000000e+002	0.000000e+000
17649730.000	4.580617e-003	-5.932821e+000	-6.495751e+001	8.518399e+001	-2.000000e+002	0.000000e+000	-2.000000e+002	0.000000e+000
18299720.000	6.894354e-003	-6.152953e+000	-6.458000e+001	8.422994e+001	-2.000000e+002	0.000000e+000	-2.000000e+002	0.000000e+000
18949710.000	5.944878e-003	-6.355088e+000	-6.423738e+001	8.489912e+001	-2.000000e+002	0.000000e+000	-2.000000e+002	0.000000e+000
19599700.000	8.413142e-004	-6.527579e+000	-6.386700e+001	8.450716e+001	-2.000000e+002	0.000000e+000	-2.000000e+002	0.000000e+000
20249690.000	-3.334303e-003	-6.720237e+000	-6.363428e+001	8.372635e+001	-2.000000e+002	0.000000e+000	-2.000000e+002	0.000000e+000
20899680.000	-4.798444e-003	-6.962140e+000	-6.342856e+001	8.407969e+001	-2.000000e+002	0.000000e+000	-2.000000e+002	0.000000e+000
21549670.000	-4.448224e-003	-7.174252e+000	-6.343761e+001	8.444117e+001	-2.000000e+002	0.000000e+000	-2.000000e+002	0.000000e+000
22199660.000	-3.720374e-003	-7.367095e+000	-6.301744e+001	8.617783e+001	-2.000000e+002	0.000000e+000	-2.000000e+002	0.000000e+000
22849650.000	-8.298899e-004	-7.544199e+000	-6.278621e+001	8.744519e+001	-2.000000e+002	0.000000e+000	-2.000000e+002	0.000000e+000
23499640.000	-1.423372e-003	-7.752240e+000	-6.238127e+001	8.767060e+001	-2.000000e+002	0.000000e+000	-2.000000e+002	0.000000e+000
24149630.000	-3.287329e-003	-7.962029e+000	-6.191937e+001	8.882473e+001	-2.000000e+002	0.000000e+000	-2.000000e+002	0.000000e+000
24799620.000	-2.822853e-003	-8.167858e+000	-6.158208e+001	8.799919e+001	-2.000000e+002	0.000000e+000	-2.000000e+002	0.000000e+000
25449610.000	3.336854e-004	-8.377216e+000	-6.108670e+001	8.706066e+001	-2.000000e+002	0.000000e+000	-2.000000e+002	0.000000e+000
26099600.000	-3.210253e-005	-8.581287e+000	-6.092793e+001	8.616659e+001	-2.000000e+002	0.000000e+000	-2.000000e+002	0.000000e+000
26749590.000	-1.417909e-003	-8.789222e+000	-6.073960e+001	8.419202e+001	-2.000000e+002	0.000000e+000	-2.000000e+002	0.000000e+000
27399580.000	-1.823482e-003	-8.997734e+000	-6.044456e+001	8.404719e+001	-2.000000e+002	0.000000e+000	-2.000000e+002	0.000000e+000
28049570.000	-4.709965e-004	-9.211160e+000	-6.021377e+001	8.467348e+001	-2.000000e+002	0.000000e+000	-2.000000e+002	0.000000e+000
28699560.000	-1.579257e-003	-9.408609e+000	-5.981712e+001	8.357096e+001	-2.000000e+002	0.000000e+000	-2.000000e+002	0.000000e+000
29349550.000	-1.939402e-003	-9.611170e+000	-5.965371e+001	8.351762e+001	-2.000000e+002	0.000000e+000	-2.000000e+002	0.000000e+000
29999540.000	-1.574871e-003	-9.819169e+000	-5.962446e+001	8.234755e+001	-2.000000e+002	0.000000e+000	-2.000000e+002	0.000000e+000
30649530.000	-1.675364e-003	-1.002779e+001	-5.949190e+001	8.099536e+001	-2.000000e+002	0.000000e+000	-2.000000e+002	0.000000e+000
31299520.000	-1.159971e-003	-1.024633e+001	-5.932323e+001	8.141510e+001	-2.000000e+002	0.000000e+000	-2.000000e+002	0.000000e+000
31949510.000	-1.597064e-003	-1.045137e+001	-5.910978e+001	8.164687e+001	-2.000000e+002	0.000000e+000	-2.000000e+002	0.000000e+000
32599500.000	-2.578061e-003	-1.065480e+001	-5.892900e+001	8.113923e+001	-2.000000e+002	0.000000e+000	-2.000000e+002	0.000000e+000
33249490.000	-2.235355e-003	-1.086312e+001	-5.887522e+001	8.101010e+001	-2.000000e+002	0.000000e+000	-2.000000e+002	0.000000e+000
33899480.000	-3.060025e-003	-1.107444e+001	-5.875365e+001	8.078894e+001	-2.000000e+002	0.000000e+000	-2.000000e+002	0.000000e+000
34549470.000	-2.997013e-003	-1.127056e+001	-5.860115e+001	7.985817e+001	-2.000000e+002	0.000000e+000	-2.000000e+002	0.000000e+000
35199460.000	-2.538097e-003	-1.147294e+001	-5.830713e+001	8.063348e+001	-2.000000e+002	0.000000e+000	-2.000000e+002	0.000000e+000
35849450.000	-3.248512e-003	-1.167774e+001	-5.824459e+001	7.984590e+001	-2.000000e+002	0.000000e+000	-2.000000e+002	0.000000e+000
36499440.000	-2.875990e-003	-1.188424e+001	-5.807516e+001	8.000458e+001	-2.000000e+002	0.000000e+000	-2.000000e+002	0.000000e+000
37149430.000	-3.924428e-003	-1.208949e+001	-5.799191e+001	7.947693e+001	-2.000000e+002	0.000000e+000	-2.000000e+002	0.000000e+000
37799420.000	-3.367367e-003	-1.229853e+001	-5.774985e+001	7.968894e+001	-2.000000e+002	0.000000e+000	-2.000000e+002	0.000000e+000
38449410.000	-3.588301e-003	-1.250720e+001	-5.772254e+001	7.877739e+001	-2.000000e+002	0.000000e+000	-2.000000e+002	0.000000e+000
39099400.000	-3.837682e-003	-1.271697e+001	-5.758750e+001	7.950748e+001	-2.000000e+002	0.000000e+000	-2.000000e+002	0.000000e+000
39749390.000	-4.912930e-003	-1.292869e+001	-5.748261e+001	7.872985e+001	-2.000000e+002	0.000000e+000	-2.000000e+002	0.000000e+000
40399380.000	-5.369076e-003	-1.313999e+001	-5.735405e+001	7.940432e+001	-2.000000e+002	0.000000e+000	-2.000000e+002	0.000000e+000
41049370.000	-4.446415e-003	-1.334547e+001	-5.711508e+001	7.867048e+001	-2.000000e+002	0.000000e+000	-2.000000e+002	0.000000e+000
41699360.000	-3.584069e-003	-1.354871e+001	-5.701530e+001	7.811376e+001	-2.000000e+002	0.000000e+000	-2.000000e+002	0.000000e+000
42349350.000	-3.418213e-003	-1.375442e+001	-5.687605e+001	7.793176e+001	-2.000000e+002	0.000000e+000	-2.000000e+002	0.000000e+000
42999340.000	-4.614942e-003	-1.396021e+001	-5.684350e+001	7.797248e+001	-2.000000e+002	0.000000e+000	-2.000000e+002	0.000000e+000
43649330.000	-4.500086e-003	-1.416641e+001	-5.668995e+001	7.762104e+001	-2.000000e+002	0.000000e+000	-2.000000e+002	0.000000e+000
44299320.000	-4.599617e-003	-1.437358e+001	-5.667512e+001	7.721420e+001	-2.000000e+002	0.000000e+000	-2.000000e+002	0.000000e+000
44949310.000	-4.625547e-003	-1.458657e+001	-5.650796e+001	7.761138e+001	-2.000000e+002	0.000000e+000	-2.000000e+002	0.000000e+000
45599300.000	-5.260629e-003	-1.479804e+001	-5.644003e+001	7.691596e+001	-2.000000e+002	0.000000e+000	-2.000000e+002	0.000000e+000
46249290.000	-5.466199e-003	-1.500327e+001	-5.637412e+001	7.688907e+001	-2.000000e+002	0.000000e+000	-2.000000e+002	0.000000e+000
46899280.000	-5.864677e-003	-1.521309e+001	-5.627321e+001	7.678796e+001	-2.000000e+002	0.000000e+000	-2.000000e+002	0.000000e+000
47549270.000	-7.506362e-003	-1.541084e+001	-5.620498e+001	7.750119e+001	-2.000000e+002	0.000000e+000	-2.000000e+002	0.000000e+000
48199260.000	-8.202052e-003	-1.562296e+001	-5.613030e+001	7.811433e+001	-2.000000e+002	0.000000e+000	-2.000000e+002	0.000000e+000
48849250.000	-9.125874e-003	-1.583373e+001	-5.588090e+001	7.798239e+001	-2.000000e+002	0.000000e+000	-2.000000e+002	0.000000e+000
49499240.000	-9.757965e-003	-1.603588e+001	-5.574566e+001	7.851693e+001	-2.000000e+002	0.000000e+000	-2.000000e+002	0.000000e+000
50149230.000	-9.666058e-003	-1.624684e+001	-5.560117e+001	7.873435e+001	-2.000000e+002	0.000000e+000	-2.000000e+002	0.000000e+000
50799220.000	-1.010708e-002	-1.645334e+001	-5.541066e+001	7.889039e+001	-2.000000e+002	0.000000e+000	-2.000000e+002	0.000000e+000
51449210.000	-9.247693e-003	-1.666067e+001	-5.520982e+001	7.915192e+001	-2.000000e+002	0.000000e+000	-2.000000e+002	0.000000e+000
52099200.000	-9.479788e-003	-1.686552e+001	-5.504028e+001	7.861054e+001	-2.000000e+002	0.000000e+000	-2.000000e+002	0.000000e+000
52749190.000	-9.256621e-003	-1.707238e+001	-5.491235e+001	7.840245e+001	-2.000000e+002	0.000000e+000	-2.000000e+002	0.000000e+000
53399180.000	-1.021478e-002	-1.727803e+001	-5.483989e+001	7.813936e+001	-2.000000e+002	0.000000e+000	-2.000000e+002	0.000000e+000
54049170.000	-1.031087e-002	-1.748637e+001	-5.472238e+001	7.810944e+001	-2.000000e+002	0.000000e+000	-2.000000e+002	0.000000e+000
54699160.000	-1.094880e-002	-1.769286e+001	-5.441435e+001	7.792675e+001	-2.000000e+002	0.000000e+000	-2.000000e+002	0.000000e+000
55349150.000	-1.083658e-002	-1.790114e+001	-5.431269e+001	7.740109e+001	-2.000000e+002	0.000000e+000	-2.000000e+002	0.000000e+000
55999140.000	-1.158363e-002	-1.810865e+001	-5.420217e+001	7.754276e+001	-2.000000e+002	0.000000e+000	-2.000000e+002	0.000000e+000
56649130.000	-1.167249e-002	-1.831663e+001	-5.404153e+001	7.660102e+001	-2.000000e+002	0.000000e+000	-2.000000e+002	0.000000e+000
57299120.000	-1.213074e-002	-1.852127e+001	-5.392176e+001	7.586041e+001	-2.000000e+002	0.000000e+000	-2.000000e+002	0.000000e+000
57949110.000	-1.302093e-002	-1.872973e+001	-5.381278e+001	7.533378e+001	-2.000000e+002	0.000000e+000	-2.000000e+002	0.000000e+000
58599100.000	-1.228972e-002	-1.893530e+001	-5.373530e+001	7.482504e+001	-2.000000e+002	0.000000e+000	-2.000000e+002	0.000000e+000
59249090.000	-1.309092e-002	-1.913898e+001	-5.365746e+001	7.483424e+001	-2.000000e+002	0.000000e+000	-2.000000e+002	0.000000e+000
59899080.000	-1.333198e-002	-1.934510e+001	-5.360665e+001	7.482681e+001	-2.000000e+002	0.000000e+000	-2.000000e+002	0.000000e+000
60549070.000	-1.430512e-002	-1.955033e+001	-5.347231e+001	7.459058e+001	-2.000000e+002	0.000000e+000	-2.000000e+002	0.000000e+000
61199060.000	-1.532501e-002	-1.975374e+001	-5.348040e+001	7.410081e+001	-2.000000e+002	0.000000e+000	-2.000000e+002	0.000000e+000
61849050.000	-1.596653e-002	-1.995732e+001	-5.337792e+001	7.430703e+001	-2.000000e+002	0.000000e+000	-2.000000e+002	0.000000e+000
62499040.000	-1.681004e-002	-2.016160e+001	-5.320177e+001	7.424145e+001	-2.000000e+002	0.000000e+000	-2.000000e+002	0.000000e+000
63149030.000	-1.695985e-002	-2.036468e+001	-5.309029e+001	7.343904e+001	-2.000000e+002	0.000000e+000	-2.000000e+002	0.000000e+000
63799020.000	-1.788676e-002	-2.057033e+001	-5.298585e+001	7.324405e+001	-2.000000e+002	0.000000e+000	-2.000000e+002	0.000000e+000
64449010.000	-1.869222e-002	-2.077604e+001	-5.287702e+001	7.317222e+001	-2.000000e+002	0.000000e+000	-2.000000e+002	0.000000e+000
65099000.000	-1.894371e-002	-2.098098e+001	-5.284321e+001	7.264017e+001	-2.000000e+002	0.000000e+000	-2.000000e+002	0.000000e+000
65748990.000	-1.842582e-002	-2.118831e+001	-5.278743e+001	7.212332e+001	-2.000000e+002	0.000000e+000	-2.000000e+002	0.000000e+000
66398980.000	-1.941135e-002	-2.139396e+001	-5.268910e+001	7.260793e+001	-2.000000e+002	0.000000e+000	-2.000000e+002	0.000000e+000
67048970.000	-1.960825e-002	-2.160096e+001	-5.261206e+001	7.204410e+001	-2.000000e+002	0.000000e+000	-2.000000e+002	0.000000e+000
67698960.000	-1.994867e-002	-2.180051e+001	-5.249409e+001	7.192672e+001	-2.000000e+002	0.000000e+000	-2.000000e+002	0.000000e+000
68348950.000	-2.021699e-002	-2.200756e+001	-5.244776e+001	7.182867e+001	-2.000000e+002	0.000000e+000	-2.000000e+002	0.000000e+000
68998940.000	-2.173251e-002	-2.221000e+001	-5.238057e+001	7.158518e+001	-2.000000e+002	0.000000e+000	-2.000000e+002	0.000000e+000
69648930.000	-2.162527e-002	-2.241790e+001	-5.227096e+001	7.151954e+001	-2.000000e+002	0.000000e+000	-2.000000e+002	0.000000e+000
70298920.000	-2.046259e-002	-2.263070e+001	-5.227761e+001	7.111886e+001	-2.000000e+002	0.000000e+000	-2.000000e+002	0.000000e+000
70948910.000	-2.213921e-002	-2.283925e+001	-5.211028e+001	7.103414e+001	-2.000000e+002	0.000000e+000	-2.000000e+002	0.000000e+000
71598900.000	-2.130573e-002	-2.304127e+001	-5.207580e+001	7.078603e+001	-2.000000e+002	0.000000e+000	-2.000000e+002	0.000000e+000
72248890.000	-2.174002e-002	-2.325195e+001	-5.202010e+001	7.063278e+001	-2.000000e+002	0.000000e+000	-2.000000e+002	0.000000e+000
72898880.000	-2.215275e-002	-2.345852e+001	-5.193860e+001	7.028014e+001	-2.000000e+002	0.000000e+000	-2.000000e+002	0.000000e+000
73548870.000	-2.255164e-002	-2.366357e+001	-5.188734e+001	6.991888e+001	-2.000000e+002	0.000000e+000	-2.000000e+002	0.000000e+000
74198860.000	-2.264729e-002	-2.386979e+001	-5.182241e+001	7.002191e+001	-2.000000e+002	0.000000e+000	-2.000000e+002	0.000000e+000
74848850.000	-2.394261e-002	-2.407811e+001	-5.176041e+001	7.009129e+001	-2.000000e+002	0.000000e+000	-2.000000e+002	0.000000e+000
75498840.000	-2.358085e-002	-2.428415e+001	-5.168086e+001	7.010020e+001	-2.000000e+002	0.000000e+000	-2.000000e+002	0.000000e+000
76148830.000	-2.422463e-002	-2.449098e+001	-5.162547e+001	7.008346e+001	-2.000000e+002	0.000000e+000	-2.000000e+002	0.000000e+000
76798820.000	-2.390196e-002	-2.469791e+001	-5.159211e+001	7.038443e+001	-2.000000e+002	0.000000e+000	-2.000000e+002	0.000000e+000
77448810.000	-2.580696e-002	-2.489643e+001	-5.146935e+001	7.026845e+001	-2.000000e+002	0.000000e+000	-2.000000e+002	0.000000e+000
78098800.000	-2.603403e-002	-2.510721e+001	-5.139556e+001	6.976779e+001	-2.000000e+002	0.000000e+000	-2.000000e+002	0.000000e+000
78748790.000	-2.602433e-002	-2.530920e+001	-5.129298e+001	6.966474e+001	-2.000000e+002	0.000000e+000	-2.000000e+002	0.000000e+000
79398780.000	-2.642840e-002	-2.551792e+001	-5.120436e+001	6.956092e+001	-2.000000e+002	0.000000e+000	-2.000000e+002	0.000000e+000
80048770.000	-2.715872e-002	-2.573031e+001	-5.115226e+001	6.961976e+001	-2.000000e+002	0.000000e+000	-2.000000e+002	0.000000e+000
80698760.000	-2.755262e-002	-2.593602e+001	-5.113213e+001	6.921265e+001	-2.000000e+002	0.000000e+000	-2.000000e+002	0.000000e+000
81348750.000	-2.762149e-002	-2.614703e+001	-5.107115e+001	6.967927e+001	-2.000000e+002	0.000000e+000	-2.000000e+002	0.000000e+000
81998740.000	-2.788153e-002	-2.634905e+001	-5.098144e+001	6.990602e+001	-2.000000e+002	0.000000e+000	-2.000000e+002	0.000000e+000
82648730.000	-2.904862e-002	-2.655481e+001	-5.080639e+001	7.023656e+001	-2.000000e+002	0.000000e+000	-2.000000e+002	0.000000e+000
83298720.000	-2.965410e-002	-2.675910e+001	-5.065988e+001	6.996696e+001	-2.000000e+002	0.000000e+000	-2.000000e+002	0.000000e+000
83948710.000	-3.003395e-002	-2.696854e+001	-5.059910e+001	7.035323e+001	-2.000000e+002	0.000000e+000	-2.000000e+002	0.000000e+000
84598700.000	-3.011430e-002	-2.717423e+001	-5.042171e+001	6.992055e+001	-2.000000e+002	0.000000e+000	-2.000000e+002	0.000000e+000
85248690.000	-3.064362e-002	-2.738386e+001	-5.026311e+001	6.920074e+001	-2.000000e+002	0.000000e+000	-2.000000e+002	0.000000e+000
85898680.000	-3.090230e-002	-2.758725e+001	-5.015266e+001	6.895975e+001	-2.000000e+002	0.000000e+000	-2.000000e+002	0.000000e+000
86548670.000	-3.081639e-002	-2.779267e+001	-5.005131e+001	6.814326e+001	-2.000000e+002	0.000000e+000	-2.000000e+002	0.000000e+000
87198660.000	-3.095277e-002	-2.799716e+001	-5.003713e+001	6.768033e+001	-2.000000e+002	0.000000e+000	-2.000000e+002	0.000000e+000
87848650.000	-3.207025e-002	-2.820443e+001	-4.998038e+001	6.722938e+001	-2.000000e+002	0.000000e+000	-2.000000e+002	0.000000e+000
88498640.000	-3.214274e-002	-2.840762e+001	-4.990635e+001	6.662676e+001	-2.000000e+002	0.000000e+000	-2.000000e+002	0.000000e+000
89148630.000	-3.323216e-002	-2.861822e+001	-4.990654e+001	6.661312e+001	-2.000000e+002	0.000000e+000	-2.000000e+002	0.000000e+000
89798620.000	-3.308575e-002	-2.882080e+001	-4.989116e+001	6.652039e+001	-2.000000e+002	0.000000e+000	-2.000000e+002	0.000000e+000
90448610.000	-3.240631e-002	-2.902753e+001	-4.983327e+001	6.635610e+001	-2.000000e+002	0.000000e+000	-2.000000e+002	0.000000e+000
91098600.000	-3.382119e-002	-2.924402e+001	-4.977792e+001	6.633116e+001	-2.000000e+002	0.000000e+000	-2.000000e+002	0.000000e+000
91748590.000	-3.380189e-002	-2.945459e+001	-4.975916e+001	6.629760e+001	-2.000000e+002	0.000000e+000	-2.000000e+002	0.000000e+000
92398580.000	-3.347548e-002	-2.966287e+001	-4.969172e+001	6.617125e+001	-2.000000e+002	0.000000e+000	-2.000000e+002	0.000000e+000
93048570.000	-3.315216e-002	-2.986710e+001	-4.960473e+001	6.625300e+001	-2.000000e+002	0.000000e+000	-2.000000e+002	0.000000e+000
93698560.000	-3.414267e-002	-3.007983e+001	-4.956152e+001	6.618815e+001	-2.000000e+002	0.000000e+000	-2.000000e+002	0.000000e+000
94348550.000	-3.453575e-002	-3.029019e+001	-4.949718e+001	6.594797e+001	-2.000000e+002	0.000000e+000	-2.000000e+002	0.000000e+000
94998540.000	-3.567087e-002	-3.049574e+001	-4.947141e+001	6.589349e+001	-2.000000e+002	0.000000e+000	-2.000000e+002	0.000000e+000
95648530.000	-3.597240e-002	-3.070144e+001	-4.938155e+001	6.616053e+001	-2.000000e+002	0.000000e+000	-2.000000e+002	0.000000e+000
96298520.000	-3.586326e-002	-3.090624e+001	-4.932284e+001	6.607712e+001	-2.000000e+002	0.000000e+000	-2.000000e+002	0.000000e+000
96948510.000	-3.698661e-002	-3.111132e+001	-4.920405e+001	6.611055e+001	-2.000000e+002	0.000000e+000	-2.000000e+002	0.000000e+000
97598500.000	-3.760761e-002	-3.131595e+001	-4.906319e+001	6.567539e+001	-2.000000e+002	0.000000e+000	-2.000000e+002	0.000000e+000
98248490.000	-3.686455e-002	-3.151953e+001	-4.885864e+001	6.495089e+001	-2.000000e+002	0.000000e+000	-2.000000e+002	0.000000e+000
