!Keysight Technologies,E5063A,MY54503115,A.05.08
!Date: Mon Dec 11 14:25:44 2023
!Data & Calibration Information:
!Freq	S11:NONE(--)	S21:NONE(--)	S12:NONE(--)	S22:NONE(--)
# Hz S dB R 50
100000.000	5.108922e-002	-6.226856e-001	-8.789776e+001	3.828626e+001	-2.000000e+002	0.000000e+000	-2.000000e+002	0.000000e+000
749990.000	1.843789e-004	-6.006097e-001	-8.727698e+001	5.289737e+001	-2.000000e+002	0.000000e+000	-2.000000e+002	0.000000e+000
1399980.000	1.477051e-003	-7.665120e-001	-8.659155e+001	-1.393504e+002	-2.000000e+002	0.000000e+000	-2.000000e+002	0.000000e+000
2049970.000	1.651855e-003	-9.546095e-001	-8.006908e+001	9.935814e+001	-2.000000e+002	0.000000e+000	-2.000000e+002	0.000000e+000
2699960.000	8.862687e-004	-1.162971e+000	-9.929940e+001	1.507116e+002	-2.000000e+002	0.000000e+000	-2.000000e+002	0.000000e+000
3349950.000	8.679527e-004	-1.366940e+000	-7.675023e+001	1.166072e+002	-2.000000e+002	0.000000e+000	-2.000000e+002	0.000000e+000
3999940.000	1.548373e-003	-1.571067e+000	-7.806900e+001	7.341256e+001	-2.000000e+002	0.000000e+000	-2.000000e+002	0.000000e+000
4649930.000	2.063289e-003	-1.777930e+000	-7.904655e+001	9.058122e+001	-2.000000e+002	0.000000e+000	-2.000000e+002	0.000000e+000
5299920.000	1.926299e-003	-1.987043e+000	-7.485131e+001	8.041892e+001	-2.000000e+002	0.000000e+000	-2.000000e+002	0.000000e+000
5949910.000	3.589806e-004	-2.186684e+000	-7.558217e+001	8.433947e+001	-2.000000e+002	0.000000e+000	-2.000000e+002	0.000000e+000
6599900.000	-4.182158e-004	-2.399108e+000	-7.222328e+001	9.679559e+001	-2.000000e+002	0.000000e+000	-2.000000e+002	0.000000e+000
7249890.000	-1.477958e-004	-2.605414e+000	-7.333768e+001	9.192057e+001	-2.000000e+002	0.000000e+000	-2.000000e+002	0.000000e+000
7899880.000	6.601517e-004	-2.815034e+000	-7.183465e+001	8.779001e+001	-2.000000e+002	0.000000e+000	-2.000000e+002	0.000000e+000
8549870.000	2.406214e-003	-3.031915e+000	-7.119561e+001	8.589308e+001	-2.000000e+002	0.000000e+000	-2.000000e+002	0.000000e+000
9199860.000	1.568620e-003	-3.238427e+000	-7.010650e+001	8.769307e+001	-2.000000e+002	0.000000e+000	-2.000000e+002	0.000000e+000
9849850.000	1.391010e-003	-3.444791e+000	-6.962058e+001	8.747182e+001	-2.000000e+002	0.000000e+000	-2.000000e+002	0.000000e+000
10499840.000	6.788166e-004	-3.642208e+000	-6.884031e+001	8.699541e+001	-2.000000e+002	0.000000e+000	-2.000000e+002	0.000000e+000
11149830.000	-1.523098e-003	-3.837049e+000	-6.846186e+001	8.619214e+001	-2.000000e+002	0.000000e+000	-2.000000e+002	0.000000e+000
11799820.000	-1.365440e-003	-4.042329e+000	-6.822228e+001	8.713245e+001	-2.000000e+002	0.000000e+000	-2.000000e+002	0.000000e+000
12449810.000	-4.158456e-004	-4.259422e+000	-6.765051e+001	8.645835e+001	-2.000000e+002	0.000000e+000	-2.000000e+002	0.000000e+000
13099800.000	9.045024e-004	-4.472714e+000	-6.722273e+001	8.506340e+001	-2.000000e+002	0.000000e+000	-2.000000e+002	0.000000e+000
13749790.000	-4.601375e-004	-4.671304e+000	-6.703364e+001	8.695566e+001	-2.000000e+002	0.000000e+000	-2.000000e+002	0.000000e+000
14399780.000	-1.341566e-003	-4.886384e+000	-6.627456e+001	8.525459e+001	-2.000000e+002	0.000000e+000	-2.000000e+002	0.000000e+000
15049770.000	-1.440481e-003	-5.102014e+000	-6.612652e+001	8.512778e+001	-2.000000e+002	0.000000e+000	-2.000000e+002	0.000000e+000
15699760.000	4.719671e-004	-5.285596e+000	-6.554007e+001	8.565833e+001	-2.000000e+002	0.000000e+000	-2.000000e+002	0.000000e+000
16349750.000	1.944172e-004	-5.486378e+000	-6.541858e+001	8.498542e+001	-2.000000e+002	0.000000e+000	-2.000000e+002	0.000000e+000
16999740.000	-1.449213e-003	-5.705887e+000	-6.523922e+001	8.575921e+001	-2.000000e+002	0.000000e+000	-2.000000e+002	0.000000e+000
17649730.000	5.301230e-003	-5.932527e+000	-6.494469e+001	8.415197e+001	-2.000000e+002	0.000000e+000	-2.000000e+002	0.000000e+000
18299720.000	8.580439e-003	-6.154859e+000	-6.426923e+001	8.392378e+001	-2.000000e+002	0.000000e+000	-2.000000e+002	0.000000e+000
18949710.000	7.483007e-003	-6.358371e+000	-6.429010e+001	8.424341e+001	-2.000000e+002	0.000000e+000	-2.000000e+002	0.000000e+000
19599700.000	2.146039e-003	-6.535384e+000	-6.384981e+001	8.454652e+001	-2.000000e+002	0.000000e+000	-2.000000e+002	0.000000e+000
20249690.000	-1.687389e-003	-6.722762e+000	-6.363522e+001	8.470353e+001	-2.000000e+002	0.000000e+000	-2.000000e+002	0.000000e+000
20899680.000	-3.531416e-003	-6.965605e+000	-6.349475e+001	8.444989e+001	-2.000000e+002	0.000000e+000	-2.000000e+002	0.000000e+000
21549670.000	-3.733632e-003	-7.180733e+000	-6.333835e+001	8.536921e+001	-2.000000e+002	0.000000e+000	-2.000000e+002	0.000000e+000
22199660.000	-2.813397e-003	-7.373534e+000	-6.301339e+001	8.608981e+001	-2.000000e+002	0.000000e+000	-2.000000e+002	0.000000e+000
22849650.000	5.855049e-004	-7.549236e+000	-6.290859e+001	8.734060e+001	-2.000000e+002	0.000000e+000	-2.000000e+002	0.000000e+000
23499640.000	-5.709410e-004	-7.755865e+000	-6.255031e+001	8.748635e+001	-2.000000e+002	0.000000e+000	-2.000000e+002	0.000000e+000
24149630.000	-2.648277e-003	-7.966662e+000	-6.201312e+001	8.898620e+001	-2.000000e+002	0.000000e+000	-2.000000e+002	0.000000e+000
24799620.000	-1.804846e-003	-8.173677e+000	-6.152969e+001	8.785091e+001	-2.000000e+002	0.000000e+000	-2.000000e+002	0.000000e+000
25449610.000	3.374383e-004	-8.378978e+000	-6.114818e+001	8.608726e+001	-2.000000e+002	0.000000e+000	-2.000000e+002	0.000000e+000
26099600.000	3.477165e-004	-8.582595e+000	-6.097302e+001	8.598681e+001	-2.000000e+002	0.000000e+000	-2.000000e+002	0.000000e+000
26749590.000	-9.116190e-004	-8.792537e+000	-6.061329e+001	8.459613e+001	-2.000000e+002	0.000000e+000	-2.000000e+002	0.000000e+000
27399580.000	-7.530959e-004	-9.002439e+000	-6.041322e+001	8.508573e+001	-2.000000e+002	0.000000e+000	-2.000000e+002	0.000000e+000
28049570.000	-3.842104e-005	-9.214707e+000	-6.022391e+001	8.495132e+001	-2.000000e+002	0.000000e+000	-2.000000e+002	0.000000e+000
28699560.000	-7.390262e-004	-9.410723e+000	-5.995899e+001	8.418796e+001	-2.000000e+002	0.000000e+000	-2.000000e+002	0.000000e+000
29349550.000	-9.972027e-004	-9.613265e+000	-5.965415e+001	8.368025e+001	-2.000000e+002	0.000000e+000	-2.000000e+002	0.000000e+000
29999540.000	-5.037067e-004	-9.821642e+000	-5.952259e+001	8.317930e+001	-2.000000e+002	0.000000e+000	-2.000000e+002	0.000000e+000
30649530.000	-1.660719e-003	-1.002811e+001	-5.943516e+001	8.183497e+001	-2.000000e+002	0.000000e+000	-2.000000e+002	0.000000e+000
31299520.000	-5.604935e-004	-1.024662e+001	-5.929720e+001	8.152692e+001	-2.000000e+002	0.000000e+000	-2.000000e+002	0.000000e+000
31949510.000	-1.432593e-003	-1.044846e+001	-5.910686e+001	8.108605e+001	-2.000000e+002	0.000000e+000	-2.000000e+002	0.000000e+000
32599500.000	-1.857143e-003	-1.065930e+001	-5.893956e+001	8.166764e+001	-2.000000e+002	0.000000e+000	-2.000000e+002	0.000000e+000
33249490.000	-2.010440e-003	-1.086748e+001	-5.880006e+001	8.044713e+001	-2.000000e+002	0.000000e+000	-2.000000e+002	0.000000e+000
33899480.000	-2.278315e-003	-1.107696e+001	-5.857671e+001	8.074181e+001	-2.000000e+002	0.000000e+000	-2.000000e+002	0.000000e+000
34549470.000	-2.768493e-003	-1.127121e+001	-5.851057e+001	8.061109e+001	-2.000000e+002	0.000000e+000	-2.000000e+002	0.000000e+000
35199460.000	-1.712235e-003	-1.147719e+001	-5.831170e+001	8.065832e+001	-2.000000e+002	0.000000e+000	-2.000000e+002	0.000000e+000
35849450.000	-2.797201e-003	-1.167757e+001	-5.827483e+001	7.987220e+001	-2.000000e+002	0.000000e+000	-2.000000e+002	0.000000e+000
36499440.000	-2.480526e-003	-1.188465e+001	-5.810683e+001	7.979106e+001	-2.000000e+002	0.000000e+000	-2.000000e+002	0.000000e+000
37149430.000	-1.917574e-003	-1.208997e+001	-5.788998e+001	7.962060e+001	-2.000000e+002	0.000000e+000	-2.000000e+002	0.000000e+000
37799420.000	-2.679555e-003	-1.230204e+001	-5.782599e+001	7.886675e+001	-2.000000e+002	0.000000e+000	-2.000000e+002	0.000000e+000
38449410.000	-2.907496e-003	-1.250945e+001	-5.769188e+001	7.929057e+001	-2.000000e+002	0.000000e+000	-2.000000e+002	0.000000e+000
39099400.000	-3.288256e-003	-1.271773e+001	-5.750721e+001	7.879818e+001	-2.000000e+002	0.000000e+000	-2.000000e+002	0.000000e+000
39749390.000	-4.199821e-003	-1.293207e+001	-5.745908e+001	7.905319e+001	-2.000000e+002	0.000000e+000	-2.000000e+002	0.000000e+000
40399380.000	-4.546338e-003	-1.314032e+001	-5.728279e+001	7.837194e+001	-2.000000e+002	0.000000e+000	-2.000000e+002	0.000000e+000
41049370.000	-4.249373e-003	-1.334903e+001	-5.708751e+001	7.890031e+001	-2.000000e+002	0.000000e+000	-2.000000e+002	0.000000e+000
41699360.000	-2.948520e-003	-1.355226e+001	-5.700363e+001	7.831522e+001	-2.000000e+002	0.000000e+000	-2.000000e+002	0.000000e+000
42349350.000	-2.746867e-003	-1.375650e+001	-5.685535e+001	7.790265e+001	-2.000000e+002	0.000000e+000	-2.000000e+002	0.000000e+000
42999340.000	-3.366253e-003	-1.396348e+001	-5.677323e+001	7.769128e+001	-2.000000e+002	0.000000e+000	-2.000000e+002	0.000000e+000
43649330.000	-3.922195e-003	-1.416967e+001	-5.673854e+001	7.704258e+001	-2.000000e+002	0.000000e+000	-2.000000e+002	0.000000e+000
44299320.000	-3.716832e-003	-1.437862e+001	-5.661733e+001	7.720680e+001	-2.000000e+002	0.000000e+000	-2.000000e+002	0.000000e+000
44949310.000	-3.652598e-003	-1.458601e+001	-5.649807e+001	7.709712e+001	-2.000000e+002	0.000000e+000	-2.000000e+002	0.000000e+000
45599300.000	-4.742846e-003	-1.479555e+001	-5.644977e+001	7.701269e+001	-2.000000e+002	0.000000e+000	-2.000000e+002	0.000000e+000
46249290.000	-5.260952e-003	-1.500674e+001	-5.621663e+001	7.712237e+001	-2.000000e+002	0.000000e+000	-2.000000e+002	0.000000e+000
46899280.000	-5.181559e-003	-1.520540e+001	-5.624302e+001	7.701799e+001	-2.000000e+002	0.000000e+000	-2.000000e+002	0.000000e+000
47549270.000	-7.098079e-003	-1.541425e+001	-5.612237e+001	7.680248e+001	-2.000000e+002	0.000000e+000	-2.000000e+002	0.000000e+000
48199260.000	-6.954918e-003	-1.562608e+001	-5.612678e+001	7.741610e+001	-2.000000e+002	0.000000e+000	-2.000000e+002	0.000000e+000
48849250.000	-8.792710e-003	-1.583424e+001	-5.601337e+001	7.790006e+001	-2.000000e+002	0.000000e+000	-2.000000e+002	0.000000e+000
49499240.000	-8.398708e-003	-1.603623e+001	-5.580745e+001	7.860877e+001	-2.000000e+002	0.000000e+000	-2.000000e+002	0.000000e+000
50149230.000	-8.877522e-003	-1.624743e+001	-5.577235e+001	7.861316e+001	-2.000000e+002	0.000000e+000	-2.000000e+002	0.000000e+000
50799220.000	-9.195306e-003	-1.645450e+001	-5.547486e+001	7.923965e+001	-2.000000e+002	0.000000e+000	-2.000000e+002	0.000000e+000
51449210.000	-8.675712e-003	-1.666501e+001	-5.530507e+001	7.926536e+001	-2.000000e+002	0.000000e+000	-2.000000e+002	0.000000e+000
52099200.000	-8.517887e-003	-1.686997e+001	-5.510399e+001	7.857821e+001	-2.000000e+002	0.000000e+000	-2.000000e+002	0.000000e+000
52749190.000	-9.372003e-003	-1.707587e+001	-5.494229e+001	7.848425e+001	-2.000000e+002	0.000000e+000	-2.000000e+002	0.000000e+000
53399180.000	-9.659697e-003	-1.727934e+001	-5.482307e+001	7.863225e+001	-2.000000e+002	0.000000e+000	-2.000000e+002	0.000000e+000
54049170.000	-9.500554e-003	-1.748786e+001	-5.465543e+001	7.827972e+001	-2.000000e+002	0.000000e+000	-2.000000e+002	0.000000e+000
54699160.000	-9.585734e-003	-1.769728e+001	-5.448280e+001	7.809277e+001	-2.000000e+002	0.000000e+000	-2.000000e+002	0.000000e+000
55349150.000	-1.034345e-002	-1.790414e+001	-5.436892e+001	7.726324e+001	-2.000000e+002	0.000000e+000	-2.000000e+002	0.000000e+000
55999140.000	-1.066096e-002	-1.810844e+001	-5.416912e+001	7.732132e+001	-2.000000e+002	0.000000e+000	-2.000000e+002	0.000000e+000
56649130.000	-1.161651e-002	-1.831700e+001	-5.403556e+001	7.667183e+001	-2.000000e+002	0.000000e+000	-2.000000e+002	0.000000e+000
57299120.000	-1.198919e-002	-1.852404e+001	-5.389571e+001	7.623108e+001	-2.000000e+002	0.000000e+000	-2.000000e+002	0.000000e+000
57949110.000	-1.214016e-002	-1.872879e+001	-5.385717e+001	7.551135e+001	-2.000000e+002	0.000000e+000	-2.000000e+002	0.000000e+000
58599100.000	-1.205143e-002	-1.893341e+001	-5.374150e+001	7.529030e+001	-2.000000e+002	0.000000e+000	-2.000000e+002	0.000000e+000
59249090.000	-1.262275e-002	-1.913865e+001	-5.369678e+001	7.510855e+001	-2.000000e+002	0.000000e+000	-2.000000e+002	0.000000e+000
59899080.000	-1.289778e-002	-1.934284e+001	-5.353863e+001	7.478840e+001	-2.000000e+002	0.000000e+000	-2.000000e+002	0.000000e+000
60549070.000	-1.353516e-002	-1.954799e+001	-5.347528e+001	7.451050e+001	-2.000000e+002	0.000000e+000	-2.000000e+002	0.000000e+000
61199060.000	-1.486422e-002	-1.975254e+001	-5.338534e+001	7.399592e+001	-2.000000e+002	0.000000e+000	-2.000000e+002	0.000000e+000
61849050.000	-1.515994e-002	-1.995622e+001	-5.332815e+001	7.389824e+001	-2.000000e+002	0.000000e+000	-2.000000e+002	0.000000e+000
62499040.000	-1.628257e-002	-2.015811e+001	-5.319450e+001	7.405981e+001	-2.000000e+002	0.000000e+000	-2.000000e+002	0.000000e+000
63149030.000	-1.651687e-002	-2.036478e+001	-5.307478e+001	7.368486e+001	-2.000000e+002	0.000000e+000	-2.000000e+002	0.000000e+000
63799020.000	-1.691768e-002	-2.057056e+001	-5.299794e+001	7.325618e+001	-2.000000e+002	0.000000e+000	-2.000000e+002	0.000000e+000
64449010.000	-1.788829e-002	-2.077586e+001	-5.291624e+001	7.302451e+001	-2.000000e+002	0.000000e+000	-2.000000e+002	0.000000e+000
65099000.000	-1.825474e-002	-2.097901e+001	-5.288796e+001	7.269859e+001	-2.000000e+002	0.000000e+000	-2.000000e+002	0.000000e+000
65748990.000	-1.805767e-002	-2.118731e+001	-5.280144e+001	7.205113e+001	-2.000000e+002	0.000000e+000	-2.000000e+002	0.000000e+000
66398980.000	-1.865521e-002	-2.139188e+001	-5.273409e+001	7.231731e+001	-2.000000e+002	0.000000e+000	-2.000000e+002	0.000000e+000
67048970.000	-1.876967e-002	-2.159722e+001	-5.262039e+001	7.260339e+001	-2.000000e+002	0.000000e+000	-2.000000e+002	0.000000e+000
67698960.000	-1.922777e-002	-2.180090e+001	-5.251063e+001	7.214541e+001	-2.000000e+002	0.000000e+000	-2.000000e+002	0.000000e+000
68348950.000	-2.030562e-002	-2.200608e+001	-5.247201e+001	7.193132e+001	-2.000000e+002	0.000000e+000	-2.000000e+002	0.000000e+000
68998940.000	-2.068241e-002	-2.220871e+001	-5.236094e+001	7.162229e+001	-2.000000e+002	0.000000e+000	-2.000000e+002	0.000000e+000
69648930.000	-2.074569e-002	-2.241884e+001	-5.225972e+001	7.139376e+001	-2.000000e+002	0.000000e+000	-2.000000e+002	0.000000e+000
70298920.000	-2.013473e-002	-2.262754e+001	-5.222707e+001	7.143193e+001	-2.000000e+002	0.000000e+000	-2.000000e+002	0.000000e+000
70948910.000	-2.066636e-002	-2.283827e+001	-5.210819e+001	7.102131e+001	-2.000000e+002	0.000000e+000	-2.000000e+002	0.000000e+000
71598900.000	-2.064928e-002	-2.304256e+001	-5.204747e+001	7.052851e+001	-2.000000e+002	0.000000e+000	-2.000000e+002	0.000000e+000
72248890.000	-2.124717e-002	-2.325199e+001	-5.200567e+001	7.063274e+001	-2.000000e+002	0.000000e+000	-2.000000e+002	0.000000e+000
72898880.000	-2.146860e-002	-2.345508e+001	-5.194555e+001	7.034937e+001	-2.000000e+002	0.000000e+000	-2.000000e+002	0.000000e+000
73548870.000	-2.200192e-002	-2.366258e+001	-5.183667e+001	6.981966e+001	-2.000000e+002	0.000000e+000	-2.000000e+002	0.000000e+000
74198860.000	-2.222073e-002	-2.386884e+001	-5.180372e+001	7.005153e+001	-2.000000e+002	0.000000e+000	-2.000000e+002	0.000000e+000
74848850.000	-2.319296e-002	-2.407607e+001	-5.175373e+001	7.012030e+001	-2.000000e+002	0.000000e+000	-2.000000e+002	0.000000e+000
75498840.000	-2.308711e-002	-2.428418e+001	-5.170107e+001	6.978739e+001	-2.000000e+002	0.000000e+000	-2.000000e+002	0.000000e+000
76148830.000	-2.360940e-002	-2.449130e+001	-5.158797e+001	7.001187e+001	-2.000000e+002	0.000000e+000	-2.000000e+002	0.000000e+000
76798820.000	-2.321962e-002	-2.469588e+001	-5.156544e+001	6.974356e+001	-2.000000e+002	0.000000e+000	-2.000000e+002	0.000000e+000
77448810.000	-2.442058e-002	-2.489523e+001	-5.146189e+001	6.996236e+001	-2.000000e+002	0.000000e+000	-2.000000e+002	0.000000e+000
78098800.000	-2.593635e-002	-2.510283e+001	-5.138301e+001	6.990421e+001	-2.000000e+002	0.000000e+000	-2.000000e+002	0.000000e+000
78748790.000	-2.610671e-002	-2.530733e+001	-5.131786e+001	6.983876e+001	-2.000000e+002	0.000000e+000	-2.000000e+002	0.000000e+000
79398780.000	-2.584593e-002	-2.551171e+001	-5.121028e+001	6.961014e+001	-2.000000e+002	0.000000e+000	-2.000000e+002	0.000000e+000
80048770.000	-2.611592e-002	-2.572900e+001	-5.113664e+001	6.968033e+001	-2.000000e+002	0.000000e+000	-2.000000e+002	0.000000e+000
80698760.000	-2.686502e-002	-2.593707e+001	-5.106505e+001	6.957200e+001	-2.000000e+002	0.000000e+000	-2.000000e+002	0.000000e+000
81348750.000	-2.697148e-002	-2.614280e+001	-5.104232e+001	6.978847e+001	-2.000000e+002	0.000000e+000	-2.000000e+002	0.000000e+000
81998740.000	-2.741471e-002	-2.634815e+001	-5.092718e+001	7.011191e+001	-2.000000e+002	0.000000e+000	-2.000000e+002	0.000000e+000
82648730.000	-2.844367e-002	-2.655205e+001	-5.081469e+001	7.052770e+001	-2.000000e+002	0.000000e+000	-2.000000e+002	0.000000e+000
83298720.000	-2.884157e-002	-2.675774e+001	-5.065977e+001	7.001730e+001	-2.000000e+002	0.000000e+000	-2.000000e+002	0.000000e+000
83948710.000	-2.895345e-002	-2.696789e+001	-5.055429e+001	7.019415e+001	-2.000000e+002	0.000000e+000	-2.000000e+002	0.000000e+000
84598700.000	-2.977776e-002	-2.717202e+001	-5.034925e+001	6.984515e+001	-2.000000e+002	0.000000e+000	-2.000000e+002	0.000000e+000
85248690.000	-2.942748e-002	-2.737847e+001	-5.022911e+001	6.913748e+001	-2.000000e+002	0.000000e+000	-2.000000e+002	0.000000e+000
85898680.000	-3.019337e-002	-2.758584e+001	-5.010014e+001	6.824535e+001	-2.000000e+002	0.000000e+000	-2.000000e+002	0.000000e+000
86548670.000	-2.998904e-002	-2.779014e+001	-5.004208e+001	6.781765e+001	-2.000000e+002	0.000000e+000	-2.000000e+002	0.000000e+000
87198660.000	-3.019966e-002	-2.799489e+001	-5.003174e+001	6.718916e+001	-2.000000e+002	0.000000e+000	-2.000000e+002	0.000000e+000
87848650.000	-3.075004e-002	-2.819826e+001	-4.994242e+001	6.668957e+001	-2.000000e+002	0.000000e+000	-2.000000e+002	0.000000e+000
88498640.000	-3.138629e-002	-2.840552e+001	-4.996255e+001	6.631589e+001	-2.000000e+002	0.000000e+000	-2.000000e+002	0.000000e+000
89148630.000	-3.237142e-002	-2.861333e+001	-4.997033e+001	6.630812e+001	-2.000000e+002	0.000000e+000	-2.000000e+002	0.000000e+000
89798620.000	-3.223000e-002	-2.882251e+001	-4.992124e+001	6.617417e+001	-2.000000e+002	0.000000e+000	-2.000000e+002	0.000000e+000
90448610.000	-3.203912e-002	-2.902658e+001	-4.987281e+001	6.621920e+001	-2.000000e+002	0.000000e+000	-2.000000e+002	0.000000e+000
91098600.000	-3.297405e-002	-2.924085e+001	-4.979253e+001	6.590634e+001	-2.000000e+002	0.000000e+000	-2.000000e+002	0.000000e+000
91748590.000	-3.260068e-002	-2.944522e+001	-4.981672e+001	6.593318e+001	-2.000000e+002	0.000000e+000	-2.000000e+002	0.000000e+000
92398580.000	-3.263892e-002	-2.965849e+001	-4.973128e+001	6.593557e+001	-2.000000e+002	0.000000e+000	-2.000000e+002	0.000000e+000
93048570.000	-3.254107e-002	-2.986682e+001	-4.961560e+001	6.579894e+001	-2.000000e+002	0.000000e+000	-2.000000e+002	0.000000e+000
93698560.000	-3.357808e-002	-3.007760e+001	-4.955976e+001	6.598844e+001	-2.000000e+002	0.000000e+000	-2.000000e+002	0.000000e+000
94348550.000	-3.337559e-002	-3.028501e+001	-4.948469e+001	6.576472e+001	-2.000000e+002	0.000000e+000	-2.000000e+002	0.000000e+000
94998540.000	-3.485680e-002	-3.049333e+001	-4.945156e+001	6.526941e+001	-2.000000e+002	0.000000e+000	-2.000000e+002	0.000000e+000
95648530.000	-3.557627e-002	-3.069986e+001	-4.940073e+001	6.551487e+001	-2.000000e+002	0.000000e+000	-2.000000e+002	0.000000e+000
96298520.000	-3.544010e-002	-3.090398e+001	-4.931834e+001	6.573701e+001	-2.000000e+002	0.000000e+000	-2.000000e+002	0.000000e+000
96948510.000	-3.617446e-002	-3.110888e+001	-4.919619e+001	6.558531e+001	-2.000000e+002	0.000000e+000	-2.000000e+002	0.000000e+000
97598500.000	-3.689424e-002	-3.131217e+001	-4.908701e+001	6.534577e+001	-2.000000e+002	0.000000e+000	-2.000000e+002	0.000000e+000
98248490.000	-3.548322e-002	-3.151791e+001	-4.901827e+001	6.498630e+001	-2.000000e+002	0.000000e+000	-2.000000e+002	0.000000e+000
