Frequency	S11_amp	S11_phase	S21_amp	S21_phase	S12_amp	S12_phase	S22_amp	S22_phase
100000.000	5.416242e-002	-6.481852e-001	-7.821809e+001	6.782979e+001	-2.000000e+002	0.000000e+000	-2.000000e+002	0.000000e+000
749990.000	1.095777e-003	-6.077084e-001	-9.619064e+001	-5.599781e+001	-2.000000e+002	0.000000e+000	-2.000000e+002	0.000000e+000
1399980.000	1.421259e-003	-7.748253e-001	-8.611617e+001	8.635156e+001	-2.000000e+002	0.000000e+000	-2.000000e+002	0.000000e+000
2049970.000	8.959704e-004	-9.759700e-001	-7.484538e+001	1.202412e+002	-2.000000e+002	0.000000e+000	-2.000000e+002	0.000000e+000
2699960.000	2.689049e-003	-1.163798e+000	-8.019822e+001	1.209050e+002	-2.000000e+002	0.000000e+000	-2.000000e+002	0.000000e+000
3349950.000	2.636664e-003	-1.372503e+000	-7.962627e+001	6.537680e+001	-2.000000e+002	0.000000e+000	-2.000000e+002	0.000000e+000
3999940.000	1.957140e-003	-1.573193e+000	-7.840833e+001	1.024070e+002	-2.000000e+002	0.000000e+000	-2.000000e+002	0.000000e+000
4649930.000	2.282124e-003	-1.792336e+000	-8.084301e+001	1.046304e+002	-2.000000e+002	0.000000e+000	-2.000000e+002	0.000000e+000
5299920.000	1.386755e-003	-1.987298e+000	-7.441027e+001	8.227164e+001	-2.000000e+002	0.000000e+000	-2.000000e+002	0.000000e+000
5949910.000	1.444629e-003	-2.198976e+000	-7.425162e+001	8.600085e+001	-2.000000e+002	0.000000e+000	-2.000000e+002	0.000000e+000
6599900.000	1.204684e-003	-2.401817e+000	-7.326243e+001	9.300279e+001	-2.000000e+002	0.000000e+000	-2.000000e+002	0.000000e+000
7249890.000	8.718593e-004	-2.611376e+000	-7.222413e+001	8.905778e+001	-2.000000e+002	0.000000e+000	-2.000000e+002	0.000000e+000
7899880.000	8.514470e-004	-2.819112e+000	-7.117382e+001	9.042697e+001	-2.000000e+002	0.000000e+000	-2.000000e+002	0.000000e+000
8549870.000	2.895170e-003	-3.038149e+000	-7.125301e+001	8.889494e+001	-2.000000e+002	0.000000e+000	-2.000000e+002	0.000000e+000
9199860.000	2.237975e-003	-3.242720e+000	-7.004941e+001	8.617117e+001	-2.000000e+002	0.000000e+000	-2.000000e+002	0.000000e+000
9849850.000	1.848418e-003	-3.451575e+000	-6.948747e+001	8.816565e+001	-2.000000e+002	0.000000e+000	-2.000000e+002	0.000000e+000
10499840.000	1.612588e-003	-3.645139e+000	-6.904608e+001	8.628853e+001	-2.000000e+002	0.000000e+000	-2.000000e+002	0.000000e+000
11149830.000	-6.872622e-004	-3.844486e+000	-6.904466e+001	8.826144e+001	-2.000000e+002	0.000000e+000	-2.000000e+002	0.000000e+000
11799820.000	-1.075232e-003	-4.050369e+000	-6.829239e+001	8.580286e+001	-2.000000e+002	0.000000e+000	-2.000000e+002	0.000000e+000
12449810.000	-1.881571e-004	-4.259384e+000	-6.762921e+001	8.831109e+001	-2.000000e+002	0.000000e+000	-2.000000e+002	0.000000e+000
13099800.000	1.310192e-003	-4.477252e+000	-6.726827e+001	8.557907e+001	-2.000000e+002	0.000000e+000	-2.000000e+002	0.000000e+000
13749790.000	2.425597e-004	-4.680562e+000	-6.703478e+001	8.570731e+001	-2.000000e+002	0.000000e+000	-2.000000e+002	0.000000e+000
14399780.000	-1.852271e-004	-4.891040e+000	-6.646868e+001	8.671767e+001	-2.000000e+002	0.000000e+000	-2.000000e+002	0.000000e+000
15049770.000	-1.174322e-003	-5.109696e+000	-6.614384e+001	8.526920e+001	-2.000000e+002	0.000000e+000	-2.000000e+002	0.000000e+000
15699760.000	7.855520e-004	-5.294468e+000	-6.620437e+001	8.563012e+001	-2.000000e+002	0.000000e+000	-2.000000e+002	0.000000e+000
16349750.000	1.284395e-003	-5.495574e+000	-6.537132e+001	8.574248e+001	-2.000000e+002	0.000000e+000	-2.000000e+002	0.000000e+000
16999740.000	-6.791773e-004	-5.710289e+000	-6.494321e+001	8.502796e+001	-2.000000e+002	0.000000e+000	-2.000000e+002	0.000000e+000
17649730.000	6.239731e-003	-5.944846e+000	-6.459881e+001	8.563472e+001	-2.000000e+002	0.000000e+000	-2.000000e+002	0.000000e+000
18299720.000	8.759226e-003	-6.160196e+000	-6.454392e+001	8.551495e+001	-2.000000e+002	0.000000e+000	-2.000000e+002	0.000000e+000
18949710.000	7.815992e-003	-6.362665e+000	-6.411516e+001	8.563357e+001	-2.000000e+002	0.000000e+000	-2.000000e+002	0.000000e+000
19599700.000	2.373535e-003	-6.540368e+000	-6.393148e+001	8.478759e+001	-2.000000e+002	0.000000e+000	-2.000000e+002	0.000000e+000
20249690.000	-1.175686e-003	-6.731239e+000	-6.380825e+001	8.508108e+001	-2.000000e+002	0.000000e+000	-2.000000e+002	0.000000e+000
20899680.000	-2.457150e-003	-6.970458e+000	-6.349604e+001	8.507941e+001	-2.000000e+002	0.000000e+000	-2.000000e+002	0.000000e+000
21549670.000	-3.079334e-003	-7.184490e+000	-6.321771e+001	8.443403e+001	-2.000000e+002	0.000000e+000	-2.000000e+002	0.000000e+000
22199660.000	-2.353109e-003	-7.379398e+000	-6.298773e+001	8.496571e+001	-2.000000e+002	0.000000e+000	-2.000000e+002	0.000000e+000
22849650.000	1.315854e-003	-7.555461e+000	-6.300023e+001	8.604668e+001	-2.000000e+002	0.000000e+000	-2.000000e+002	0.000000e+000
23499640.000	3.774136e-004	-7.761521e+000	-6.261428e+001	8.715425e+001	-2.000000e+002	0.000000e+000	-2.000000e+002	0.000000e+000
24149630.000	-1.843981e-003	-7.969576e+000	-6.205530e+001	8.786448e+001	-2.000000e+002	0.000000e+000	-2.000000e+002	0.000000e+000
24799620.000	-1.590690e-003	-8.177797e+000	-6.164192e+001	8.759991e+001	-2.000000e+002	0.000000e+000	-2.000000e+002	0.000000e+000
25449610.000	1.376059e-003	-8.383275e+000	-6.123502e+001	8.687071e+001	-2.000000e+002	0.000000e+000	-2.000000e+002	0.000000e+000
26099600.000	9.343783e-004	-8.590707e+000	-6.093254e+001	8.554455e+001	-2.000000e+002	0.000000e+000	-2.000000e+002	0.000000e+000
26749590.000	-7.709520e-005	-8.794825e+000	-6.074178e+001	8.439069e+001	-2.000000e+002	0.000000e+000	-2.000000e+002	0.000000e+000
27399580.000	-2.902147e-004	-9.004401e+000	-6.054480e+001	8.488611e+001	-2.000000e+002	0.000000e+000	-2.000000e+002	0.000000e+000
28049570.000	8.678857e-004	-9.215285e+000	-6.024502e+001	8.456254e+001	-2.000000e+002	0.000000e+000	-2.000000e+002	0.000000e+000
28699560.000	7.802432e-005	-9.417294e+000	-5.997673e+001	8.328506e+001	-2.000000e+002	0.000000e+000	-2.000000e+002	0.000000e+000
29349550.000	2.917992e-004	-9.616188e+000	-5.975024e+001	8.321257e+001	-2.000000e+002	0.000000e+000	-2.000000e+002	0.000000e+000
29999540.000	3.712281e-004	-9.818069e+000	-5.969248e+001	8.311712e+001	-2.000000e+002	0.000000e+000	-2.000000e+002	0.000000e+000
30649530.000	-1.067824e-003	-1.003092e+001	-5.950218e+001	8.203023e+001	-2.000000e+002	0.000000e+000	-2.000000e+002	0.000000e+000
31299520.000	-3.903512e-005	-1.024848e+001	-5.926342e+001	8.180962e+001	-2.000000e+002	0.000000e+000	-2.000000e+002	0.000000e+000
31949510.000	-7.845087e-004	-1.045551e+001	-5.918412e+001	8.124510e+001	-2.000000e+002	0.000000e+000	-2.000000e+002	0.000000e+000
32599500.000	-4.799566e-004	-1.066320e+001	-5.902177e+001	8.125511e+001	-2.000000e+002	0.000000e+000	-2.000000e+002	0.000000e+000
33249490.000	-5.296906e-004	-1.087087e+001	-5.880922e+001	8.141306e+001	-2.000000e+002	0.000000e+000	-2.000000e+002	0.000000e+000
33899480.000	-1.780756e-003	-1.107570e+001	-5.873582e+001	8.115263e+001	-2.000000e+002	0.000000e+000	-2.000000e+002	0.000000e+000
34549470.000	-1.479421e-003	-1.127456e+001	-5.845029e+001	8.040210e+001	-2.000000e+002	0.000000e+000	-2.000000e+002	0.000000e+000
35199460.000	-8.871340e-004	-1.147474e+001	-5.849911e+001	8.000156e+001	-2.000000e+002	0.000000e+000	-2.000000e+002	0.000000e+000
35849450.000	-1.632316e-003	-1.168158e+001	-5.824439e+001	7.987328e+001	-2.000000e+002	0.000000e+000	-2.000000e+002	0.000000e+000
36499440.000	-1.495675e-003	-1.188851e+001	-5.812529e+001	8.036581e+001	-2.000000e+002	0.000000e+000	-2.000000e+002	0.000000e+000
37149430.000	-1.903892e-003	-1.209507e+001	-5.791916e+001	7.960151e+001	-2.000000e+002	0.000000e+000	-2.000000e+002	0.000000e+000
37799420.000	-1.946788e-003	-1.230218e+001	-5.779001e+001	7.925229e+001	-2.000000e+002	0.000000e+000	-2.000000e+002	0.000000e+000
38449410.000	-1.890279e-003	-1.251386e+001	-5.773317e+001	7.897714e+001	-2.000000e+002	0.000000e+000	-2.000000e+002	0.000000e+000
39099400.000	-2.367571e-003	-1.272021e+001	-5.751813e+001	7.875914e+001	-2.000000e+002	0.000000e+000	-2.000000e+002	0.000000e+000
39749390.000	-3.135545e-003	-1.293396e+001	-5.738286e+001	7.848075e+001	-2.000000e+002	0.000000e+000	-2.000000e+002	0.000000e+000
40399380.000	-3.537830e-003	-1.314620e+001	-5.723435e+001	7.883744e+001	-2.000000e+002	0.000000e+000	-2.000000e+002	0.000000e+000
41049370.000	-3.536743e-003	-1.334842e+001	-5.716383e+001	7.859862e+001	-2.000000e+002	0.000000e+000	-2.000000e+002	0.000000e+000
41699360.000	-2.047867e-003	-1.355299e+001	-5.701901e+001	7.796481e+001	-2.000000e+002	0.000000e+000	-2.000000e+002	0.000000e+000
42349350.000	-1.731217e-003	-1.375895e+001	-5.687189e+001	7.809879e+001	-2.000000e+002	0.000000e+000	-2.000000e+002	0.000000e+000
42999340.000	-2.943487e-003	-1.396587e+001	-5.669759e+001	7.762060e+001	-2.000000e+002	0.000000e+000	-2.000000e+002	0.000000e+000
43649330.000	-2.963078e-003	-1.417282e+001	-5.666778e+001	7.740349e+001	-2.000000e+002	0.000000e+000	-2.000000e+002	0.000000e+000
44299320.000	-2.923753e-003	-1.437825e+001	-5.658890e+001	7.679123e+001	-2.000000e+002	0.000000e+000	-2.000000e+002	0.000000e+000
44949310.000	-2.993902e-003	-1.458850e+001	-5.643054e+001	7.736697e+001	-2.000000e+002	0.000000e+000	-2.000000e+002	0.000000e+000
45599300.000	-3.068225e-003	-1.479660e+001	-5.630668e+001	7.722971e+001	-2.000000e+002	0.000000e+000	-2.000000e+002	0.000000e+000
46249290.000	-3.952923e-003	-1.500475e+001	-5.623125e+001	7.657254e+001	-2.000000e+002	0.000000e+000	-2.000000e+002	0.000000e+000
46899280.000	-4.265145e-003	-1.521041e+001	-5.616068e+001	7.613611e+001	-2.000000e+002	0.000000e+000	-2.000000e+002	0.000000e+000
47549270.000	-5.677384e-003	-1.541612e+001	-5.606793e+001	7.653440e+001	-2.000000e+002	0.000000e+000	-2.000000e+002	0.000000e+000
48199260.000	-6.798476e-003	-1.562620e+001	-5.600098e+001	7.650694e+001	-2.000000e+002	0.000000e+000	-2.000000e+002	0.000000e+000
48849250.000	-7.724559e-003	-1.583527e+001	-5.591999e+001	7.661863e+001	-2.000000e+002	0.000000e+000	-2.000000e+002	0.000000e+000
49499240.000	-7.780184e-003	-1.603720e+001	-5.578686e+001	7.677008e+001	-2.000000e+002	0.000000e+000	-2.000000e+002	0.000000e+000
50149230.000	-7.888830e-003	-1.624891e+001	-5.569679e+001	7.667780e+001	-2.000000e+002	0.000000e+000	-2.000000e+002	0.000000e+000
50799220.000	-8.555687e-003	-1.645568e+001	-5.553761e+001	7.662712e+001	-2.000000e+002	0.000000e+000	-2.000000e+002	0.000000e+000
51449210.000	-6.963379e-003	-1.666662e+001	-5.545442e+001	7.676497e+001	-2.000000e+002	0.000000e+000	-2.000000e+002	0.000000e+000
52099200.000	-7.249083e-003	-1.686916e+001	-5.535470e+001	7.662136e+001	-2.000000e+002	0.000000e+000	-2.000000e+002	0.000000e+000
52749190.000	-7.789630e-003	-1.707671e+001	-5.522213e+001	7.672358e+001	-2.000000e+002	0.000000e+000	-2.000000e+002	0.000000e+000
53399180.000	-8.296273e-003	-1.728624e+001	-5.528693e+001	7.730100e+001	-2.000000e+002	0.000000e+000	-2.000000e+002	0.000000e+000
54049170.000	-8.381278e-003	-1.749355e+001	-5.504790e+001	7.803326e+001	-2.000000e+002	0.000000e+000	-2.000000e+002	0.000000e+000
54699160.000	-8.452367e-003	-1.770173e+001	-5.491153e+001	7.867924e+001	-2.000000e+002	0.000000e+000	-2.000000e+002	0.000000e+000
55349150.000	-9.291458e-003	-1.790552e+001	-5.467290e+001	7.868649e+001	-2.000000e+002	0.000000e+000	-2.000000e+002	0.000000e+000
55999140.000	-1.034997e-002	-1.811212e+001	-5.440653e+001	7.860112e+001	-2.000000e+002	0.000000e+000	-2.000000e+002	0.000000e+000
56649130.000	-1.067306e-002	-1.832332e+001	-5.411241e+001	7.818869e+001	-2.000000e+002	0.000000e+000	-2.000000e+002	0.000000e+000
57299120.000	-1.104116e-002	-1.852513e+001	-5.389602e+001	7.714871e+001	-2.000000e+002	0.000000e+000	-2.000000e+002	0.000000e+000
57949110.000	-1.087670e-002	-1.873185e+001	-5.387688e+001	7.576520e+001	-2.000000e+002	0.000000e+000	-2.000000e+002	0.000000e+000
58599100.000	-1.080859e-002	-1.893385e+001	-5.376421e+001	7.556790e+001	-2.000000e+002	0.000000e+000	-2.000000e+002	0.000000e+000
59249090.000	-1.197383e-002	-1.913940e+001	-5.373018e+001	7.539719e+001	-2.000000e+002	0.000000e+000	-2.000000e+002	0.000000e+000
59899080.000	-1.207377e-002	-1.934717e+001	-5.363786e+001	7.518051e+001	-2.000000e+002	0.000000e+000	-2.000000e+002	0.000000e+000
60549070.000	-1.332998e-002	-1.955139e+001	-5.348948e+001	7.471469e+001	-2.000000e+002	0.000000e+000	-2.000000e+002	0.000000e+000
61199060.000	-1.393326e-002	-1.975608e+001	-5.341401e+001	7.477669e+001	-2.000000e+002	0.000000e+000	-2.000000e+002	0.000000e+000
61849050.000	-1.464792e-002	-1.995825e+001	-5.331549e+001	7.427772e+001	-2.000000e+002	0.000000e+000	-2.000000e+002	0.000000e+000
62499040.000	-1.510159e-002	-2.016385e+001	-5.322121e+001	7.419383e+001	-2.000000e+002	0.000000e+000	-2.000000e+002	0.000000e+000
63149030.000	-1.565865e-002	-2.037001e+001	-5.314950e+001	7.363959e+001	-2.000000e+002	0.000000e+000	-2.000000e+002	0.000000e+000
63799020.000	-1.656830e-002	-2.057328e+001	-5.301711e+001	7.333062e+001	-2.000000e+002	0.000000e+000	-2.000000e+002	0.000000e+000
64449010.000	-1.702002e-002	-2.077967e+001	-5.288333e+001	7.318452e+001	-2.000000e+002	0.000000e+000	-2.000000e+002	0.000000e+000
65099000.000	-1.729519e-002	-2.098454e+001	-5.293720e+001	7.267673e+001	-2.000000e+002	0.000000e+000	-2.000000e+002	0.000000e+000
65748990.000	-1.716459e-002	-2.118686e+001	-5.278610e+001	7.263341e+001	-2.000000e+002	0.000000e+000	-2.000000e+002	0.000000e+000
66398980.000	-1.817883e-002	-2.139401e+001	-5.273294e+001	7.233691e+001	-2.000000e+002	0.000000e+000	-2.000000e+002	0.000000e+000
67048970.000	-1.815405e-002	-2.159876e+001	-5.260835e+001	7.206996e+001	-2.000000e+002	0.000000e+000	-2.000000e+002	0.000000e+000
67698960.000	-1.825342e-002	-2.180405e+001	-5.254832e+001	7.164191e+001	-2.000000e+002	0.000000e+000	-2.000000e+002	0.000000e+000
68348950.000	-1.912633e-002	-2.200658e+001	-5.248086e+001	7.162697e+001	-2.000000e+002	0.000000e+000	-2.000000e+002	0.000000e+000
68998940.000	-2.018124e-002	-2.221343e+001	-5.236399e+001	7.133467e+001	-2.000000e+002	0.000000e+000	-2.000000e+002	0.000000e+000
69648930.000	-1.942614e-002	-2.241698e+001	-5.227653e+001	7.152736e+001	-2.000000e+002	0.000000e+000	-2.000000e+002	0.000000e+000
70298920.000	-1.944012e-002	-2.263344e+001	-5.225670e+001	7.139365e+001	-2.000000e+002	0.000000e+000	-2.000000e+002	0.000000e+000
70948910.000	-2.009331e-002	-2.283778e+001	-5.215475e+001	7.064708e+001	-2.000000e+002	0.000000e+000	-2.000000e+002	0.000000e+000
71598900.000	-1.932451e-002	-2.304629e+001	-5.205802e+001	7.036052e+001	-2.000000e+002	0.000000e+000	-2.000000e+002	0.000000e+000
72248890.000	-2.071736e-002	-2.325421e+001	-5.201339e+001	7.001920e+001	-2.000000e+002	0.000000e+000	-2.000000e+002	0.000000e+000
72898880.000	-2.105844e-002	-2.345731e+001	-5.198623e+001	6.989072e+001	-2.000000e+002	0.000000e+000	-2.000000e+002	0.000000e+000
73548870.000	-2.152467e-002	-2.366523e+001	-5.186138e+001	6.962179e+001	-2.000000e+002	0.000000e+000	-2.000000e+002	0.000000e+000
74198860.000	-2.107374e-002	-2.386963e+001	-5.188572e+001	6.988088e+001	-2.000000e+002	0.000000e+000	-2.000000e+002	0.000000e+000
74848850.000	-2.247644e-002	-2.408009e+001	-5.181919e+001	6.926167e+001	-2.000000e+002	0.000000e+000	-2.000000e+002	0.000000e+000
75498840.000	-2.267392e-002	-2.428974e+001	-5.178925e+001	6.986000e+001	-2.000000e+002	0.000000e+000	-2.000000e+002	0.000000e+000
76148830.000	-2.236047e-002	-2.449165e+001	-5.170240e+001	6.943008e+001	-2.000000e+002	0.000000e+000	-2.000000e+002	0.000000e+000
76798820.000	-2.211326e-002	-2.469523e+001	-5.160445e+001	6.922229e+001	-2.000000e+002	0.000000e+000	-2.000000e+002	0.000000e+000
77448810.000	-2.415198e-002	-2.489872e+001	-5.154710e+001	6.951046e+001	-2.000000e+002	0.000000e+000	-2.000000e+002	0.000000e+000
78098800.000	-2.495641e-002	-2.510507e+001	-5.148421e+001	6.961690e+001	-2.000000e+002	0.000000e+000	-2.000000e+002	0.000000e+000
78748790.000	-2.541442e-002	-2.530934e+001	-5.140807e+001	6.971989e+001	-2.000000e+002	0.000000e+000	-2.000000e+002	0.000000e+000
79398780.000	-2.504187e-002	-2.551389e+001	-5.128104e+001	6.957762e+001	-2.000000e+002	0.000000e+000	-2.000000e+002	0.000000e+000
80048770.000	-2.505396e-002	-2.573034e+001	-5.120338e+001	6.943341e+001	-2.000000e+002	0.000000e+000	-2.000000e+002	0.000000e+000
80698760.000	-2.592401e-002	-2.593650e+001	-5.113905e+001	6.929233e+001	-2.000000e+002	0.000000e+000	-2.000000e+002	0.000000e+000
81348750.000	-2.612175e-002	-2.614235e+001	-5.107228e+001	6.953896e+001	-2.000000e+002	0.000000e+000	-2.000000e+002	0.000000e+000
81998740.000	-2.612030e-002	-2.634990e+001	-5.099369e+001	6.978958e+001	-2.000000e+002	0.000000e+000	-2.000000e+002	0.000000e+000
82648730.000	-2.720241e-002	-2.655037e+001	-5.084111e+001	6.990770e+001	-2.000000e+002	0.000000e+000	-2.000000e+002	0.000000e+000
83298720.000	-2.839417e-002	-2.675746e+001	-5.074272e+001	6.962447e+001	-2.000000e+002	0.000000e+000	-2.000000e+002	0.000000e+000
83948710.000	-2.823397e-002	-2.696672e+001	-5.062007e+001	6.991647e+001	-2.000000e+002	0.000000e+000	-2.000000e+002	0.000000e+000
84598700.000	-2.823115e-002	-2.716936e+001	-5.048087e+001	6.950332e+001	-2.000000e+002	0.000000e+000	-2.000000e+002	0.000000e+000
85248690.000	-2.873967e-002	-2.738039e+001	-5.042580e+001	6.884487e+001	-2.000000e+002	0.000000e+000	-2.000000e+002	0.000000e+000
85898680.000	-2.915293e-002	-2.758586e+001	-5.025087e+001	6.816571e+001	-2.000000e+002	0.000000e+000	-2.000000e+002	0.000000e+000
86548670.000	-2.929738e-002	-2.779240e+001	-5.018360e+001	6.754352e+001	-2.000000e+002	0.000000e+000	-2.000000e+002	0.000000e+000
87198660.000	-2.970934e-002	-2.799791e+001	-5.014805e+001	6.718542e+001	-2.000000e+002	0.000000e+000	-2.000000e+002	0.000000e+000
87848650.000	-2.974708e-002	-2.820107e+001	-5.013616e+001	6.699499e+001	-2.000000e+002	0.000000e+000	-2.000000e+002	0.000000e+000
88498640.000	-3.061871e-002	-2.840763e+001	-5.007406e+001	6.679329e+001	-2.000000e+002	0.000000e+000	-2.000000e+002	0.000000e+000
89148630.000	-3.190842e-002	-2.861231e+001	-4.997195e+001	6.659687e+001	-2.000000e+002	0.000000e+000	-2.000000e+002	0.000000e+000
89798620.000	-3.168517e-002	-2.882336e+001	-4.997026e+001	6.649700e+001	-2.000000e+002	0.000000e+000	-2.000000e+002	0.000000e+000
90448610.000	-3.114227e-002	-2.902972e+001	-4.990584e+001	6.647791e+001	-2.000000e+002	0.000000e+000	-2.000000e+002	0.000000e+000
91098600.000	-3.227971e-002	-2.924094e+001	-4.983863e+001	6.599998e+001	-2.000000e+002	0.000000e+000	-2.000000e+002	0.000000e+000
91748590.000	-3.197341e-002	-2.945156e+001	-4.972059e+001	6.582817e+001	-2.000000e+002	0.000000e+000	-2.000000e+002	0.000000e+000
92398580.000	-3.174735e-002	-2.965851e+001	-4.977830e+001	6.586567e+001	-2.000000e+002	0.000000e+000	-2.000000e+002	0.000000e+000
93048570.000	-3.187583e-002	-2.986417e+001	-4.978748e+001	6.579365e+001	-2.000000e+002	0.000000e+000	-2.000000e+002	0.000000e+000
93698560.000	-3.281579e-002	-3.007698e+001	-4.966518e+001	6.570935e+001	-2.000000e+002	0.000000e+000	-2.000000e+002	0.000000e+000
94348550.000	-3.310985e-002	-3.028246e+001	-4.960395e+001	6.545273e+001	-2.000000e+002	0.000000e+000	-2.000000e+002	0.000000e+000
94998540.000	-3.400826e-002	-3.049421e+001	-4.956281e+001	6.546075e+001	-2.000000e+002	0.000000e+000	-2.000000e+002	0.000000e+000
95648530.000	-3.491609e-002	-3.069965e+001	-4.948829e+001	6.585812e+001	-2.000000e+002	0.000000e+000	-2.000000e+002	0.000000e+000
96298520.000	-3.478014e-002	-3.090329e+001	-4.942903e+001	6.591764e+001	-2.000000e+002	0.000000e+000	-2.000000e+002	0.000000e+000
96948510.000	-3.514816e-002	-3.110890e+001	-4.929012e+001	6.590568e+001	-2.000000e+002	0.000000e+000	-2.000000e+002	0.000000e+000
97598500.000	-3.618959e-002	-3.131474e+001	-4.919533e+001	6.562183e+001	-2.000000e+002	0.000000e+000	-2.000000e+002	0.000000e+000
98248490.000	-3.467068e-002	-3.151626e+001	-4.901924e+001	6.556148e+001	-2.000000e+002	0.000000e+000	-2.000000e+002	0.000000e+000
98898480.000	-3.622327e-002	-3.172554e+001	-4.905362e+001	6.522910e+001	-2.000000e+002	0.000000e+000	-2.000000e+002	0.000000e+000
