Frequency	S11_amp	S11_phase	S21_amp	S21_phase	S12_amp	S12_phase	S22_amp	S22_phase
100000.000	5.103479e-002	-6.261555e-001	-9.484233e+001	-1.396404e+002	-2.000000e+002	0.000000e+000	-2.000000e+002	0.000000e+000
749990.000	9.185854e-004	-5.938466e-001	-8.886344e+001	1.467010e+002	-2.000000e+002	0.000000e+000	-2.000000e+002	0.000000e+000
1399980.000	1.685082e-003	-7.647992e-001	-8.429796e+001	-1.006141e+002	-2.000000e+002	0.000000e+000	-2.000000e+002	0.000000e+000
2049970.000	3.315628e-004	-9.627308e-001	-8.149859e+001	1.521912e+002	-2.000000e+002	0.000000e+000	-2.000000e+002	0.000000e+000
2699960.000	9.202088e-004	-1.159036e+000	-8.323883e+001	4.681996e+001	-2.000000e+002	0.000000e+000	-2.000000e+002	0.000000e+000
3349950.000	7.035976e-004	-1.370768e+000	-7.720208e+001	7.890942e+001	-2.000000e+002	0.000000e+000	-2.000000e+002	0.000000e+000
3999940.000	1.723248e-003	-1.573896e+000	-7.900383e+001	1.030299e+002	-2.000000e+002	0.000000e+000	-2.000000e+002	0.000000e+000
4649930.000	1.656251e-003	-1.783967e+000	-7.893481e+001	9.527612e+001	-2.000000e+002	0.000000e+000	-2.000000e+002	0.000000e+000
5299920.000	1.736989e-003	-1.974136e+000	-7.537209e+001	9.795080e+001	-2.000000e+002	0.000000e+000	-2.000000e+002	0.000000e+000
5949910.000	-7.854760e-004	-2.193331e+000	-7.199941e+001	9.124488e+001	-2.000000e+002	0.000000e+000	-2.000000e+002	0.000000e+000
6599900.000	-6.075106e-004	-2.388993e+000	-7.313894e+001	9.435520e+001	-2.000000e+002	0.000000e+000	-2.000000e+002	0.000000e+000
7249890.000	9.531281e-004	-2.601092e+000	-7.373069e+001	7.130825e+001	-2.000000e+002	0.000000e+000	-2.000000e+002	0.000000e+000
7899880.000	6.530390e-004	-2.812327e+000	-7.073437e+001	8.965913e+001	-2.000000e+002	0.000000e+000	-2.000000e+002	0.000000e+000
8549870.000	2.375541e-003	-3.026872e+000	-7.100587e+001	8.818774e+001	-2.000000e+002	0.000000e+000	-2.000000e+002	0.000000e+000
9199860.000	8.611180e-004	-3.235778e+000	-7.000880e+001	8.806614e+001	-2.000000e+002	0.000000e+000	-2.000000e+002	0.000000e+000
9849850.000	1.199148e-003	-3.441598e+000	-6.996064e+001	8.835344e+001	-2.000000e+002	0.000000e+000	-2.000000e+002	0.000000e+000
10499840.000	9.336905e-004	-3.637419e+000	-6.939949e+001	8.634446e+001	-2.000000e+002	0.000000e+000	-2.000000e+002	0.000000e+000
11149830.000	-1.507159e-003	-3.839236e+000	-6.883137e+001	8.635954e+001	-2.000000e+002	0.000000e+000	-2.000000e+002	0.000000e+000
11799820.000	-1.997004e-003	-4.041833e+000	-6.808792e+001	8.667249e+001	-2.000000e+002	0.000000e+000	-2.000000e+002	0.000000e+000
12449810.000	-8.535730e-004	-4.256699e+000	-6.762509e+001	8.578035e+001	-2.000000e+002	0.000000e+000	-2.000000e+002	0.000000e+000
13099800.000	8.673190e-004	-4.470137e+000	-6.737178e+001	8.511653e+001	-2.000000e+002	0.000000e+000	-2.000000e+002	0.000000e+000
13749790.000	-3.367051e-004	-4.673846e+000	-6.697249e+001	8.740030e+001	-2.000000e+002	0.000000e+000	-2.000000e+002	0.000000e+000
14399780.000	-1.335814e-003	-4.885279e+000	-6.668174e+001	8.591465e+001	-2.000000e+002	0.000000e+000	-2.000000e+002	0.000000e+000
15049770.000	-1.903877e-003	-5.104203e+000	-6.621293e+001	8.475440e+001	-2.000000e+002	0.000000e+000	-2.000000e+002	0.000000e+000
15699760.000	1.200550e-004	-5.287941e+000	-6.551841e+001	8.549509e+001	-2.000000e+002	0.000000e+000	-2.000000e+002	0.000000e+000
16349750.000	-2.760413e-004	-5.489031e+000	-6.562667e+001	8.443386e+001	-2.000000e+002	0.000000e+000	-2.000000e+002	0.000000e+000
16999740.000	-2.554257e-003	-5.704367e+000	-6.510742e+001	8.488887e+001	-2.000000e+002	0.000000e+000	-2.000000e+002	0.000000e+000
17649730.000	4.623990e-003	-5.937461e+000	-6.455296e+001	8.475261e+001	-2.000000e+002	0.000000e+000	-2.000000e+002	0.000000e+000
18299720.000	7.375803e-003	-6.153291e+000	-6.447254e+001	8.436873e+001	-2.000000e+002	0.000000e+000	-2.000000e+002	0.000000e+000
18949710.000	6.544127e-003	-6.355191e+000	-6.415747e+001	8.468350e+001	-2.000000e+002	0.000000e+000	-2.000000e+002	0.000000e+000
19599700.000	7.999363e-004	-6.532912e+000	-6.410355e+001	8.424095e+001	-2.000000e+002	0.000000e+000	-2.000000e+002	0.000000e+000
20249690.000	-2.573526e-003	-6.723561e+000	-6.382990e+001	8.473359e+001	-2.000000e+002	0.000000e+000	-2.000000e+002	0.000000e+000
20899680.000	-4.201092e-003	-6.960546e+000	-6.366813e+001	8.529440e+001	-2.000000e+002	0.000000e+000	-2.000000e+002	0.000000e+000
21549670.000	-4.306993e-003	-7.173685e+000	-6.325731e+001	8.413160e+001	-2.000000e+002	0.000000e+000	-2.000000e+002	0.000000e+000
22199660.000	-3.109800e-003	-7.370602e+000	-6.307005e+001	8.670299e+001	-2.000000e+002	0.000000e+000	-2.000000e+002	0.000000e+000
22849650.000	8.627447e-004	-7.544878e+000	-6.298666e+001	8.544130e+001	-2.000000e+002	0.000000e+000	-2.000000e+002	0.000000e+000
23499640.000	-5.462836e-004	-7.751237e+000	-6.262637e+001	8.754810e+001	-2.000000e+002	0.000000e+000	-2.000000e+002	0.000000e+000
24149630.000	-2.510631e-003	-7.961637e+000	-6.215769e+001	8.827722e+001	-2.000000e+002	0.000000e+000	-2.000000e+002	0.000000e+000
24799620.000	-1.674961e-003	-8.169097e+000	-6.166646e+001	8.760832e+001	-2.000000e+002	0.000000e+000	-2.000000e+002	0.000000e+000
25449610.000	8.399922e-004	-8.377578e+000	-6.133262e+001	8.630867e+001	-2.000000e+002	0.000000e+000	-2.000000e+002	0.000000e+000
26099600.000	1.283032e-004	-8.577611e+000	-6.117099e+001	8.568367e+001	-2.000000e+002	0.000000e+000	-2.000000e+002	0.000000e+000
26749590.000	-8.335731e-004	-8.787644e+000	-6.073725e+001	8.580397e+001	-2.000000e+002	0.000000e+000	-2.000000e+002	0.000000e+000
27399580.000	-7.969979e-004	-9.000782e+000	-6.054497e+001	8.577149e+001	-2.000000e+002	0.000000e+000	-2.000000e+002	0.000000e+000
28049570.000	2.397195e-004	-9.211976e+000	-6.016271e+001	8.462206e+001	-2.000000e+002	0.000000e+000	-2.000000e+002	0.000000e+000
28699560.000	-1.076391e-003	-9.409646e+000	-5.985883e+001	8.557112e+001	-2.000000e+002	0.000000e+000	-2.000000e+002	0.000000e+000
29349550.000	-9.526076e-004	-9.611644e+000	-5.988656e+001	8.305322e+001	-2.000000e+002	0.000000e+000	-2.000000e+002	0.000000e+000
29999540.000	-1.241990e-003	-9.815123e+000	-5.958682e+001	8.201697e+001	-2.000000e+002	0.000000e+000	-2.000000e+002	0.000000e+000
30649530.000	-1.478835e-003	-1.003007e+001	-5.967006e+001	8.206396e+001	-2.000000e+002	0.000000e+000	-2.000000e+002	0.000000e+000
31299520.000	-5.959027e-004	-1.024328e+001	-5.931176e+001	8.261648e+001	-2.000000e+002	0.000000e+000	-2.000000e+002	0.000000e+000
31949510.000	-1.266342e-003	-1.044854e+001	-5.925417e+001	8.134503e+001	-2.000000e+002	0.000000e+000	-2.000000e+002	0.000000e+000
32599500.000	-2.003836e-003	-1.065513e+001	-5.899862e+001	8.123565e+001	-2.000000e+002	0.000000e+000	-2.000000e+002	0.000000e+000
33249490.000	-1.448898e-003	-1.086426e+001	-5.896967e+001	8.074094e+001	-2.000000e+002	0.000000e+000	-2.000000e+002	0.000000e+000
33899480.000	-2.311585e-003	-1.107457e+001	-5.871693e+001	8.140206e+001	-2.000000e+002	0.000000e+000	-2.000000e+002	0.000000e+000
34549470.000	-2.035113e-003	-1.127267e+001	-5.862594e+001	8.021411e+001	-2.000000e+002	0.000000e+000	-2.000000e+002	0.000000e+000
35199460.000	-2.270372e-003	-1.147471e+001	-5.833938e+001	8.010912e+001	-2.000000e+002	0.000000e+000	-2.000000e+002	0.000000e+000
35849450.000	-2.840636e-003	-1.167673e+001	-5.818244e+001	7.971168e+001	-2.000000e+002	0.000000e+000	-2.000000e+002	0.000000e+000
36499440.000	-2.484455e-003	-1.188231e+001	-5.813137e+001	7.978596e+001	-2.000000e+002	0.000000e+000	-2.000000e+002	0.000000e+000
37149430.000	-2.750611e-003	-1.209076e+001	-5.808344e+001	7.951340e+001	-2.000000e+002	0.000000e+000	-2.000000e+002	0.000000e+000
37799420.000	-2.992003e-003	-1.229741e+001	-5.782519e+001	7.903110e+001	-2.000000e+002	0.000000e+000	-2.000000e+002	0.000000e+000
38449410.000	-2.941104e-003	-1.250575e+001	-5.768482e+001	7.878266e+001	-2.000000e+002	0.000000e+000	-2.000000e+002	0.000000e+000
39099400.000	-3.399271e-003	-1.271769e+001	-5.764849e+001	7.896856e+001	-2.000000e+002	0.000000e+000	-2.000000e+002	0.000000e+000
39749390.000	-4.164706e-003	-1.292963e+001	-5.740873e+001	7.855739e+001	-2.000000e+002	0.000000e+000	-2.000000e+002	0.000000e+000
40399380.000	-4.199839e-003	-1.314022e+001	-5.730518e+001	7.888517e+001	-2.000000e+002	0.000000e+000	-2.000000e+002	0.000000e+000
41049370.000	-4.018088e-003	-1.334382e+001	-5.714773e+001	7.823206e+001	-2.000000e+002	0.000000e+000	-2.000000e+002	0.000000e+000
41699360.000	-2.844618e-003	-1.355025e+001	-5.707704e+001	7.777442e+001	-2.000000e+002	0.000000e+000	-2.000000e+002	0.000000e+000
42349350.000	-3.011807e-003	-1.375274e+001	-5.687500e+001	7.733615e+001	-2.000000e+002	0.000000e+000	-2.000000e+002	0.000000e+000
42999340.000	-3.687785e-003	-1.396105e+001	-5.681658e+001	7.786959e+001	-2.000000e+002	0.000000e+000	-2.000000e+002	0.000000e+000
43649330.000	-3.876371e-003	-1.416695e+001	-5.671443e+001	7.738660e+001	-2.000000e+002	0.000000e+000	-2.000000e+002	0.000000e+000
44299320.000	-3.527859e-003	-1.437079e+001	-5.661205e+001	7.720176e+001	-2.000000e+002	0.000000e+000	-2.000000e+002	0.000000e+000
44949310.000	-3.859823e-003	-1.458681e+001	-5.639188e+001	7.716561e+001	-2.000000e+002	0.000000e+000	-2.000000e+002	0.000000e+000
45599300.000	-3.884811e-003	-1.479587e+001	-5.638620e+001	7.658853e+001	-2.000000e+002	0.000000e+000	-2.000000e+002	0.000000e+000
46249290.000	-4.670458e-003	-1.500083e+001	-5.627015e+001	7.708229e+001	-2.000000e+002	0.000000e+000	-2.000000e+002	0.000000e+000
46899280.000	-4.969638e-003	-1.520615e+001	-5.620273e+001	7.648607e+001	-2.000000e+002	0.000000e+000	-2.000000e+002	0.000000e+000
47549270.000	-6.332590e-003	-1.541564e+001	-5.605311e+001	7.619974e+001	-2.000000e+002	0.000000e+000	-2.000000e+002	0.000000e+000
48199260.000	-7.574057e-003	-1.562321e+001	-5.599482e+001	7.627092e+001	-2.000000e+002	0.000000e+000	-2.000000e+002	0.000000e+000
48849250.000	-8.548366e-003	-1.583053e+001	-5.595277e+001	7.636172e+001	-2.000000e+002	0.000000e+000	-2.000000e+002	0.000000e+000
49499240.000	-7.992951e-003	-1.603645e+001	-5.584519e+001	7.593716e+001	-2.000000e+002	0.000000e+000	-2.000000e+002	0.000000e+000
50149230.000	-8.789571e-003	-1.624730e+001	-5.569150e+001	7.684964e+001	-2.000000e+002	0.000000e+000	-2.000000e+002	0.000000e+000
50799220.000	-8.697031e-003	-1.645493e+001	-5.555781e+001	7.613572e+001	-2.000000e+002	0.000000e+000	-2.000000e+002	0.000000e+000
51449210.000	-7.571850e-003	-1.666349e+001	-5.552565e+001	7.624917e+001	-2.000000e+002	0.000000e+000	-2.000000e+002	0.000000e+000
52099200.000	-8.367294e-003	-1.686805e+001	-5.548552e+001	7.651783e+001	-2.000000e+002	0.000000e+000	-2.000000e+002	0.000000e+000
52749190.000	-8.525650e-003	-1.707524e+001	-5.542013e+001	7.631917e+001	-2.000000e+002	0.000000e+000	-2.000000e+002	0.000000e+000
53399180.000	-8.960851e-003	-1.728350e+001	-5.536412e+001	7.733368e+001	-2.000000e+002	0.000000e+000	-2.000000e+002	0.000000e+000
54049170.000	-8.872734e-003	-1.748874e+001	-5.528767e+001	7.787676e+001	-2.000000e+002	0.000000e+000	-2.000000e+002	0.000000e+000
54699160.000	-9.735487e-003	-1.769897e+001	-5.509759e+001	7.849130e+001	-2.000000e+002	0.000000e+000	-2.000000e+002	0.000000e+000
55349150.000	-1.003872e-002	-1.790772e+001	-5.497632e+001	7.897808e+001	-2.000000e+002	0.000000e+000	-2.000000e+002	0.000000e+000
55999140.000	-1.073470e-002	-1.811344e+001	-5.467246e+001	7.937186e+001	-2.000000e+002	0.000000e+000	-2.000000e+002	0.000000e+000
56649130.000	-1.152362e-002	-1.832042e+001	-5.431480e+001	7.978700e+001	-2.000000e+002	0.000000e+000	-2.000000e+002	0.000000e+000
57299120.000	-1.201244e-002	-1.852311e+001	-5.400264e+001	7.808729e+001	-2.000000e+002	0.000000e+000	-2.000000e+002	0.000000e+000
57949110.000	-1.262599e-002	-1.873044e+001	-5.386510e+001	7.740566e+001	-2.000000e+002	0.000000e+000	-2.000000e+002	0.000000e+000
58599100.000	-1.193824e-002	-1.893091e+001	-5.377580e+001	7.653355e+001	-2.000000e+002	0.000000e+000	-2.000000e+002	0.000000e+000
59249090.000	-1.265025e-002	-1.913833e+001	-5.367803e+001	7.598843e+001	-2.000000e+002	0.000000e+000	-2.000000e+002	0.000000e+000
59899080.000	-1.279753e-002	-1.934456e+001	-5.362842e+001	7.567034e+001	-2.000000e+002	0.000000e+000	-2.000000e+002	0.000000e+000
60549070.000	-1.425691e-002	-1.954854e+001	-5.346648e+001	7.553690e+001	-2.000000e+002	0.000000e+000	-2.000000e+002	0.000000e+000
61199060.000	-1.480655e-002	-1.975146e+001	-5.346279e+001	7.482374e+001	-2.000000e+002	0.000000e+000	-2.000000e+002	0.000000e+000
61849050.000	-1.552403e-002	-1.995669e+001	-5.337327e+001	7.453539e+001	-2.000000e+002	0.000000e+000	-2.000000e+002	0.000000e+000
62499040.000	-1.602585e-002	-2.016115e+001	-5.321193e+001	7.479972e+001	-2.000000e+002	0.000000e+000	-2.000000e+002	0.000000e+000
63149030.000	-1.684017e-002	-2.036522e+001	-5.312503e+001	7.464778e+001	-2.000000e+002	0.000000e+000	-2.000000e+002	0.000000e+000
63799020.000	-1.726271e-002	-2.057049e+001	-5.303208e+001	7.382012e+001	-2.000000e+002	0.000000e+000	-2.000000e+002	0.000000e+000
64449010.000	-1.794356e-002	-2.077697e+001	-5.294575e+001	7.391547e+001	-2.000000e+002	0.000000e+000	-2.000000e+002	0.000000e+000
65099000.000	-1.850259e-002	-2.098242e+001	-5.281784e+001	7.362467e+001	-2.000000e+002	0.000000e+000	-2.000000e+002	0.000000e+000
65748990.000	-1.828308e-002	-2.118785e+001	-5.271278e+001	7.352727e+001	-2.000000e+002	0.000000e+000	-2.000000e+002	0.000000e+000
66398980.000	-1.888619e-002	-2.139264e+001	-5.268885e+001	7.309834e+001	-2.000000e+002	0.000000e+000	-2.000000e+002	0.000000e+000
67048970.000	-1.871169e-002	-2.159594e+001	-5.260144e+001	7.282573e+001	-2.000000e+002	0.000000e+000	-2.000000e+002	0.000000e+000
67698960.000	-1.962334e-002	-2.180166e+001	-5.245939e+001	7.223703e+001	-2.000000e+002	0.000000e+000	-2.000000e+002	0.000000e+000
68348950.000	-2.023767e-002	-2.200607e+001	-5.243262e+001	7.184246e+001	-2.000000e+002	0.000000e+000	-2.000000e+002	0.000000e+000
68998940.000	-2.064307e-002	-2.221240e+001	-5.237413e+001	7.123944e+001	-2.000000e+002	0.000000e+000	-2.000000e+002	0.000000e+000
69648930.000	-2.012907e-002	-2.241467e+001	-5.231548e+001	7.138695e+001	-2.000000e+002	0.000000e+000	-2.000000e+002	0.000000e+000
70298920.000	-2.023127e-002	-2.262803e+001	-5.221010e+001	7.097831e+001	-2.000000e+002	0.000000e+000	-2.000000e+002	0.000000e+000
70948910.000	-2.119878e-002	-2.283743e+001	-5.216019e+001	7.108669e+001	-2.000000e+002	0.000000e+000	-2.000000e+002	0.000000e+000
71598900.000	-2.075938e-002	-2.304188e+001	-5.203880e+001	7.089439e+001	-2.000000e+002	0.000000e+000	-2.000000e+002	0.000000e+000
72248890.000	-2.161561e-002	-2.325343e+001	-5.197592e+001	7.056894e+001	-2.000000e+002	0.000000e+000	-2.000000e+002	0.000000e+000
72898880.000	-2.130383e-002	-2.345715e+001	-5.193428e+001	7.016499e+001	-2.000000e+002	0.000000e+000	-2.000000e+002	0.000000e+000
73548870.000	-2.222367e-002	-2.366375e+001	-5.189608e+001	6.987901e+001	-2.000000e+002	0.000000e+000	-2.000000e+002	0.000000e+000
74198860.000	-2.253019e-002	-2.387149e+001	-5.185557e+001	7.004896e+001	-2.000000e+002	0.000000e+000	-2.000000e+002	0.000000e+000
74848850.000	-2.272202e-002	-2.407702e+001	-5.179684e+001	7.007593e+001	-2.000000e+002	0.000000e+000	-2.000000e+002	0.000000e+000
75498840.000	-2.342918e-002	-2.428688e+001	-5.173263e+001	6.974372e+001	-2.000000e+002	0.000000e+000	-2.000000e+002	0.000000e+000
76148830.000	-2.325155e-002	-2.449439e+001	-5.166689e+001	6.969924e+001	-2.000000e+002	0.000000e+000	-2.000000e+002	0.000000e+000
76798820.000	-2.244587e-002	-2.469658e+001	-5.159114e+001	6.995374e+001	-2.000000e+002	0.000000e+000	-2.000000e+002	0.000000e+000
77448810.000	-2.501925e-002	-2.489851e+001	-5.158004e+001	6.996245e+001	-2.000000e+002	0.000000e+000	-2.000000e+002	0.000000e+000
78098800.000	-2.529476e-002	-2.510211e+001	-5.144586e+001	7.005734e+001	-2.000000e+002	0.000000e+000	-2.000000e+002	0.000000e+000
78748790.000	-2.591367e-002	-2.531278e+001	-5.135984e+001	6.996427e+001	-2.000000e+002	0.000000e+000	-2.000000e+002	0.000000e+000
79398780.000	-2.596857e-002	-2.551470e+001	-5.123561e+001	6.994984e+001	-2.000000e+002	0.000000e+000	-2.000000e+002	0.000000e+000
80048770.000	-2.586515e-002	-2.572637e+001	-5.118271e+001	6.954554e+001	-2.000000e+002	0.000000e+000	-2.000000e+002	0.000000e+000
80698760.000	-2.740522e-002	-2.593631e+001	-5.110567e+001	6.943456e+001	-2.000000e+002	0.000000e+000	-2.000000e+002	0.000000e+000
81348750.000	-2.706654e-002	-2.614323e+001	-5.106290e+001	6.933340e+001	-2.000000e+002	0.000000e+000	-2.000000e+002	0.000000e+000
81998740.000	-2.760174e-002	-2.634947e+001	-5.096925e+001	6.998414e+001	-2.000000e+002	0.000000e+000	-2.000000e+002	0.000000e+000
82648730.000	-2.799567e-002	-2.655296e+001	-5.087113e+001	7.017165e+001	-2.000000e+002	0.000000e+000	-2.000000e+002	0.000000e+000
83298720.000	-2.895598e-002	-2.676110e+001	-5.069131e+001	7.012742e+001	-2.000000e+002	0.000000e+000	-2.000000e+002	0.000000e+000
83948710.000	-2.967627e-002	-2.696741e+001	-5.055159e+001	7.036706e+001	-2.000000e+002	0.000000e+000	-2.000000e+002	0.000000e+000
84598700.000	-2.957993e-002	-2.717089e+001	-5.039561e+001	6.989262e+001	-2.000000e+002	0.000000e+000	-2.000000e+002	0.000000e+000
85248690.000	-2.975269e-002	-2.738118e+001	-5.027357e+001	6.896398e+001	-2.000000e+002	0.000000e+000	-2.000000e+002	0.000000e+000
85898680.000	-3.018088e-002	-2.758743e+001	-5.020136e+001	6.843890e+001	-2.000000e+002	0.000000e+000	-2.000000e+002	0.000000e+000
86548670.000	-3.037605e-002	-2.779081e+001	-5.012472e+001	6.745527e+001	-2.000000e+002	0.000000e+000	-2.000000e+002	0.000000e+000
87198660.000	-3.016066e-002	-2.799669e+001	-5.009812e+001	6.740193e+001	-2.000000e+002	0.000000e+000	-2.000000e+002	0.000000e+000
87848650.000	-3.121154e-002	-2.820052e+001	-5.006883e+001	6.695317e+001	-2.000000e+002	0.000000e+000	-2.000000e+002	0.000000e+000
88498640.000	-3.143487e-002	-2.840777e+001	-5.001104e+001	6.680068e+001	-2.000000e+002	0.000000e+000	-2.000000e+002	0.000000e+000
89148630.000	-3.272182e-002	-2.861338e+001	-4.997437e+001	6.640314e+001	-2.000000e+002	0.000000e+000	-2.000000e+002	0.000000e+000
89798620.000	-3.231531e-002	-2.882257e+001	-4.990382e+001	6.651922e+001	-2.000000e+002	0.000000e+000	-2.000000e+002	0.000000e+000
90448610.000	-3.208176e-002	-2.902861e+001	-4.988415e+001	6.626967e+001	-2.000000e+002	0.000000e+000	-2.000000e+002	0.000000e+000
91098600.000	-3.318211e-002	-2.924299e+001	-4.981493e+001	6.617143e+001	-2.000000e+002	0.000000e+000	-2.000000e+002	0.000000e+000
91748590.000	-3.253220e-002	-2.944985e+001	-4.975162e+001	6.573046e+001	-2.000000e+002	0.000000e+000	-2.000000e+002	0.000000e+000
92398580.000	-3.282766e-002	-2.965985e+001	-4.973237e+001	6.614156e+001	-2.000000e+002	0.000000e+000	-2.000000e+002	0.000000e+000
93048570.000	-3.307915e-002	-2.986555e+001	-4.964135e+001	6.543944e+001	-2.000000e+002	0.000000e+000	-2.000000e+002	0.000000e+000
93698560.000	-3.351939e-002	-3.007705e+001	-4.958942e+001	6.560878e+001	-2.000000e+002	0.000000e+000	-2.000000e+002	0.000000e+000
94348550.000	-3.355290e-002	-3.028600e+001	-4.948871e+001	6.519124e+001	-2.000000e+002	0.000000e+000	-2.000000e+002	0.000000e+000
94998540.000	-3.492168e-002	-3.049475e+001	-4.948725e+001	6.527316e+001	-2.000000e+002	0.000000e+000	-2.000000e+002	0.000000e+000
95648530.000	-3.509064e-002	-3.070139e+001	-4.944515e+001	6.537395e+001	-2.000000e+002	0.000000e+000	-2.000000e+002	0.000000e+000
96298520.000	-3.530992e-002	-3.090359e+001	-4.936067e+001	6.560698e+001	-2.000000e+002	0.000000e+000	-2.000000e+002	0.000000e+000
96948510.000	-3.601582e-002	-3.111110e+001	-4.924703e+001	6.594057e+001	-2.000000e+002	0.000000e+000	-2.000000e+002	0.000000e+000
97598500.000	-3.661179e-002	-3.131501e+001	-4.912185e+001	6.545809e+001	-2.000000e+002	0.000000e+000	-2.000000e+002	0.000000e+000
98248490.000	-3.552985e-002	-3.151666e+001	-4.907073e+001	6.495543e+001	-2.000000e+002	0.000000e+000	-2.000000e+002	0.000000e+000
98898480.000	-3.742761e-002	-3.173093e+001	-4.902554e+001	6.490090e+001	-2.000000e+002	0.000000e+000	-2.000000e+002	0.000000e+000
