Frequency	S11_amp	S11_phase	S21_amp	S21_phase	S12_amp	S12_phase	S22_amp	S22_phase
100000.000	4.740402e-002	-5.576813e-001	-9.852363e+001	3.164708e+000	-2.000000e+002	0.000000e+000	-2.000000e+002	0.000000e+000
749990.000	1.596071e-003	-5.747416e-001	-8.827155e+001	1.795285e+002	-2.000000e+002	0.000000e+000	-2.000000e+002	0.000000e+000
1399980.000	2.873528e-003	-7.470074e-001	-8.681971e+001	-1.658229e+002	-2.000000e+002	0.000000e+000	-2.000000e+002	0.000000e+000
2049970.000	2.689370e-003	-9.413187e-001	-7.437276e+001	9.289847e+001	-2.000000e+002	0.000000e+000	-2.000000e+002	0.000000e+000
2699960.000	1.373622e-003	-1.139354e+000	-8.228256e+001	9.179086e+001	-2.000000e+002	0.000000e+000	-2.000000e+002	0.000000e+000
3349950.000	3.379643e-003	-1.354509e+000	-7.661681e+001	1.362414e+002	-2.000000e+002	0.000000e+000	-2.000000e+002	0.000000e+000
3999940.000	2.294168e-003	-1.555096e+000	-7.729510e+001	8.972192e+001	-2.000000e+002	0.000000e+000	-2.000000e+002	0.000000e+000
4649930.000	2.700346e-003	-1.759456e+000	-7.592779e+001	1.069355e+002	-2.000000e+002	0.000000e+000	-2.000000e+002	0.000000e+000
5299920.000	5.947489e-004	-1.960022e+000	-7.501776e+001	1.036321e+002	-2.000000e+002	0.000000e+000	-2.000000e+002	0.000000e+000
5949910.000	1.583739e-003	-2.172305e+000	-7.402967e+001	9.149257e+001	-2.000000e+002	0.000000e+000	-2.000000e+002	0.000000e+000
6599900.000	2.168282e-003	-2.372914e+000	-7.382977e+001	8.150168e+001	-2.000000e+002	0.000000e+000	-2.000000e+002	0.000000e+000
7249890.000	2.340169e-003	-2.589315e+000	-7.170658e+001	7.942927e+001	-2.000000e+002	0.000000e+000	-2.000000e+002	0.000000e+000
7899880.000	1.553572e-003	-2.799235e+000	-7.111088e+001	8.347324e+001	-2.000000e+002	0.000000e+000	-2.000000e+002	0.000000e+000
8549870.000	4.459688e-003	-3.012650e+000	-7.066702e+001	8.769569e+001	-2.000000e+002	0.000000e+000	-2.000000e+002	0.000000e+000
9199860.000	3.130164e-003	-3.217814e+000	-7.026999e+001	8.671158e+001	-2.000000e+002	0.000000e+000	-2.000000e+002	0.000000e+000
9849850.000	3.237950e-003	-3.426871e+000	-6.961866e+001	8.772257e+001	-2.000000e+002	0.000000e+000	-2.000000e+002	0.000000e+000
10499840.000	1.895516e-003	-3.619600e+000	-6.892614e+001	8.612927e+001	-2.000000e+002	0.000000e+000	-2.000000e+002	0.000000e+000
11149830.000	-1.341429e-004	-3.818548e+000	-6.852240e+001	8.547650e+001	-2.000000e+002	0.000000e+000	-2.000000e+002	0.000000e+000
11799820.000	-2.538775e-004	-4.021873e+000	-6.817088e+001	8.611985e+001	-2.000000e+002	0.000000e+000	-2.000000e+002	0.000000e+000
12449810.000	2.693509e-004	-4.236807e+000	-6.781280e+001	8.439401e+001	-2.000000e+002	0.000000e+000	-2.000000e+002	0.000000e+000
13099800.000	1.969230e-003	-4.448617e+000	-6.724332e+001	8.549968e+001	-2.000000e+002	0.000000e+000	-2.000000e+002	0.000000e+000
13749790.000	1.326343e-003	-4.652439e+000	-6.671187e+001	8.651045e+001	-2.000000e+002	0.000000e+000	-2.000000e+002	0.000000e+000
14399780.000	1.185677e-003	-4.861354e+000	-6.644233e+001	8.588542e+001	-2.000000e+002	0.000000e+000	-2.000000e+002	0.000000e+000
15049770.000	1.109069e-003	-5.075825e+000	-6.606614e+001	8.482526e+001	-2.000000e+002	0.000000e+000	-2.000000e+002	0.000000e+000
15699760.000	2.137265e-003	-5.266648e+000	-6.557691e+001	8.534268e+001	-2.000000e+002	0.000000e+000	-2.000000e+002	0.000000e+000
16349750.000	2.686047e-003	-5.465115e+000	-6.545006e+001	8.607757e+001	-2.000000e+002	0.000000e+000	-2.000000e+002	0.000000e+000
16999740.000	6.867994e-004	-5.682031e+000	-6.505508e+001	8.506806e+001	-2.000000e+002	0.000000e+000	-2.000000e+002	0.000000e+000
17649730.000	7.791536e-003	-5.913988e+000	-6.483183e+001	8.611444e+001	-2.000000e+002	0.000000e+000	-2.000000e+002	0.000000e+000
18299720.000	1.122753e-002	-6.136278e+000	-6.437350e+001	8.582565e+001	-2.000000e+002	0.000000e+000	-2.000000e+002	0.000000e+000
18949710.000	1.045123e-002	-6.338445e+000	-6.415058e+001	8.513499e+001	-2.000000e+002	0.000000e+000	-2.000000e+002	0.000000e+000
19599700.000	5.311985e-003	-6.521170e+000	-6.389027e+001	8.446647e+001	-2.000000e+002	0.000000e+000	-2.000000e+002	0.000000e+000
20249690.000	1.355327e-003	-6.711730e+000	-6.362147e+001	8.551469e+001	-2.000000e+002	0.000000e+000	-2.000000e+002	0.000000e+000
20899680.000	-9.515420e-004	-6.950895e+000	-6.350232e+001	8.487895e+001	-2.000000e+002	0.000000e+000	-2.000000e+002	0.000000e+000
21549670.000	-1.051651e-003	-7.169382e+000	-6.331174e+001	8.581169e+001	-2.000000e+002	0.000000e+000	-2.000000e+002	0.000000e+000
22199660.000	-7.316194e-004	-7.360376e+000	-6.299484e+001	8.696212e+001	-2.000000e+002	0.000000e+000	-2.000000e+002	0.000000e+000
22849650.000	2.037524e-003	-7.536954e+000	-6.257216e+001	8.806262e+001	-2.000000e+002	0.000000e+000	-2.000000e+002	0.000000e+000
23499640.000	1.329196e-003	-7.742434e+000	-6.210951e+001	8.798590e+001	-2.000000e+002	0.000000e+000	-2.000000e+002	0.000000e+000
24149630.000	-7.128964e-004	-7.955111e+000	-6.167309e+001	8.642240e+001	-2.000000e+002	0.000000e+000	-2.000000e+002	0.000000e+000
24799620.000	1.286399e-004	-8.159259e+000	-6.143943e+001	8.590444e+001	-2.000000e+002	0.000000e+000	-2.000000e+002	0.000000e+000
25449610.000	2.191010e-003	-8.368248e+000	-6.123143e+001	8.554727e+001	-2.000000e+002	0.000000e+000	-2.000000e+002	0.000000e+000
26099600.000	1.555183e-003	-8.568172e+000	-6.096051e+001	8.423775e+001	-2.000000e+002	0.000000e+000	-2.000000e+002	0.000000e+000
26749590.000	5.943475e-004	-8.776598e+000	-6.074663e+001	8.381936e+001	-2.000000e+002	0.000000e+000	-2.000000e+002	0.000000e+000
27399580.000	1.736528e-004	-8.989715e+000	-6.045995e+001	8.421394e+001	-2.000000e+002	0.000000e+000	-2.000000e+002	0.000000e+000
28049570.000	1.182067e-003	-9.197775e+000	-6.032449e+001	8.350844e+001	-2.000000e+002	0.000000e+000	-2.000000e+002	0.000000e+000
28699560.000	7.714342e-004	-9.399049e+000	-6.011448e+001	8.231274e+001	-2.000000e+002	0.000000e+000	-2.000000e+002	0.000000e+000
29349550.000	5.072339e-004	-9.602744e+000	-5.989279e+001	8.144989e+001	-2.000000e+002	0.000000e+000	-2.000000e+002	0.000000e+000
29999540.000	1.021409e-004	-9.804982e+000	-5.970268e+001	8.183440e+001	-2.000000e+002	0.000000e+000	-2.000000e+002	0.000000e+000
30649530.000	-4.344494e-004	-1.001653e+001	-5.955587e+001	8.141071e+001	-2.000000e+002	0.000000e+000	-2.000000e+002	0.000000e+000
31299520.000	4.397184e-004	-1.022954e+001	-5.936470e+001	8.185147e+001	-2.000000e+002	0.000000e+000	-2.000000e+002	0.000000e+000
31949510.000	5.691302e-004	-1.043330e+001	-5.914963e+001	8.176624e+001	-2.000000e+002	0.000000e+000	-2.000000e+002	0.000000e+000
32599500.000	-3.997153e-004	-1.064205e+001	-5.912011e+001	8.103417e+001	-2.000000e+002	0.000000e+000	-2.000000e+002	0.000000e+000
33249490.000	-3.078549e-004	-1.085074e+001	-5.888082e+001	8.001167e+001	-2.000000e+002	0.000000e+000	-2.000000e+002	0.000000e+000
33899480.000	-1.188146e-003	-1.105661e+001	-5.880690e+001	8.020519e+001	-2.000000e+002	0.000000e+000	-2.000000e+002	0.000000e+000
34549470.000	-1.383826e-003	-1.125614e+001	-5.858001e+001	8.024769e+001	-2.000000e+002	0.000000e+000	-2.000000e+002	0.000000e+000
35199460.000	-1.195615e-003	-1.145669e+001	-5.837655e+001	7.992727e+001	-2.000000e+002	0.000000e+000	-2.000000e+002	0.000000e+000
35849450.000	-1.488024e-003	-1.166315e+001	-5.834836e+001	7.994265e+001	-2.000000e+002	0.000000e+000	-2.000000e+002	0.000000e+000
36499440.000	-1.428740e-003	-1.186957e+001	-5.812999e+001	7.928006e+001	-2.000000e+002	0.000000e+000	-2.000000e+002	0.000000e+000
37149430.000	-1.628048e-003	-1.207382e+001	-5.797755e+001	7.963439e+001	-2.000000e+002	0.000000e+000	-2.000000e+002	0.000000e+000
37799420.000	-1.938103e-003	-1.228084e+001	-5.795033e+001	7.943829e+001	-2.000000e+002	0.000000e+000	-2.000000e+002	0.000000e+000
38449410.000	-2.356703e-003	-1.249243e+001	-5.773499e+001	7.898070e+001	-2.000000e+002	0.000000e+000	-2.000000e+002	0.000000e+000
39099400.000	-2.646385e-003	-1.270017e+001	-5.766756e+001	7.928896e+001	-2.000000e+002	0.000000e+000	-2.000000e+002	0.000000e+000
39749390.000	-3.417532e-003	-1.291432e+001	-5.761505e+001	7.874931e+001	-2.000000e+002	0.000000e+000	-2.000000e+002	0.000000e+000
40399380.000	-3.724013e-003	-1.312666e+001	-5.746485e+001	7.862162e+001	-2.000000e+002	0.000000e+000	-2.000000e+002	0.000000e+000
41049370.000	-3.294345e-003	-1.333064e+001	-5.739114e+001	7.872639e+001	-2.000000e+002	0.000000e+000	-2.000000e+002	0.000000e+000
41699360.000	-2.962833e-003	-1.353610e+001	-5.728697e+001	7.993369e+001	-2.000000e+002	0.000000e+000	-2.000000e+002	0.000000e+000
42349350.000	-2.441089e-003	-1.373928e+001	-5.717644e+001	8.027841e+001	-2.000000e+002	0.000000e+000	-2.000000e+002	0.000000e+000
42999340.000	-3.866287e-003	-1.394265e+001	-5.685732e+001	8.157432e+001	-2.000000e+002	0.000000e+000	-2.000000e+002	0.000000e+000
43649330.000	-3.698180e-003	-1.414480e+001	-5.646486e+001	8.108916e+001	-2.000000e+002	0.000000e+000	-2.000000e+002	0.000000e+000
44299320.000	-3.173023e-003	-1.435217e+001	-5.615750e+001	7.937831e+001	-2.000000e+002	0.000000e+000	-2.000000e+002	0.000000e+000
44949310.000	-3.245233e-003	-1.456114e+001	-5.606274e+001	7.869797e+001	-2.000000e+002	0.000000e+000	-2.000000e+002	0.000000e+000
45599300.000	-3.951179e-003	-1.477207e+001	-5.598341e+001	7.757918e+001	-2.000000e+002	0.000000e+000	-2.000000e+002	0.000000e+000
46249290.000	-5.033030e-003	-1.498267e+001	-5.596130e+001	7.726573e+001	-2.000000e+002	0.000000e+000	-2.000000e+002	0.000000e+000
46899280.000	-4.664358e-003	-1.518475e+001	-5.587342e+001	7.682149e+001	-2.000000e+002	0.000000e+000	-2.000000e+002	0.000000e+000
47549270.000	-6.366572e-003	-1.539178e+001	-5.577880e+001	7.657480e+001	-2.000000e+002	0.000000e+000	-2.000000e+002	0.000000e+000
48199260.000	-6.723064e-003	-1.559890e+001	-5.575105e+001	7.655338e+001	-2.000000e+002	0.000000e+000	-2.000000e+002	0.000000e+000
48849250.000	-7.806865e-003	-1.580930e+001	-5.572125e+001	7.651684e+001	-2.000000e+002	0.000000e+000	-2.000000e+002	0.000000e+000
49499240.000	-7.876970e-003	-1.601207e+001	-5.551250e+001	7.665551e+001	-2.000000e+002	0.000000e+000	-2.000000e+002	0.000000e+000
50149230.000	-8.037069e-003	-1.622026e+001	-5.545837e+001	7.696619e+001	-2.000000e+002	0.000000e+000	-2.000000e+002	0.000000e+000
50799220.000	-8.782895e-003	-1.643158e+001	-5.533319e+001	7.727267e+001	-2.000000e+002	0.000000e+000	-2.000000e+002	0.000000e+000
51449210.000	-7.689213e-003	-1.663869e+001	-5.517879e+001	7.666136e+001	-2.000000e+002	0.000000e+000	-2.000000e+002	0.000000e+000
52099200.000	-8.584568e-003	-1.684557e+001	-5.499077e+001	7.685986e+001	-2.000000e+002	0.000000e+000	-2.000000e+002	0.000000e+000
52749190.000	-7.959671e-003	-1.704929e+001	-5.484868e+001	7.679298e+001	-2.000000e+002	0.000000e+000	-2.000000e+002	0.000000e+000
53399180.000	-8.505472e-003	-1.725714e+001	-5.475712e+001	7.617968e+001	-2.000000e+002	0.000000e+000	-2.000000e+002	0.000000e+000
54049170.000	-8.663416e-003	-1.746392e+001	-5.460935e+001	7.605717e+001	-2.000000e+002	0.000000e+000	-2.000000e+002	0.000000e+000
54699160.000	-9.101957e-003	-1.767403e+001	-5.449332e+001	7.577737e+001	-2.000000e+002	0.000000e+000	-2.000000e+002	0.000000e+000
55349150.000	-9.137449e-003	-1.788030e+001	-5.441790e+001	7.523120e+001	-2.000000e+002	0.000000e+000	-2.000000e+002	0.000000e+000
55999140.000	-9.618010e-003	-1.808601e+001	-5.440471e+001	7.517865e+001	-2.000000e+002	0.000000e+000	-2.000000e+002	0.000000e+000
56649130.000	-1.061445e-002	-1.829551e+001	-5.430822e+001	7.464660e+001	-2.000000e+002	0.000000e+000	-2.000000e+002	0.000000e+000
57299120.000	-1.083858e-002	-1.850228e+001	-5.425964e+001	7.482624e+001	-2.000000e+002	0.000000e+000	-2.000000e+002	0.000000e+000
57949110.000	-1.146574e-002	-1.870916e+001	-5.406460e+001	7.488944e+001	-2.000000e+002	0.000000e+000	-2.000000e+002	0.000000e+000
58599100.000	-1.110310e-002	-1.891355e+001	-5.401555e+001	7.451898e+001	-2.000000e+002	0.000000e+000	-2.000000e+002	0.000000e+000
59249090.000	-1.251464e-002	-1.911749e+001	-5.393854e+001	7.467541e+001	-2.000000e+002	0.000000e+000	-2.000000e+002	0.000000e+000
59899080.000	-1.264353e-002	-1.932127e+001	-5.384126e+001	7.486303e+001	-2.000000e+002	0.000000e+000	-2.000000e+002	0.000000e+000
60549070.000	-1.388897e-002	-1.952574e+001	-5.370516e+001	7.533500e+001	-2.000000e+002	0.000000e+000	-2.000000e+002	0.000000e+000
61199060.000	-1.421398e-002	-1.972877e+001	-5.353898e+001	7.478395e+001	-2.000000e+002	0.000000e+000	-2.000000e+002	0.000000e+000
61849050.000	-1.478537e-002	-1.993449e+001	-5.341081e+001	7.446835e+001	-2.000000e+002	0.000000e+000	-2.000000e+002	0.000000e+000
62499040.000	-1.617387e-002	-2.013565e+001	-5.329288e+001	7.385595e+001	-2.000000e+002	0.000000e+000	-2.000000e+002	0.000000e+000
63149030.000	-1.608761e-002	-2.034059e+001	-5.318018e+001	7.355165e+001	-2.000000e+002	0.000000e+000	-2.000000e+002	0.000000e+000
63799020.000	-1.674989e-002	-2.054643e+001	-5.309014e+001	7.358569e+001	-2.000000e+002	0.000000e+000	-2.000000e+002	0.000000e+000
64449010.000	-1.769241e-002	-2.074887e+001	-5.296114e+001	7.321365e+001	-2.000000e+002	0.000000e+000	-2.000000e+002	0.000000e+000
65099000.000	-1.779600e-002	-2.095489e+001	-5.295362e+001	7.286997e+001	-2.000000e+002	0.000000e+000	-2.000000e+002	0.000000e+000
65748990.000	-1.762429e-002	-2.116312e+001	-5.287568e+001	7.277878e+001	-2.000000e+002	0.000000e+000	-2.000000e+002	0.000000e+000
66398980.000	-1.886920e-002	-2.136836e+001	-5.280709e+001	7.223732e+001	-2.000000e+002	0.000000e+000	-2.000000e+002	0.000000e+000
67048970.000	-1.885628e-002	-2.157229e+001	-5.272682e+001	7.266020e+001	-2.000000e+002	0.000000e+000	-2.000000e+002	0.000000e+000
67698960.000	-1.935061e-002	-2.177604e+001	-5.261874e+001	7.225850e+001	-2.000000e+002	0.000000e+000	-2.000000e+002	0.000000e+000
68348950.000	-1.964306e-002	-2.197789e+001	-5.250954e+001	7.231485e+001	-2.000000e+002	0.000000e+000	-2.000000e+002	0.000000e+000
68998940.000	-2.064378e-002	-2.218792e+001	-5.239253e+001	7.180611e+001	-2.000000e+002	0.000000e+000	-2.000000e+002	0.000000e+000
69648930.000	-2.023537e-002	-2.239086e+001	-5.232234e+001	7.167046e+001	-2.000000e+002	0.000000e+000	-2.000000e+002	0.000000e+000
70298920.000	-1.959848e-002	-2.260281e+001	-5.227343e+001	7.141601e+001	-2.000000e+002	0.000000e+000	-2.000000e+002	0.000000e+000
70948910.000	-2.075659e-002	-2.280961e+001	-5.218978e+001	7.092978e+001	-2.000000e+002	0.000000e+000	-2.000000e+002	0.000000e+000
71598900.000	-2.077631e-002	-2.301448e+001	-5.214464e+001	7.085768e+001	-2.000000e+002	0.000000e+000	-2.000000e+002	0.000000e+000
72248890.000	-2.108330e-002	-2.322471e+001	-5.202912e+001	7.095650e+001	-2.000000e+002	0.000000e+000	-2.000000e+002	0.000000e+000
72898880.000	-2.165137e-002	-2.342724e+001	-5.199354e+001	7.020420e+001	-2.000000e+002	0.000000e+000	-2.000000e+002	0.000000e+000
73548870.000	-2.222588e-002	-2.363372e+001	-5.194964e+001	7.042831e+001	-2.000000e+002	0.000000e+000	-2.000000e+002	0.000000e+000
74198860.000	-2.192385e-002	-2.383889e+001	-5.185780e+001	7.014785e+001	-2.000000e+002	0.000000e+000	-2.000000e+002	0.000000e+000
74848850.000	-2.309464e-002	-2.405002e+001	-5.183796e+001	7.021481e+001	-2.000000e+002	0.000000e+000	-2.000000e+002	0.000000e+000
75498840.000	-2.270495e-002	-2.425473e+001	-5.180103e+001	7.003439e+001	-2.000000e+002	0.000000e+000	-2.000000e+002	0.000000e+000
76148830.000	-2.326864e-002	-2.446206e+001	-5.178136e+001	7.009113e+001	-2.000000e+002	0.000000e+000	-2.000000e+002	0.000000e+000
76798820.000	-2.305258e-002	-2.466694e+001	-5.166739e+001	7.044179e+001	-2.000000e+002	0.000000e+000	-2.000000e+002	0.000000e+000
77448810.000	-2.502493e-002	-2.486977e+001	-5.159984e+001	7.056380e+001	-2.000000e+002	0.000000e+000	-2.000000e+002	0.000000e+000
78098800.000	-2.576604e-002	-2.507156e+001	-5.146738e+001	7.109070e+001	-2.000000e+002	0.000000e+000	-2.000000e+002	0.000000e+000
78748790.000	-2.665407e-002	-2.528254e+001	-5.134426e+001	7.107274e+001	-2.000000e+002	0.000000e+000	-2.000000e+002	0.000000e+000
79398780.000	-2.611776e-002	-2.548483e+001	-5.123034e+001	7.116309e+001	-2.000000e+002	0.000000e+000	-2.000000e+002	0.000000e+000
80048770.000	-2.636978e-002	-2.569617e+001	-5.113926e+001	7.058052e+001	-2.000000e+002	0.000000e+000	-2.000000e+002	0.000000e+000
80698760.000	-2.671107e-002	-2.590318e+001	-5.101401e+001	7.025286e+001	-2.000000e+002	0.000000e+000	-2.000000e+002	0.000000e+000
81348750.000	-2.711185e-002	-2.611008e+001	-5.095273e+001	7.018231e+001	-2.000000e+002	0.000000e+000	-2.000000e+002	0.000000e+000
81998740.000	-2.720333e-002	-2.631444e+001	-5.089305e+001	7.020779e+001	-2.000000e+002	0.000000e+000	-2.000000e+002	0.000000e+000
82648730.000	-2.792244e-002	-2.652005e+001	-5.077807e+001	7.016761e+001	-2.000000e+002	0.000000e+000	-2.000000e+002	0.000000e+000
83298720.000	-2.846129e-002	-2.672860e+001	-5.067426e+001	7.017670e+001	-2.000000e+002	0.000000e+000	-2.000000e+002	0.000000e+000
83948710.000	-2.906584e-002	-2.693660e+001	-5.054618e+001	7.007959e+001	-2.000000e+002	0.000000e+000	-2.000000e+002	0.000000e+000
84598700.000	-2.907297e-002	-2.714302e+001	-5.039965e+001	7.001222e+001	-2.000000e+002	0.000000e+000	-2.000000e+002	0.000000e+000
85248690.000	-2.941924e-002	-2.734746e+001	-5.026716e+001	6.950218e+001	-2.000000e+002	0.000000e+000	-2.000000e+002	0.000000e+000
85898680.000	-2.966752e-002	-2.755576e+001	-5.016052e+001	6.860607e+001	-2.000000e+002	0.000000e+000	-2.000000e+002	0.000000e+000
86548670.000	-2.990949e-002	-2.776107e+001	-5.010997e+001	6.804234e+001	-2.000000e+002	0.000000e+000	-2.000000e+002	0.000000e+000
87198660.000	-3.051418e-002	-2.796600e+001	-5.007012e+001	6.772740e+001	-2.000000e+002	0.000000e+000	-2.000000e+002	0.000000e+000
87848650.000	-3.100538e-002	-2.817019e+001	-5.003804e+001	6.778334e+001	-2.000000e+002	0.000000e+000	-2.000000e+002	0.000000e+000
88498640.000	-3.142858e-002	-2.837724e+001	-5.001228e+001	6.756695e+001	-2.000000e+002	0.000000e+000	-2.000000e+002	0.000000e+000
89148630.000	-3.230288e-002	-2.858175e+001	-4.990793e+001	6.756583e+001	-2.000000e+002	0.000000e+000	-2.000000e+002	0.000000e+000
89798620.000	-3.243744e-002	-2.878971e+001	-4.990725e+001	6.719406e+001	-2.000000e+002	0.000000e+000	-2.000000e+002	0.000000e+000
90448610.000	-3.253414e-002	-2.899647e+001	-4.981707e+001	6.701385e+001	-2.000000e+002	0.000000e+000	-2.000000e+002	0.000000e+000
91098600.000	-3.333626e-002	-2.920992e+001	-4.974646e+001	6.698945e+001	-2.000000e+002	0.000000e+000	-2.000000e+002	0.000000e+000
91748590.000	-3.276805e-002	-2.941772e+001	-4.963198e+001	6.701189e+001	-2.000000e+002	0.000000e+000	-2.000000e+002	0.000000e+000
92398580.000	-3.315292e-002	-2.962635e+001	-4.958583e+001	6.683710e+001	-2.000000e+002	0.000000e+000	-2.000000e+002	0.000000e+000
93048570.000	-3.311349e-002	-2.983468e+001	-4.953637e+001	6.646051e+001	-2.000000e+002	0.000000e+000	-2.000000e+002	0.000000e+000
93698560.000	-3.378655e-002	-3.004366e+001	-4.948638e+001	6.631608e+001	-2.000000e+002	0.000000e+000	-2.000000e+002	0.000000e+000
94348550.000	-3.391087e-002	-3.025029e+001	-4.941874e+001	6.580800e+001	-2.000000e+002	0.000000e+000	-2.000000e+002	0.000000e+000
94998540.000	-3.494829e-002	-3.046017e+001	-4.932667e+001	6.585311e+001	-2.000000e+002	0.000000e+000	-2.000000e+002	0.000000e+000
95648530.000	-3.537027e-002	-3.066675e+001	-4.932613e+001	6.583903e+001	-2.000000e+002	0.000000e+000	-2.000000e+002	0.000000e+000
96298520.000	-3.554336e-002	-3.086940e+001	-4.926298e+001	6.600800e+001	-2.000000e+002	0.000000e+000	-2.000000e+002	0.000000e+000
96948510.000	-3.611627e-002	-3.107556e+001	-4.914934e+001	6.604500e+001	-2.000000e+002	0.000000e+000	-2.000000e+002	0.000000e+000
97598500.000	-3.742314e-002	-3.128289e+001	-4.905019e+001	6.596529e+001	-2.000000e+002	0.000000e+000	-2.000000e+002	0.000000e+000
98248490.000	-3.657279e-002	-3.148527e+001	-4.899258e+001	6.597852e+001	-2.000000e+002	0.000000e+000	-2.000000e+002	0.000000e+000
98898480.000	-3.776609e-002	-3.169353e+001	-4.889847e+001	6.569393e+001	-2.000000e+002	0.000000e+000	-2.000000e+002	0.000000e+000
