!Keysight Technologies,E5063A,MY54503115,A.05.08
!Date: Mon Dec 11 13:41:56 2023
!Data & Calibration Information:
!Freq	S11:NONE(--)	S21:NONE(--)	S12:NONE(--)	S22:NONE(--)
# Hz S dB R 50
100000.000	4.940338e-002	-5.630315e-001	-8.860148e+001	3.658423e+001	-2.000000e+002	0.000000e+000	-2.000000e+002	0.000000e+000
749990.000	2.069315e-003	-5.688728e-001	-9.020260e+001	-1.127235e+002	-2.000000e+002	0.000000e+000	-2.000000e+002	0.000000e+000
1399980.000	3.294136e-003	-7.424660e-001	-8.702149e+001	1.479403e+002	-2.000000e+002	0.000000e+000	-2.000000e+002	0.000000e+000
2049970.000	3.328905e-003	-9.417252e-001	-8.427656e+001	1.418583e+002	-2.000000e+002	0.000000e+000	-2.000000e+002	0.000000e+000
2699960.000	3.027562e-003	-1.143391e+000	-8.809140e+001	1.441231e+002	-2.000000e+002	0.000000e+000	-2.000000e+002	0.000000e+000
3349950.000	3.666314e-003	-1.353004e+000	-7.358945e+001	1.044900e+002	-2.000000e+002	0.000000e+000	-2.000000e+002	0.000000e+000
3999940.000	2.908938e-003	-1.560028e+000	-8.005084e+001	7.354199e+001	-2.000000e+002	0.000000e+000	-2.000000e+002	0.000000e+000
4649930.000	3.771741e-003	-1.767542e+000	-7.932158e+001	1.011313e+002	-2.000000e+002	0.000000e+000	-2.000000e+002	0.000000e+000
5299920.000	3.606114e-003	-1.967927e+000	-7.729503e+001	1.012102e+002	-2.000000e+002	0.000000e+000	-2.000000e+002	0.000000e+000
5949910.000	2.393633e-003	-2.181296e+000	-7.435710e+001	9.633382e+001	-2.000000e+002	0.000000e+000	-2.000000e+002	0.000000e+000
6599900.000	2.935197e-003	-2.384127e+000	-7.480797e+001	7.470231e+001	-2.000000e+002	0.000000e+000	-2.000000e+002	0.000000e+000
7249890.000	2.585604e-003	-2.585892e+000	-7.265680e+001	1.045488e+002	-2.000000e+002	0.000000e+000	-2.000000e+002	0.000000e+000
7899880.000	1.782529e-003	-2.805685e+000	-7.244348e+001	8.895250e+001	-2.000000e+002	0.000000e+000	-2.000000e+002	0.000000e+000
8549870.000	5.057945e-003	-3.012865e+000	-7.249087e+001	8.996074e+001	-2.000000e+002	0.000000e+000	-2.000000e+002	0.000000e+000
9199860.000	3.842237e-003	-3.222618e+000	-7.185557e+001	8.441915e+001	-2.000000e+002	0.000000e+000	-2.000000e+002	0.000000e+000
9849850.000	3.994536e-003	-3.429835e+000	-7.222164e+001	8.583174e+001	-2.000000e+002	0.000000e+000	-2.000000e+002	0.000000e+000
10499840.000	2.708364e-003	-3.631197e+000	-7.147786e+001	8.747022e+001	-2.000000e+002	0.000000e+000	-2.000000e+002	0.000000e+000
11149830.000	6.588832e-004	-3.824106e+000	-7.045361e+001	8.998176e+001	-2.000000e+002	0.000000e+000	-2.000000e+002	0.000000e+000
11799820.000	5.930321e-004	-4.031901e+000	-7.070779e+001	8.883304e+001	-2.000000e+002	0.000000e+000	-2.000000e+002	0.000000e+000
12449810.000	1.319956e-003	-4.244779e+000	-6.962251e+001	8.647795e+001	-2.000000e+002	0.000000e+000	-2.000000e+002	0.000000e+000
13099800.000	3.199347e-003	-4.457894e+000	-6.934719e+001	8.642154e+001	-2.000000e+002	0.000000e+000	-2.000000e+002	0.000000e+000
13749790.000	2.200266e-003	-4.657925e+000	-6.907608e+001	8.712603e+001	-2.000000e+002	0.000000e+000	-2.000000e+002	0.000000e+000
14399780.000	1.341621e-003	-4.876065e+000	-6.837422e+001	8.633123e+001	-2.000000e+002	0.000000e+000	-2.000000e+002	0.000000e+000
15049770.000	8.007124e-004	-5.089035e+000	-6.833640e+001	8.632991e+001	-2.000000e+002	0.000000e+000	-2.000000e+002	0.000000e+000
15699760.000	3.136943e-003	-5.276345e+000	-6.815700e+001	8.604860e+001	-2.000000e+002	0.000000e+000	-2.000000e+002	0.000000e+000
16349750.000	2.733857e-003	-5.479788e+000	-6.792721e+001	8.657686e+001	-2.000000e+002	0.000000e+000	-2.000000e+002	0.000000e+000
16999740.000	1.173473e-003	-5.694873e+000	-6.726617e+001	8.550226e+001	-2.000000e+002	0.000000e+000	-2.000000e+002	0.000000e+000
17649730.000	8.071464e-003	-5.925389e+000	-6.695958e+001	8.651875e+001	-2.000000e+002	0.000000e+000	-2.000000e+002	0.000000e+000
18299720.000	1.178111e-002	-6.148826e+000	-6.686960e+001	8.575546e+001	-2.000000e+002	0.000000e+000	-2.000000e+002	0.000000e+000
18949710.000	1.002651e-002	-6.351595e+000	-6.680892e+001	8.496787e+001	-2.000000e+002	0.000000e+000	-2.000000e+002	0.000000e+000
19599700.000	5.292273e-003	-6.533720e+000	-6.646657e+001	8.615986e+001	-2.000000e+002	0.000000e+000	-2.000000e+002	0.000000e+000
20249690.000	1.011842e-003	-6.724553e+000	-6.655205e+001	8.676156e+001	-2.000000e+002	0.000000e+000	-2.000000e+002	0.000000e+000
20899680.000	-4.399332e-004	-6.966850e+000	-6.607586e+001	8.902601e+001	-2.000000e+002	0.000000e+000	-2.000000e+002	0.000000e+000
21549670.000	-1.092890e-003	-7.181464e+000	-6.613811e+001	9.003076e+001	-2.000000e+002	0.000000e+000	-2.000000e+002	0.000000e+000
22199660.000	-4.730828e-004	-7.378633e+000	-6.607570e+001	9.256641e+001	-2.000000e+002	0.000000e+000	-2.000000e+002	0.000000e+000
22849650.000	2.504336e-003	-7.555639e+000	-6.510102e+001	9.551265e+001	-2.000000e+002	0.000000e+000	-2.000000e+002	0.000000e+000
23499640.000	1.305032e-003	-7.759825e+000	-6.440277e+001	9.893459e+001	-2.000000e+002	0.000000e+000	-2.000000e+002	0.000000e+000
24149630.000	-7.917626e-004	-7.968121e+000	-6.346721e+001	9.605360e+001	-2.000000e+002	0.000000e+000	-2.000000e+002	0.000000e+000
24799620.000	5.222725e-004	-8.173247e+000	-6.287555e+001	9.298961e+001	-2.000000e+002	0.000000e+000	-2.000000e+002	0.000000e+000
25449610.000	2.445685e-003	-8.383995e+000	-6.286147e+001	9.065106e+001	-2.000000e+002	0.000000e+000	-2.000000e+002	0.000000e+000
26099600.000	1.629293e-003	-8.582667e+000	-6.250094e+001	9.074820e+001	-2.000000e+002	0.000000e+000	-2.000000e+002	0.000000e+000
26749590.000	8.662070e-004	-8.794668e+000	-6.236377e+001	9.085914e+001	-2.000000e+002	0.000000e+000	-2.000000e+002	0.000000e+000
27399580.000	3.970412e-004	-9.005234e+000	-6.201460e+001	9.022578e+001	-2.000000e+002	0.000000e+000	-2.000000e+002	0.000000e+000
28049570.000	1.215227e-003	-9.215583e+000	-6.178444e+001	8.800346e+001	-2.000000e+002	0.000000e+000	-2.000000e+002	0.000000e+000
28699560.000	7.722436e-004	-9.412920e+000	-6.147875e+001	8.659553e+001	-2.000000e+002	0.000000e+000	-2.000000e+002	0.000000e+000
29349550.000	6.260702e-004	-9.615616e+000	-6.136378e+001	8.544221e+001	-2.000000e+002	0.000000e+000	-2.000000e+002	0.000000e+000
29999540.000	7.779684e-004	-9.822013e+000	-6.127194e+001	8.355935e+001	-2.000000e+002	0.000000e+000	-2.000000e+002	0.000000e+000
30649530.000	5.071188e-004	-1.003314e+001	-6.107275e+001	8.370618e+001	-2.000000e+002	0.000000e+000	-2.000000e+002	0.000000e+000
31299520.000	1.501823e-003	-1.024674e+001	-6.105944e+001	8.348653e+001	-2.000000e+002	0.000000e+000	-2.000000e+002	0.000000e+000
31949510.000	8.711305e-004	-1.045482e+001	-6.096224e+001	8.265752e+001	-2.000000e+002	0.000000e+000	-2.000000e+002	0.000000e+000
32599500.000	-1.870237e-004	-1.066140e+001	-6.083478e+001	8.179796e+001	-2.000000e+002	0.000000e+000	-2.000000e+002	0.000000e+000
33249490.000	1.288916e-004	-1.086991e+001	-6.068840e+001	8.186457e+001	-2.000000e+002	0.000000e+000	-2.000000e+002	0.000000e+000
33899480.000	1.029226e-004	-1.108068e+001	-6.077304e+001	8.061615e+001	-2.000000e+002	0.000000e+000	-2.000000e+002	0.000000e+000
34549470.000	-5.388102e-004	-1.127767e+001	-6.050176e+001	8.095900e+001	-2.000000e+002	0.000000e+000	-2.000000e+002	0.000000e+000
35199460.000	-4.110099e-004	-1.147911e+001	-6.026000e+001	8.094827e+001	-2.000000e+002	0.000000e+000	-2.000000e+002	0.000000e+000
35849450.000	-6.185997e-004	-1.168388e+001	-6.009405e+001	8.005500e+001	-2.000000e+002	0.000000e+000	-2.000000e+002	0.000000e+000
36499440.000	-4.614394e-004	-1.189066e+001	-6.021756e+001	7.989138e+001	-2.000000e+002	0.000000e+000	-2.000000e+002	0.000000e+000
37149430.000	-1.053849e-003	-1.209913e+001	-6.005092e+001	8.022346e+001	-2.000000e+002	0.000000e+000	-2.000000e+002	0.000000e+000
37799420.000	-9.722707e-004	-1.230978e+001	-5.986676e+001	8.008857e+001	-2.000000e+002	0.000000e+000	-2.000000e+002	0.000000e+000
38449410.000	-1.216100e-003	-1.251905e+001	-5.975170e+001	7.918229e+001	-2.000000e+002	0.000000e+000	-2.000000e+002	0.000000e+000
39099400.000	-1.556419e-003	-1.272834e+001	-5.966050e+001	7.911745e+001	-2.000000e+002	0.000000e+000	-2.000000e+002	0.000000e+000
39749390.000	-2.407732e-003	-1.294110e+001	-5.968033e+001	7.912952e+001	-2.000000e+002	0.000000e+000	-2.000000e+002	0.000000e+000
40399380.000	-2.685191e-003	-1.315415e+001	-5.967175e+001	7.919609e+001	-2.000000e+002	0.000000e+000	-2.000000e+002	0.000000e+000
41049370.000	-2.526989e-003	-1.335582e+001	-5.946382e+001	7.909782e+001	-2.000000e+002	0.000000e+000	-2.000000e+002	0.000000e+000
41699360.000	-1.490946e-003	-1.356559e+001	-5.936004e+001	7.928606e+001	-2.000000e+002	0.000000e+000	-2.000000e+002	0.000000e+000
42349350.000	-1.114953e-003	-1.377030e+001	-5.933091e+001	7.880054e+001	-2.000000e+002	0.000000e+000	-2.000000e+002	0.000000e+000
42999340.000	-2.390507e-003	-1.397417e+001	-5.930936e+001	7.839493e+001	-2.000000e+002	0.000000e+000	-2.000000e+002	0.000000e+000
43649330.000	-2.049671e-003	-1.418293e+001	-5.928472e+001	7.850813e+001	-2.000000e+002	0.000000e+000	-2.000000e+002	0.000000e+000
44299320.000	-2.476456e-003	-1.439108e+001	-5.923489e+001	7.996285e+001	-2.000000e+002	0.000000e+000	-2.000000e+002	0.000000e+000
44949310.000	-2.527690e-003	-1.459983e+001	-5.907321e+001	7.979524e+001	-2.000000e+002	0.000000e+000	-2.000000e+002	0.000000e+000
45599300.000	-3.881755e-003	-1.481270e+001	-5.910416e+001	8.039243e+001	-2.000000e+002	0.000000e+000	-2.000000e+002	0.000000e+000
46249290.000	-4.178537e-003	-1.501877e+001	-5.890240e+001	8.071524e+001	-2.000000e+002	0.000000e+000	-2.000000e+002	0.000000e+000
46899280.000	-4.510381e-003	-1.522708e+001	-5.878582e+001	8.140327e+001	-2.000000e+002	0.000000e+000	-2.000000e+002	0.000000e+000
47549270.000	-5.619209e-003	-1.543437e+001	-5.861302e+001	8.041668e+001	-2.000000e+002	0.000000e+000	-2.000000e+002	0.000000e+000
48199260.000	-6.671349e-003	-1.563886e+001	-5.858135e+001	8.032888e+001	-2.000000e+002	0.000000e+000	-2.000000e+002	0.000000e+000
48849250.000	-7.587292e-003	-1.585038e+001	-5.850347e+001	8.052074e+001	-2.000000e+002	0.000000e+000	-2.000000e+002	0.000000e+000
49499240.000	-7.570867e-003	-1.605751e+001	-5.851767e+001	8.049022e+001	-2.000000e+002	0.000000e+000	-2.000000e+002	0.000000e+000
50149230.000	-7.829008e-003	-1.626618e+001	-5.853531e+001	8.125281e+001	-2.000000e+002	0.000000e+000	-2.000000e+002	0.000000e+000
50799220.000	-8.425592e-003	-1.647738e+001	-5.862072e+001	8.251836e+001	-2.000000e+002	0.000000e+000	-2.000000e+002	0.000000e+000
51449210.000	-7.910873e-003	-1.668614e+001	-5.842653e+001	8.421716e+001	-2.000000e+002	0.000000e+000	-2.000000e+002	0.000000e+000
52099200.000	-8.222394e-003	-1.689320e+001	-5.818029e+001	8.381336e+001	-2.000000e+002	0.000000e+000	-2.000000e+002	0.000000e+000
52749190.000	-8.339801e-003	-1.709908e+001	-5.809112e+001	8.391834e+001	-2.000000e+002	0.000000e+000	-2.000000e+002	0.000000e+000
53399180.000	-8.643324e-003	-1.730557e+001	-5.813292e+001	8.555458e+001	-2.000000e+002	0.000000e+000	-2.000000e+002	0.000000e+000
54049170.000	-9.429826e-003	-1.751624e+001	-5.804070e+001	8.730325e+001	-2.000000e+002	0.000000e+000	-2.000000e+002	0.000000e+000
54699160.000	-1.040370e-002	-1.772594e+001	-5.783595e+001	8.978943e+001	-2.000000e+002	0.000000e+000	-2.000000e+002	0.000000e+000
55349150.000	-1.127234e-002	-1.793379e+001	-5.750105e+001	9.140388e+001	-2.000000e+002	0.000000e+000	-2.000000e+002	0.000000e+000
55999140.000	-1.188725e-002	-1.814292e+001	-5.711529e+001	9.349600e+001	-2.000000e+002	0.000000e+000	-2.000000e+002	0.000000e+000
56649130.000	-1.340864e-002	-1.834461e+001	-5.654206e+001	9.404358e+001	-2.000000e+002	0.000000e+000	-2.000000e+002	0.000000e+000
57299120.000	-1.430457e-002	-1.854508e+001	-5.576904e+001	9.324887e+001	-2.000000e+002	0.000000e+000	-2.000000e+002	0.000000e+000
57949110.000	-1.442349e-002	-1.874669e+001	-5.522286e+001	9.001251e+001	-2.000000e+002	0.000000e+000	-2.000000e+002	0.000000e+000
58599100.000	-1.374481e-002	-1.894867e+001	-5.507931e+001	8.729941e+001	-2.000000e+002	0.000000e+000	-2.000000e+002	0.000000e+000
59249090.000	-1.439283e-002	-1.915236e+001	-5.494682e+001	8.511779e+001	-2.000000e+002	0.000000e+000	-2.000000e+002	0.000000e+000
59899080.000	-1.348858e-002	-1.935918e+001	-5.499406e+001	8.309384e+001	-2.000000e+002	0.000000e+000	-2.000000e+002	0.000000e+000
60549070.000	-1.424417e-002	-1.956783e+001	-5.511196e+001	8.258954e+001	-2.000000e+002	0.000000e+000	-2.000000e+002	0.000000e+000
61199060.000	-1.578380e-002	-1.977163e+001	-5.509816e+001	8.204565e+001	-2.000000e+002	0.000000e+000	-2.000000e+002	0.000000e+000
61849050.000	-1.571606e-002	-1.998042e+001	-5.517330e+001	8.089597e+001	-2.000000e+002	0.000000e+000	-2.000000e+002	0.000000e+000
62499040.000	-1.656038e-002	-2.018338e+001	-5.525442e+001	8.089695e+001	-2.000000e+002	0.000000e+000	-2.000000e+002	0.000000e+000
63149030.000	-1.703456e-002	-2.039156e+001	-5.530363e+001	8.208623e+001	-2.000000e+002	0.000000e+000	-2.000000e+002	0.000000e+000
63799020.000	-1.827169e-002	-2.059637e+001	-5.516080e+001	8.304525e+001	-2.000000e+002	0.000000e+000	-2.000000e+002	0.000000e+000
64449010.000	-1.902182e-002	-2.080269e+001	-5.497645e+001	8.416602e+001	-2.000000e+002	0.000000e+000	-2.000000e+002	0.000000e+000
65099000.000	-2.006527e-002	-2.100094e+001	-5.463681e+001	8.466462e+001	-2.000000e+002	0.000000e+000	-2.000000e+002	0.000000e+000
65748990.000	-2.018292e-002	-2.120682e+001	-5.430777e+001	8.406786e+001	-2.000000e+002	0.000000e+000	-2.000000e+002	0.000000e+000
66398980.000	-2.060314e-002	-2.141225e+001	-5.400883e+001	8.289601e+001	-2.000000e+002	0.000000e+000	-2.000000e+002	0.000000e+000
67048970.000	-1.991895e-002	-2.161529e+001	-5.389669e+001	8.092299e+001	-2.000000e+002	0.000000e+000	-2.000000e+002	0.000000e+000
67698960.000	-2.077226e-002	-2.182187e+001	-5.384753e+001	7.978700e+001	-2.000000e+002	0.000000e+000	-2.000000e+002	0.000000e+000
68348950.000	-2.101754e-002	-2.202667e+001	-5.388229e+001	7.858800e+001	-2.000000e+002	0.000000e+000	-2.000000e+002	0.000000e+000
68998940.000	-2.132149e-002	-2.223314e+001	-5.386973e+001	7.784606e+001	-2.000000e+002	0.000000e+000	-2.000000e+002	0.000000e+000
69648930.000	-2.114343e-002	-2.243897e+001	-5.380267e+001	7.751592e+001	-2.000000e+002	0.000000e+000	-2.000000e+002	0.000000e+000
70298920.000	-2.090626e-002	-2.265250e+001	-5.390804e+001	7.650419e+001	-2.000000e+002	0.000000e+000	-2.000000e+002	0.000000e+000
70948910.000	-2.143044e-002	-2.286227e+001	-5.399437e+001	7.650076e+001	-2.000000e+002	0.000000e+000	-2.000000e+002	0.000000e+000
71598900.000	-2.139340e-002	-2.306936e+001	-5.403690e+001	7.617248e+001	-2.000000e+002	0.000000e+000	-2.000000e+002	0.000000e+000
72248890.000	-2.246219e-002	-2.327779e+001	-5.401715e+001	7.671470e+001	-2.000000e+002	0.000000e+000	-2.000000e+002	0.000000e+000
72898880.000	-2.237055e-002	-2.348494e+001	-5.407141e+001	7.697063e+001	-2.000000e+002	0.000000e+000	-2.000000e+002	0.000000e+000
73548870.000	-2.251771e-002	-2.369783e+001	-5.399487e+001	7.674216e+001	-2.000000e+002	0.000000e+000	-2.000000e+002	0.000000e+000
74198860.000	-2.302065e-002	-2.390004e+001	-5.400265e+001	7.715815e+001	-2.000000e+002	0.000000e+000	-2.000000e+002	0.000000e+000
74848850.000	-2.367682e-002	-2.410928e+001	-5.396898e+001	7.760389e+001	-2.000000e+002	0.000000e+000	-2.000000e+002	0.000000e+000
75498840.000	-2.409441e-002	-2.431712e+001	-5.399008e+001	7.771212e+001	-2.000000e+002	0.000000e+000	-2.000000e+002	0.000000e+000
76148830.000	-2.473703e-002	-2.452614e+001	-5.400364e+001	7.796592e+001	-2.000000e+002	0.000000e+000	-2.000000e+002	0.000000e+000
76798820.000	-2.476039e-002	-2.473200e+001	-5.395682e+001	7.851177e+001	-2.000000e+002	0.000000e+000	-2.000000e+002	0.000000e+000
77448810.000	-2.646343e-002	-2.493703e+001	-5.398929e+001	7.863182e+001	-2.000000e+002	0.000000e+000	-2.000000e+002	0.000000e+000
78098800.000	-2.770160e-002	-2.514452e+001	-5.381295e+001	7.983380e+001	-2.000000e+002	0.000000e+000	-2.000000e+002	0.000000e+000
78748790.000	-2.797128e-002	-2.535144e+001	-5.384687e+001	8.041391e+001	-2.000000e+002	0.000000e+000	-2.000000e+002	0.000000e+000
79398780.000	-2.830285e-002	-2.555652e+001	-5.374145e+001	8.163170e+001	-2.000000e+002	0.000000e+000	-2.000000e+002	0.000000e+000
80048770.000	-2.884614e-002	-2.577232e+001	-5.365546e+001	8.273043e+001	-2.000000e+002	0.000000e+000	-2.000000e+002	0.000000e+000
80698760.000	-2.993631e-002	-2.597988e+001	-5.343637e+001	8.354893e+001	-2.000000e+002	0.000000e+000	-2.000000e+002	0.000000e+000
81348750.000	-3.030639e-002	-2.618255e+001	-5.325799e+001	8.427811e+001	-2.000000e+002	0.000000e+000	-2.000000e+002	0.000000e+000
81998740.000	-3.096867e-002	-2.638793e+001	-5.303277e+001	8.487699e+001	-2.000000e+002	0.000000e+000	-2.000000e+002	0.000000e+000
82648730.000	-3.216013e-002	-2.659150e+001	-5.276305e+001	8.440188e+001	-2.000000e+002	0.000000e+000	-2.000000e+002	0.000000e+000
83298720.000	-3.256701e-002	-2.680129e+001	-5.260663e+001	8.531368e+001	-2.000000e+002	0.000000e+000	-2.000000e+002	0.000000e+000
83948710.000	-3.342525e-002	-2.700803e+001	-5.235704e+001	8.562810e+001	-2.000000e+002	0.000000e+000	-2.000000e+002	0.000000e+000
84598700.000	-3.404090e-002	-2.721005e+001	-5.194301e+001	8.571199e+001	-2.000000e+002	0.000000e+000	-2.000000e+002	0.000000e+000
85248690.000	-3.456024e-002	-2.741469e+001	-5.153806e+001	8.484088e+001	-2.000000e+002	0.000000e+000	-2.000000e+002	0.000000e+000
85898680.000	-3.505639e-002	-2.761744e+001	-5.140412e+001	8.249234e+001	-2.000000e+002	0.000000e+000	-2.000000e+002	0.000000e+000
86548670.000	-3.453169e-002	-2.782223e+001	-5.128848e+001	8.058924e+001	-2.000000e+002	0.000000e+000	-2.000000e+002	0.000000e+000
87198660.000	-3.389675e-002	-2.802755e+001	-5.132617e+001	7.930339e+001	-2.000000e+002	0.000000e+000	-2.000000e+002	0.000000e+000
87848650.000	-3.448053e-002	-2.823281e+001	-5.134655e+001	7.834103e+001	-2.000000e+002	0.000000e+000	-2.000000e+002	0.000000e+000
88498640.000	-3.433143e-002	-2.843959e+001	-5.144296e+001	7.757212e+001	-2.000000e+002	0.000000e+000	-2.000000e+002	0.000000e+000
89148630.000	-3.551304e-002	-2.865075e+001	-5.156174e+001	7.737246e+001	-2.000000e+002	0.000000e+000	-2.000000e+002	0.000000e+000
89798620.000	-3.554655e-002	-2.886145e+001	-5.164176e+001	7.745123e+001	-2.000000e+002	0.000000e+000	-2.000000e+002	0.000000e+000
90448610.000	-3.540505e-002	-2.907107e+001	-5.171024e+001	7.849584e+001	-2.000000e+002	0.000000e+000	-2.000000e+002	0.000000e+000
91098600.000	-3.764899e-002	-2.928514e+001	-5.163715e+001	7.946077e+001	-2.000000e+002	0.000000e+000	-2.000000e+002	0.000000e+000
91748590.000	-3.741353e-002	-2.949092e+001	-5.157654e+001	7.849740e+001	-2.000000e+002	0.000000e+000	-2.000000e+002	0.000000e+000
92398580.000	-3.757449e-002	-2.970088e+001	-5.133918e+001	8.066887e+001	-2.000000e+002	0.000000e+000	-2.000000e+002	0.000000e+000
93048570.000	-3.783856e-002	-2.990906e+001	-5.125987e+001	8.024989e+001	-2.000000e+002	0.000000e+000	-2.000000e+002	0.000000e+000
93698560.000	-3.887553e-002	-3.012027e+001	-5.105771e+001	8.055851e+001	-2.000000e+002	0.000000e+000	-2.000000e+002	0.000000e+000
94348550.000	-3.905031e-002	-3.032946e+001	-5.096732e+001	8.056943e+001	-2.000000e+002	0.000000e+000	-2.000000e+002	0.000000e+000
94998540.000	-4.115492e-002	-3.053894e+001	-5.093272e+001	8.181842e+001	-2.000000e+002	0.000000e+000	-2.000000e+002	0.000000e+000
95648530.000	-4.173037e-002	-3.074266e+001	-5.065005e+001	8.173677e+001	-2.000000e+002	0.000000e+000	-2.000000e+002	0.000000e+000
96298520.000	-4.182264e-002	-3.094064e+001	-5.036921e+001	8.218544e+001	-2.000000e+002	0.000000e+000	-2.000000e+002	0.000000e+000
96948510.000	-4.279849e-002	-3.114418e+001	-5.003644e+001	8.127033e+001	-2.000000e+002	0.000000e+000	-2.000000e+002	0.000000e+000
97598500.000	-4.301412e-002	-3.134332e+001	-4.982498e+001	7.941348e+001	-2.000000e+002	0.000000e+000	-2.000000e+002	0.000000e+000
98248490.000	-4.207043e-002	-3.154664e+001	-4.983399e+001	7.849789e+001	-2.000000e+002	0.000000e+000	-2.000000e+002	0.000000e+000
