!Keysight Technologies,E5063A,MY54503115,A.05.08
!Date: Mon Dec 11 13:49:14 2023
!Data & Calibration Information:
!Freq	S11:NONE(--)	S21:NONE(--)	S12:NONE(--)	S22:NONE(--)
# Hz S dB R 50
100000.000	4.856177e-002	-5.736368e-001	-9.279602e+001	-1.072027e+002	-2.000000e+002	0.000000e+000	-2.000000e+002	0.000000e+000
749990.000	1.208513e-003	-5.763482e-001	-8.488448e+001	-3.152605e+001	-2.000000e+002	0.000000e+000	-2.000000e+002	0.000000e+000
1399980.000	1.534027e-003	-7.553888e-001	-8.289599e+001	1.307643e+002	-2.000000e+002	0.000000e+000	-2.000000e+002	0.000000e+000
2049970.000	1.688945e-003	-9.419538e-001	-7.867886e+001	1.252119e+002	-2.000000e+002	0.000000e+000	-2.000000e+002	0.000000e+000
2699960.000	5.754408e-004	-1.145888e+000	-8.447042e+001	1.140158e+002	-2.000000e+002	0.000000e+000	-2.000000e+002	0.000000e+000
3349950.000	2.493036e-003	-1.362532e+000	-7.727171e+001	1.052160e+002	-2.000000e+002	0.000000e+000	-2.000000e+002	0.000000e+000
3999940.000	1.918766e-003	-1.560334e+000	-7.610245e+001	9.745041e+001	-2.000000e+002	0.000000e+000	-2.000000e+002	0.000000e+000
4649930.000	2.494802e-003	-1.771307e+000	-7.834608e+001	8.802521e+001	-2.000000e+002	0.000000e+000	-2.000000e+002	0.000000e+000
5299920.000	6.098756e-004	-1.963956e+000	-7.653741e+001	9.330360e+001	-2.000000e+002	0.000000e+000	-2.000000e+002	0.000000e+000
5949910.000	-3.026993e-004	-2.182405e+000	-7.747728e+001	8.151417e+001	-2.000000e+002	0.000000e+000	-2.000000e+002	0.000000e+000
6599900.000	3.870672e-004	-2.380485e+000	-7.436314e+001	9.724807e+001	-2.000000e+002	0.000000e+000	-2.000000e+002	0.000000e+000
7249890.000	1.759755e-003	-2.592926e+000	-7.272792e+001	9.079773e+001	-2.000000e+002	0.000000e+000	-2.000000e+002	0.000000e+000
7899880.000	3.976595e-004	-2.800745e+000	-7.255152e+001	8.999075e+001	-2.000000e+002	0.000000e+000	-2.000000e+002	0.000000e+000
8549870.000	3.486253e-003	-3.015932e+000	-7.133627e+001	8.750698e+001	-2.000000e+002	0.000000e+000	-2.000000e+002	0.000000e+000
9199860.000	2.555807e-003	-3.222332e+000	-7.075896e+001	8.555785e+001	-2.000000e+002	0.000000e+000	-2.000000e+002	0.000000e+000
9849850.000	2.863963e-003	-3.434124e+000	-7.051781e+001	8.659290e+001	-2.000000e+002	0.000000e+000	-2.000000e+002	0.000000e+000
10499840.000	1.296648e-003	-3.629644e+000	-6.973331e+001	8.535205e+001	-2.000000e+002	0.000000e+000	-2.000000e+002	0.000000e+000
11149830.000	-5.821826e-004	-3.827304e+000	-6.952324e+001	8.774703e+001	-2.000000e+002	0.000000e+000	-2.000000e+002	0.000000e+000
11799820.000	-6.614332e-004	-4.029065e+000	-6.938413e+001	8.656304e+001	-2.000000e+002	0.000000e+000	-2.000000e+002	0.000000e+000
12449810.000	3.601078e-004	-4.243601e+000	-6.875549e+001	8.574149e+001	-2.000000e+002	0.000000e+000	-2.000000e+002	0.000000e+000
13099800.000	1.306768e-003	-4.456746e+000	-6.807843e+001	8.678261e+001	-2.000000e+002	0.000000e+000	-2.000000e+002	0.000000e+000
13749790.000	1.049830e-003	-4.660371e+000	-6.767204e+001	8.716759e+001	-2.000000e+002	0.000000e+000	-2.000000e+002	0.000000e+000
14399780.000	-4.519375e-005	-4.869242e+000	-6.723193e+001	8.571546e+001	-2.000000e+002	0.000000e+000	-2.000000e+002	0.000000e+000
15049770.000	-5.550450e-005	-5.087652e+000	-6.694018e+001	8.467793e+001	-2.000000e+002	0.000000e+000	-2.000000e+002	0.000000e+000
15699760.000	1.754442e-003	-5.272180e+000	-6.657249e+001	8.551516e+001	-2.000000e+002	0.000000e+000	-2.000000e+002	0.000000e+000
16349750.000	2.358090e-003	-5.472894e+000	-6.613120e+001	8.530585e+001	-2.000000e+002	0.000000e+000	-2.000000e+002	0.000000e+000
16999740.000	5.096911e-005	-5.692252e+000	-6.596950e+001	8.554263e+001	-2.000000e+002	0.000000e+000	-2.000000e+002	0.000000e+000
17649730.000	6.745467e-003	-5.921380e+000	-6.547568e+001	8.666180e+001	-2.000000e+002	0.000000e+000	-2.000000e+002	0.000000e+000
18299720.000	9.867537e-003	-6.140358e+000	-6.542268e+001	8.453603e+001	-2.000000e+002	0.000000e+000	-2.000000e+002	0.000000e+000
18949710.000	8.973420e-003	-6.346981e+000	-6.510990e+001	8.521644e+001	-2.000000e+002	0.000000e+000	-2.000000e+002	0.000000e+000
19599700.000	3.421210e-003	-6.528457e+000	-6.498625e+001	8.677725e+001	-2.000000e+002	0.000000e+000	-2.000000e+002	0.000000e+000
20249690.000	-2.234233e-004	-6.715657e+000	-6.474225e+001	8.514242e+001	-2.000000e+002	0.000000e+000	-2.000000e+002	0.000000e+000
20899680.000	-2.114613e-003	-6.957550e+000	-6.441349e+001	8.539006e+001	-2.000000e+002	0.000000e+000	-2.000000e+002	0.000000e+000
21549670.000	-2.666022e-003	-7.175105e+000	-6.442896e+001	8.681241e+001	-2.000000e+002	0.000000e+000	-2.000000e+002	0.000000e+000
22199660.000	-1.613283e-003	-7.367612e+000	-6.424289e+001	8.795601e+001	-2.000000e+002	0.000000e+000	-2.000000e+002	0.000000e+000
22849650.000	2.022345e-003	-7.545386e+000	-6.400063e+001	9.093311e+001	-2.000000e+002	0.000000e+000	-2.000000e+002	0.000000e+000
23499640.000	2.640259e-004	-7.749370e+000	-6.344032e+001	9.266425e+001	-2.000000e+002	0.000000e+000	-2.000000e+002	0.000000e+000
24149630.000	-1.504926e-003	-7.960948e+000	-6.256802e+001	9.232368e+001	-2.000000e+002	0.000000e+000	-2.000000e+002	0.000000e+000
24799620.000	-1.084538e-003	-8.165345e+000	-6.210834e+001	9.181862e+001	-2.000000e+002	0.000000e+000	-2.000000e+002	0.000000e+000
25449610.000	1.582296e-003	-8.374388e+000	-6.179318e+001	8.926711e+001	-2.000000e+002	0.000000e+000	-2.000000e+002	0.000000e+000
26099600.000	1.255327e-003	-8.572498e+000	-6.158262e+001	8.842434e+001	-2.000000e+002	0.000000e+000	-2.000000e+002	0.000000e+000
26749590.000	5.613867e-006	-8.784145e+000	-6.133042e+001	8.815440e+001	-2.000000e+002	0.000000e+000	-2.000000e+002	0.000000e+000
27399580.000	-5.436847e-004	-8.995152e+000	-6.101125e+001	8.734961e+001	-2.000000e+002	0.000000e+000	-2.000000e+002	0.000000e+000
28049570.000	6.672663e-004	-9.204818e+000	-6.054603e+001	8.701386e+001	-2.000000e+002	0.000000e+000	-2.000000e+002	0.000000e+000
28699560.000	-2.439440e-004	-9.399202e+000	-6.055275e+001	8.507113e+001	-2.000000e+002	0.000000e+000	-2.000000e+002	0.000000e+000
29349550.000	2.365471e-004	-9.604185e+000	-6.017482e+001	8.487510e+001	-2.000000e+002	0.000000e+000	-2.000000e+002	0.000000e+000
29999540.000	-2.022277e-004	-9.810595e+000	-6.016832e+001	8.415775e+001	-2.000000e+002	0.000000e+000	-2.000000e+002	0.000000e+000
30649530.000	-2.109816e-004	-1.002334e+001	-6.008223e+001	8.273437e+001	-2.000000e+002	0.000000e+000	-2.000000e+002	0.000000e+000
31299520.000	-3.885718e-004	-1.023893e+001	-5.991479e+001	8.247171e+001	-2.000000e+002	0.000000e+000	-2.000000e+002	0.000000e+000
31949510.000	-1.754070e-004	-1.044148e+001	-5.971147e+001	8.259394e+001	-2.000000e+002	0.000000e+000	-2.000000e+002	0.000000e+000
32599500.000	-1.091747e-003	-1.064840e+001	-5.965538e+001	8.182964e+001	-2.000000e+002	0.000000e+000	-2.000000e+002	0.000000e+000
33249490.000	-7.257301e-004	-1.085673e+001	-5.973852e+001	8.193992e+001	-2.000000e+002	0.000000e+000	-2.000000e+002	0.000000e+000
33899480.000	-8.733968e-004	-1.107104e+001	-5.934911e+001	8.175098e+001	-2.000000e+002	0.000000e+000	-2.000000e+002	0.000000e+000
34549470.000	-1.448298e-003	-1.126642e+001	-5.924116e+001	8.168192e+001	-2.000000e+002	0.000000e+000	-2.000000e+002	0.000000e+000
35199460.000	-1.255607e-003	-1.146680e+001	-5.903663e+001	8.111086e+001	-2.000000e+002	0.000000e+000	-2.000000e+002	0.000000e+000
35849450.000	-1.305027e-003	-1.167046e+001	-5.897491e+001	8.117624e+001	-2.000000e+002	0.000000e+000	-2.000000e+002	0.000000e+000
36499440.000	-1.916020e-003	-1.187922e+001	-5.875337e+001	8.060380e+001	-2.000000e+002	0.000000e+000	-2.000000e+002	0.000000e+000
37149430.000	-2.132183e-003	-1.208415e+001	-5.864960e+001	7.991778e+001	-2.000000e+002	0.000000e+000	-2.000000e+002	0.000000e+000
37799420.000	-2.356332e-003	-1.229501e+001	-5.845232e+001	7.963607e+001	-2.000000e+002	0.000000e+000	-2.000000e+002	0.000000e+000
38449410.000	-2.080049e-003	-1.250565e+001	-5.842229e+001	8.002193e+001	-2.000000e+002	0.000000e+000	-2.000000e+002	0.000000e+000
39099400.000	-2.534207e-003	-1.271342e+001	-5.826087e+001	7.851872e+001	-2.000000e+002	0.000000e+000	-2.000000e+002	0.000000e+000
39749390.000	-3.460170e-003	-1.292759e+001	-5.814241e+001	7.917653e+001	-2.000000e+002	0.000000e+000	-2.000000e+002	0.000000e+000
40399380.000	-3.400196e-003	-1.313518e+001	-5.799716e+001	7.868326e+001	-2.000000e+002	0.000000e+000	-2.000000e+002	0.000000e+000
41049370.000	-3.335095e-003	-1.334029e+001	-5.788246e+001	7.904684e+001	-2.000000e+002	0.000000e+000	-2.000000e+002	0.000000e+000
41699360.000	-1.921811e-003	-1.354774e+001	-5.778629e+001	7.869278e+001	-2.000000e+002	0.000000e+000	-2.000000e+002	0.000000e+000
42349350.000	-2.212602e-003	-1.375231e+001	-5.777652e+001	7.838234e+001	-2.000000e+002	0.000000e+000	-2.000000e+002	0.000000e+000
42999340.000	-3.447478e-003	-1.395587e+001	-5.747632e+001	7.782900e+001	-2.000000e+002	0.000000e+000	-2.000000e+002	0.000000e+000
43649330.000	-2.594266e-003	-1.416221e+001	-5.747605e+001	7.811839e+001	-2.000000e+002	0.000000e+000	-2.000000e+002	0.000000e+000
44299320.000	-3.396872e-003	-1.436945e+001	-5.741939e+001	7.796687e+001	-2.000000e+002	0.000000e+000	-2.000000e+002	0.000000e+000
44949310.000	-3.419173e-003	-1.458057e+001	-5.729492e+001	7.757088e+001	-2.000000e+002	0.000000e+000	-2.000000e+002	0.000000e+000
45599300.000	-4.068280e-003	-1.478955e+001	-5.725737e+001	7.789024e+001	-2.000000e+002	0.000000e+000	-2.000000e+002	0.000000e+000
46249290.000	-4.588556e-003	-1.499842e+001	-5.719351e+001	7.733212e+001	-2.000000e+002	0.000000e+000	-2.000000e+002	0.000000e+000
46899280.000	-4.490031e-003	-1.520364e+001	-5.707969e+001	7.647881e+001	-2.000000e+002	0.000000e+000	-2.000000e+002	0.000000e+000
47549270.000	-6.606826e-003	-1.541274e+001	-5.710049e+001	7.703933e+001	-2.000000e+002	0.000000e+000	-2.000000e+002	0.000000e+000
48199260.000	-6.900679e-003	-1.562108e+001	-5.697641e+001	7.729552e+001	-2.000000e+002	0.000000e+000	-2.000000e+002	0.000000e+000
48849250.000	-8.076293e-003	-1.582934e+001	-5.685109e+001	7.759244e+001	-2.000000e+002	0.000000e+000	-2.000000e+002	0.000000e+000
49499240.000	-8.187690e-003	-1.603484e+001	-5.692007e+001	7.728106e+001	-2.000000e+002	0.000000e+000	-2.000000e+002	0.000000e+000
50149230.000	-8.253388e-003	-1.624575e+001	-5.685280e+001	7.765843e+001	-2.000000e+002	0.000000e+000	-2.000000e+002	0.000000e+000
50799220.000	-8.524293e-003	-1.645501e+001	-5.680305e+001	7.811851e+001	-2.000000e+002	0.000000e+000	-2.000000e+002	0.000000e+000
51449210.000	-8.106520e-003	-1.666468e+001	-5.679550e+001	7.918370e+001	-2.000000e+002	0.000000e+000	-2.000000e+002	0.000000e+000
52099200.000	-8.331505e-003	-1.687133e+001	-5.671643e+001	7.999334e+001	-2.000000e+002	0.000000e+000	-2.000000e+002	0.000000e+000
52749190.000	-8.721353e-003	-1.707869e+001	-5.665042e+001	8.061273e+001	-2.000000e+002	0.000000e+000	-2.000000e+002	0.000000e+000
53399180.000	-9.651691e-003	-1.728548e+001	-5.651450e+001	8.249164e+001	-2.000000e+002	0.000000e+000	-2.000000e+002	0.000000e+000
54049170.000	-9.831706e-003	-1.749411e+001	-5.631592e+001	8.426249e+001	-2.000000e+002	0.000000e+000	-2.000000e+002	0.000000e+000
54699160.000	-1.092565e-002	-1.769747e+001	-5.591077e+001	8.567834e+001	-2.000000e+002	0.000000e+000	-2.000000e+002	0.000000e+000
55349150.000	-1.152891e-002	-1.790636e+001	-5.541594e+001	8.534101e+001	-2.000000e+002	0.000000e+000	-2.000000e+002	0.000000e+000
55999140.000	-1.175452e-002	-1.810902e+001	-5.510665e+001	8.480957e+001	-2.000000e+002	0.000000e+000	-2.000000e+002	0.000000e+000
56649130.000	-1.297784e-002	-1.831549e+001	-5.483616e+001	8.423223e+001	-2.000000e+002	0.000000e+000	-2.000000e+002	0.000000e+000
57299120.000	-1.363861e-002	-1.851971e+001	-5.448530e+001	8.347303e+001	-2.000000e+002	0.000000e+000	-2.000000e+002	0.000000e+000
57949110.000	-1.356454e-002	-1.872221e+001	-5.421800e+001	8.157912e+001	-2.000000e+002	0.000000e+000	-2.000000e+002	0.000000e+000
58599100.000	-1.269908e-002	-1.892402e+001	-5.412256e+001	8.006887e+001	-2.000000e+002	0.000000e+000	-2.000000e+002	0.000000e+000
59249090.000	-1.317795e-002	-1.913203e+001	-5.396274e+001	7.888397e+001	-2.000000e+002	0.000000e+000	-2.000000e+002	0.000000e+000
59899080.000	-1.345523e-002	-1.933760e+001	-5.393141e+001	7.818333e+001	-2.000000e+002	0.000000e+000	-2.000000e+002	0.000000e+000
60549070.000	-1.432081e-002	-1.954269e+001	-5.394443e+001	7.710992e+001	-2.000000e+002	0.000000e+000	-2.000000e+002	0.000000e+000
61199060.000	-1.536057e-002	-1.974789e+001	-5.383716e+001	7.637269e+001	-2.000000e+002	0.000000e+000	-2.000000e+002	0.000000e+000
61849050.000	-1.492886e-002	-1.995374e+001	-5.386961e+001	7.587323e+001	-2.000000e+002	0.000000e+000	-2.000000e+002	0.000000e+000
62499040.000	-1.573967e-002	-2.015817e+001	-5.383234e+001	7.556083e+001	-2.000000e+002	0.000000e+000	-2.000000e+002	0.000000e+000
63149030.000	-1.626752e-002	-2.036124e+001	-5.379714e+001	7.542386e+001	-2.000000e+002	0.000000e+000	-2.000000e+002	0.000000e+000
63799020.000	-1.720037e-002	-2.056652e+001	-5.379297e+001	7.562649e+001	-2.000000e+002	0.000000e+000	-2.000000e+002	0.000000e+000
64449010.000	-1.803344e-002	-2.077480e+001	-5.364466e+001	7.569681e+001	-2.000000e+002	0.000000e+000	-2.000000e+002	0.000000e+000
65099000.000	-1.878534e-002	-2.097857e+001	-5.355632e+001	7.552571e+001	-2.000000e+002	0.000000e+000	-2.000000e+002	0.000000e+000
65748990.000	-1.827794e-002	-2.118364e+001	-5.349902e+001	7.522405e+001	-2.000000e+002	0.000000e+000	-2.000000e+002	0.000000e+000
66398980.000	-1.910599e-002	-2.138850e+001	-5.339001e+001	7.491718e+001	-2.000000e+002	0.000000e+000	-2.000000e+002	0.000000e+000
67048970.000	-1.913215e-002	-2.159468e+001	-5.329489e+001	7.454172e+001	-2.000000e+002	0.000000e+000	-2.000000e+002	0.000000e+000
67698960.000	-1.976020e-002	-2.180073e+001	-5.325295e+001	7.355329e+001	-2.000000e+002	0.000000e+000	-2.000000e+002	0.000000e+000
68348950.000	-1.999084e-002	-2.200291e+001	-5.322183e+001	7.352443e+001	-2.000000e+002	0.000000e+000	-2.000000e+002	0.000000e+000
68998940.000	-2.041481e-002	-2.221218e+001	-5.321268e+001	7.315211e+001	-2.000000e+002	0.000000e+000	-2.000000e+002	0.000000e+000
69648930.000	-2.054041e-002	-2.241675e+001	-5.317132e+001	7.303685e+001	-2.000000e+002	0.000000e+000	-2.000000e+002	0.000000e+000
70298920.000	-2.069976e-002	-2.262957e+001	-5.313354e+001	7.260381e+001	-2.000000e+002	0.000000e+000	-2.000000e+002	0.000000e+000
70948910.000	-2.171210e-002	-2.284264e+001	-5.314645e+001	7.275015e+001	-2.000000e+002	0.000000e+000	-2.000000e+002	0.000000e+000
71598900.000	-2.102409e-002	-2.304499e+001	-5.306604e+001	7.321018e+001	-2.000000e+002	0.000000e+000	-2.000000e+002	0.000000e+000
72248890.000	-2.207798e-002	-2.325428e+001	-5.303479e+001	7.300494e+001	-2.000000e+002	0.000000e+000	-2.000000e+002	0.000000e+000
72898880.000	-2.229224e-002	-2.345873e+001	-5.301864e+001	7.317882e+001	-2.000000e+002	0.000000e+000	-2.000000e+002	0.000000e+000
73548870.000	-2.296821e-002	-2.366648e+001	-5.293643e+001	7.351478e+001	-2.000000e+002	0.000000e+000	-2.000000e+002	0.000000e+000
74198860.000	-2.337152e-002	-2.387415e+001	-5.285963e+001	7.329584e+001	-2.000000e+002	0.000000e+000	-2.000000e+002	0.000000e+000
74848850.000	-2.392643e-002	-2.408042e+001	-5.279686e+001	7.378414e+001	-2.000000e+002	0.000000e+000	-2.000000e+002	0.000000e+000
75498840.000	-2.400380e-002	-2.428702e+001	-5.273610e+001	7.370217e+001	-2.000000e+002	0.000000e+000	-2.000000e+002	0.000000e+000
76148830.000	-2.461162e-002	-2.449664e+001	-5.269375e+001	7.360775e+001	-2.000000e+002	0.000000e+000	-2.000000e+002	0.000000e+000
76798820.000	-2.448593e-002	-2.470219e+001	-5.265710e+001	7.364296e+001	-2.000000e+002	0.000000e+000	-2.000000e+002	0.000000e+000
77448810.000	-2.611861e-002	-2.490296e+001	-5.259868e+001	7.412782e+001	-2.000000e+002	0.000000e+000	-2.000000e+002	0.000000e+000
78098800.000	-2.720362e-002	-2.510770e+001	-5.257318e+001	7.451170e+001	-2.000000e+002	0.000000e+000	-2.000000e+002	0.000000e+000
78748790.000	-2.769981e-002	-2.531513e+001	-5.244670e+001	7.510950e+001	-2.000000e+002	0.000000e+000	-2.000000e+002	0.000000e+000
79398780.000	-2.744744e-002	-2.552159e+001	-5.236266e+001	7.546124e+001	-2.000000e+002	0.000000e+000	-2.000000e+002	0.000000e+000
80048770.000	-2.785088e-002	-2.573659e+001	-5.230119e+001	7.597083e+001	-2.000000e+002	0.000000e+000	-2.000000e+002	0.000000e+000
80698760.000	-2.860120e-002	-2.594291e+001	-5.213490e+001	7.655272e+001	-2.000000e+002	0.000000e+000	-2.000000e+002	0.000000e+000
81348750.000	-2.924625e-002	-2.614837e+001	-5.201144e+001	7.712862e+001	-2.000000e+002	0.000000e+000	-2.000000e+002	0.000000e+000
81998740.000	-2.966937e-002	-2.635331e+001	-5.177400e+001	7.743075e+001	-2.000000e+002	0.000000e+000	-2.000000e+002	0.000000e+000
82648730.000	-3.043454e-002	-2.655502e+001	-5.156015e+001	7.728589e+001	-2.000000e+002	0.000000e+000	-2.000000e+002	0.000000e+000
83298720.000	-3.151137e-002	-2.676125e+001	-5.145299e+001	7.755825e+001	-2.000000e+002	0.000000e+000	-2.000000e+002	0.000000e+000
83948710.000	-3.170470e-002	-2.696987e+001	-5.123572e+001	7.781528e+001	-2.000000e+002	0.000000e+000	-2.000000e+002	0.000000e+000
84598700.000	-3.237987e-002	-2.717208e+001	-5.089890e+001	7.704545e+001	-2.000000e+002	0.000000e+000	-2.000000e+002	0.000000e+000
85248690.000	-3.227936e-002	-2.737734e+001	-5.067789e+001	7.576766e+001	-2.000000e+002	0.000000e+000	-2.000000e+002	0.000000e+000
85898680.000	-3.250166e-002	-2.758615e+001	-5.051052e+001	7.458301e+001	-2.000000e+002	0.000000e+000	-2.000000e+002	0.000000e+000
86548670.000	-3.192327e-002	-2.778722e+001	-5.043776e+001	7.310377e+001	-2.000000e+002	0.000000e+000	-2.000000e+002	0.000000e+000
87198660.000	-3.224961e-002	-2.799451e+001	-5.042362e+001	7.212341e+001	-2.000000e+002	0.000000e+000	-2.000000e+002	0.000000e+000
87848650.000	-3.232447e-002	-2.820104e+001	-5.048918e+001	7.141895e+001	-2.000000e+002	0.000000e+000	-2.000000e+002	0.000000e+000
88498640.000	-3.283868e-002	-2.840363e+001	-5.054089e+001	7.051297e+001	-2.000000e+002	0.000000e+000	-2.000000e+002	0.000000e+000
89148630.000	-3.336877e-002	-2.861353e+001	-5.054380e+001	7.024637e+001	-2.000000e+002	0.000000e+000	-2.000000e+002	0.000000e+000
89798620.000	-3.359074e-002	-2.882472e+001	-5.061109e+001	7.014434e+001	-2.000000e+002	0.000000e+000	-2.000000e+002	0.000000e+000
90448610.000	-3.353754e-002	-2.903340e+001	-5.067414e+001	7.064207e+001	-2.000000e+002	0.000000e+000	-2.000000e+002	0.000000e+000
91098600.000	-3.481116e-002	-2.924724e+001	-5.066243e+001	7.073100e+001	-2.000000e+002	0.000000e+000	-2.000000e+002	0.000000e+000
91748590.000	-3.510044e-002	-2.945535e+001	-5.066326e+001	7.069588e+001	-2.000000e+002	0.000000e+000	-2.000000e+002	0.000000e+000
92398580.000	-3.464093e-002	-2.966457e+001	-5.058418e+001	7.191041e+001	-2.000000e+002	0.000000e+000	-2.000000e+002	0.000000e+000
93048570.000	-3.523094e-002	-2.987471e+001	-5.045195e+001	7.287700e+001	-2.000000e+002	0.000000e+000	-2.000000e+002	0.000000e+000
93698560.000	-3.645532e-002	-3.008529e+001	-5.034871e+001	7.328726e+001	-2.000000e+002	0.000000e+000	-2.000000e+002	0.000000e+000
94348550.000	-3.657178e-002	-3.028693e+001	-5.018265e+001	7.348583e+001	-2.000000e+002	0.000000e+000	-2.000000e+002	0.000000e+000
94998540.000	-3.815083e-002	-3.049589e+001	-5.000252e+001	7.293945e+001	-2.000000e+002	0.000000e+000	-2.000000e+002	0.000000e+000
95648530.000	-3.871088e-002	-3.070179e+001	-4.995756e+001	7.276340e+001	-2.000000e+002	0.000000e+000	-2.000000e+002	0.000000e+000
96298520.000	-3.814290e-002	-3.090583e+001	-4.982415e+001	7.290568e+001	-2.000000e+002	0.000000e+000	-2.000000e+002	0.000000e+000
96948510.000	-3.881051e-002	-3.110763e+001	-4.964289e+001	7.231486e+001	-2.000000e+002	0.000000e+000	-2.000000e+002	0.000000e+000
97598500.000	-4.020222e-002	-3.131583e+001	-4.956585e+001	7.174213e+001	-2.000000e+002	0.000000e+000	-2.000000e+002	0.000000e+000
98248490.000	-3.889585e-002	-3.151916e+001	-4.961468e+001	7.062210e+001	-2.000000e+002	0.000000e+000	-2.000000e+002	0.000000e+000
