!Keysight Technologies,E5063A,MY54503115,A.05.08
!Date: Mon Dec 11 14:03:23 2023
!Data & Calibration Information:
!Freq	S11:NONE(--)	S21:NONE(--)	S12:NONE(--)	S22:NONE(--)
# Hz S dB R 50
100000.000	5.020975e-002	-6.057190e-001	-8.357106e+001	7.205114e+001	-2.000000e+002	0.000000e+000	-2.000000e+002	0.000000e+000
749990.000	1.529392e-003	-5.901116e-001	-8.472836e+001	1.371625e+002	-2.000000e+002	0.000000e+000	-2.000000e+002	0.000000e+000
1399980.000	1.253450e-003	-7.586405e-001	-8.309100e+001	1.355820e+002	-2.000000e+002	0.000000e+000	-2.000000e+002	0.000000e+000
2049970.000	7.050410e-004	-9.498613e-001	-7.901368e+001	1.355657e+002	-2.000000e+002	0.000000e+000	-2.000000e+002	0.000000e+000
2699960.000	-2.186781e-004	-1.160131e+000	-8.169673e+001	8.164096e+001	-2.000000e+002	0.000000e+000	-2.000000e+002	0.000000e+000
3349950.000	1.601287e-003	-1.356493e+000	-7.943467e+001	1.162051e+002	-2.000000e+002	0.000000e+000	-2.000000e+002	0.000000e+000
3999940.000	1.999212e-003	-1.559566e+000	-7.691756e+001	1.120086e+002	-2.000000e+002	0.000000e+000	-2.000000e+002	0.000000e+000
4649930.000	3.135177e-003	-1.781394e+000	-7.541541e+001	8.108700e+001	-2.000000e+002	0.000000e+000	-2.000000e+002	0.000000e+000
5299920.000	4.038791e-004	-1.971959e+000	-7.884864e+001	6.851709e+001	-2.000000e+002	0.000000e+000	-2.000000e+002	0.000000e+000
5949910.000	3.698344e-004	-2.185854e+000	-7.610279e+001	9.085104e+001	-2.000000e+002	0.000000e+000	-2.000000e+002	0.000000e+000
6599900.000	7.861312e-004	-2.388324e+000	-7.438507e+001	1.041827e+002	-2.000000e+002	0.000000e+000	-2.000000e+002	0.000000e+000
7249890.000	1.309908e-004	-2.601156e+000	-7.217082e+001	8.110795e+001	-2.000000e+002	0.000000e+000	-2.000000e+002	0.000000e+000
7899880.000	5.158118e-004	-2.813763e+000	-7.208770e+001	9.491471e+001	-2.000000e+002	0.000000e+000	-2.000000e+002	0.000000e+000
8549870.000	3.273120e-003	-3.026648e+000	-7.102816e+001	8.697660e+001	-2.000000e+002	0.000000e+000	-2.000000e+002	0.000000e+000
9199860.000	2.305893e-003	-3.233335e+000	-7.042932e+001	8.717676e+001	-2.000000e+002	0.000000e+000	-2.000000e+002	0.000000e+000
9849850.000	1.944351e-003	-3.438280e+000	-6.985204e+001	8.533557e+001	-2.000000e+002	0.000000e+000	-2.000000e+002	0.000000e+000
10499840.000	1.192879e-003	-3.635273e+000	-6.922714e+001	8.822967e+001	-2.000000e+002	0.000000e+000	-2.000000e+002	0.000000e+000
11149830.000	-7.749643e-004	-3.835319e+000	-6.872693e+001	8.558716e+001	-2.000000e+002	0.000000e+000	-2.000000e+002	0.000000e+000
11799820.000	-1.230128e-003	-4.033576e+000	-6.842201e+001	8.589112e+001	-2.000000e+002	0.000000e+000	-2.000000e+002	0.000000e+000
12449810.000	-4.083133e-005	-4.250219e+000	-6.781063e+001	8.553261e+001	-2.000000e+002	0.000000e+000	-2.000000e+002	0.000000e+000
13099800.000	1.431052e-003	-4.463850e+000	-6.751228e+001	8.715808e+001	-2.000000e+002	0.000000e+000	-2.000000e+002	0.000000e+000
13749790.000	6.644943e-004	-4.666955e+000	-6.695821e+001	8.643780e+001	-2.000000e+002	0.000000e+000	-2.000000e+002	0.000000e+000
14399780.000	-6.074874e-004	-4.877131e+000	-6.655076e+001	8.354295e+001	-2.000000e+002	0.000000e+000	-2.000000e+002	0.000000e+000
15049770.000	-1.082304e-003	-5.092737e+000	-6.631305e+001	8.521241e+001	-2.000000e+002	0.000000e+000	-2.000000e+002	0.000000e+000
15699760.000	9.403650e-004	-5.283432e+000	-6.593939e+001	8.540111e+001	-2.000000e+002	0.000000e+000	-2.000000e+002	0.000000e+000
16349750.000	8.491290e-004	-5.485151e+000	-6.560698e+001	8.673028e+001	-2.000000e+002	0.000000e+000	-2.000000e+002	0.000000e+000
16999740.000	-7.777636e-004	-5.700984e+000	-6.517495e+001	8.567264e+001	-2.000000e+002	0.000000e+000	-2.000000e+002	0.000000e+000
17649730.000	5.576727e-003	-5.930035e+000	-6.512999e+001	8.524126e+001	-2.000000e+002	0.000000e+000	-2.000000e+002	0.000000e+000
18299720.000	8.373208e-003	-6.149253e+000	-6.478702e+001	8.491788e+001	-2.000000e+002	0.000000e+000	-2.000000e+002	0.000000e+000
18949710.000	7.847075e-003	-6.350398e+000	-6.445231e+001	8.528401e+001	-2.000000e+002	0.000000e+000	-2.000000e+002	0.000000e+000
19599700.000	2.277211e-003	-6.532660e+000	-6.409252e+001	8.434511e+001	-2.000000e+002	0.000000e+000	-2.000000e+002	0.000000e+000
20249690.000	-1.289138e-003	-6.719263e+000	-6.375717e+001	8.475282e+001	-2.000000e+002	0.000000e+000	-2.000000e+002	0.000000e+000
20899680.000	-3.053726e-003	-6.959515e+000	-6.386001e+001	8.441757e+001	-2.000000e+002	0.000000e+000	-2.000000e+002	0.000000e+000
21549670.000	-3.575841e-003	-7.177440e+000	-6.347865e+001	8.528115e+001	-2.000000e+002	0.000000e+000	-2.000000e+002	0.000000e+000
22199660.000	-2.403283e-003	-7.367058e+000	-6.329657e+001	8.653302e+001	-2.000000e+002	0.000000e+000	-2.000000e+002	0.000000e+000
22849650.000	1.201708e-003	-7.544022e+000	-6.322182e+001	8.746616e+001	-2.000000e+002	0.000000e+000	-2.000000e+002	0.000000e+000
23499640.000	4.671943e-004	-7.750291e+000	-6.271084e+001	8.974811e+001	-2.000000e+002	0.000000e+000	-2.000000e+002	0.000000e+000
24149630.000	-2.106974e-003	-7.963126e+000	-6.201236e+001	8.909800e+001	-2.000000e+002	0.000000e+000	-2.000000e+002	0.000000e+000
24799620.000	-1.304164e-003	-8.170965e+000	-6.145648e+001	8.827609e+001	-2.000000e+002	0.000000e+000	-2.000000e+002	0.000000e+000
25449610.000	1.236353e-003	-8.374271e+000	-6.130073e+001	8.634177e+001	-2.000000e+002	0.000000e+000	-2.000000e+002	0.000000e+000
26099600.000	8.398773e-004	-8.578515e+000	-6.108181e+001	8.615998e+001	-2.000000e+002	0.000000e+000	-2.000000e+002	0.000000e+000
26749590.000	-3.224244e-004	-8.788282e+000	-6.078115e+001	8.557400e+001	-2.000000e+002	0.000000e+000	-2.000000e+002	0.000000e+000
27399580.000	-6.361701e-004	-8.999259e+000	-6.054295e+001	8.515253e+001	-2.000000e+002	0.000000e+000	-2.000000e+002	0.000000e+000
28049570.000	-2.743841e-004	-9.209822e+000	-6.032548e+001	8.455705e+001	-2.000000e+002	0.000000e+000	-2.000000e+002	0.000000e+000
28699560.000	-4.379500e-004	-9.411079e+000	-5.985204e+001	8.358147e+001	-2.000000e+002	0.000000e+000	-2.000000e+002	0.000000e+000
29349550.000	-6.451138e-004	-9.609502e+000	-5.983877e+001	8.367075e+001	-2.000000e+002	0.000000e+000	-2.000000e+002	0.000000e+000
29999540.000	-3.508921e-004	-9.816119e+000	-5.979185e+001	8.264003e+001	-2.000000e+002	0.000000e+000	-2.000000e+002	0.000000e+000
30649530.000	-9.113258e-004	-1.002781e+001	-5.952874e+001	8.265648e+001	-2.000000e+002	0.000000e+000	-2.000000e+002	0.000000e+000
31299520.000	-4.188680e-004	-1.024287e+001	-5.939389e+001	8.164914e+001	-2.000000e+002	0.000000e+000	-2.000000e+002	0.000000e+000
31949510.000	-3.130278e-004	-1.044709e+001	-5.924089e+001	8.169112e+001	-2.000000e+002	0.000000e+000	-2.000000e+002	0.000000e+000
32599500.000	-1.273841e-003	-1.065588e+001	-5.912535e+001	8.161476e+001	-2.000000e+002	0.000000e+000	-2.000000e+002	0.000000e+000
33249490.000	-1.357350e-003	-1.086246e+001	-5.914322e+001	8.123773e+001	-2.000000e+002	0.000000e+000	-2.000000e+002	0.000000e+000
33899480.000	-1.749355e-003	-1.107203e+001	-5.874217e+001	8.031910e+001	-2.000000e+002	0.000000e+000	-2.000000e+002	0.000000e+000
34549470.000	-1.815038e-003	-1.126847e+001	-5.860925e+001	8.007456e+001	-2.000000e+002	0.000000e+000	-2.000000e+002	0.000000e+000
35199460.000	-1.904988e-003	-1.147085e+001	-5.850547e+001	8.085394e+001	-2.000000e+002	0.000000e+000	-2.000000e+002	0.000000e+000
35849450.000	-2.188577e-003	-1.167549e+001	-5.840853e+001	8.014663e+001	-2.000000e+002	0.000000e+000	-2.000000e+002	0.000000e+000
36499440.000	-2.209168e-003	-1.188112e+001	-5.820831e+001	7.985202e+001	-2.000000e+002	0.000000e+000	-2.000000e+002	0.000000e+000
37149430.000	-2.065017e-003	-1.208977e+001	-5.808264e+001	7.915872e+001	-2.000000e+002	0.000000e+000	-2.000000e+002	0.000000e+000
37799420.000	-2.755458e-003	-1.229657e+001	-5.794030e+001	7.938126e+001	-2.000000e+002	0.000000e+000	-2.000000e+002	0.000000e+000
38449410.000	-2.243720e-003	-1.250669e+001	-5.770929e+001	7.919476e+001	-2.000000e+002	0.000000e+000	-2.000000e+002	0.000000e+000
39099400.000	-3.044061e-003	-1.271433e+001	-5.765425e+001	7.889388e+001	-2.000000e+002	0.000000e+000	-2.000000e+002	0.000000e+000
39749390.000	-3.558747e-003	-1.292859e+001	-5.751044e+001	7.796316e+001	-2.000000e+002	0.000000e+000	-2.000000e+002	0.000000e+000
40399380.000	-3.993728e-003	-1.313577e+001	-5.747204e+001	7.837184e+001	-2.000000e+002	0.000000e+000	-2.000000e+002	0.000000e+000
41049370.000	-3.443619e-003	-1.334480e+001	-5.723975e+001	7.828930e+001	-2.000000e+002	0.000000e+000	-2.000000e+002	0.000000e+000
41699360.000	-2.614444e-003	-1.354822e+001	-5.720560e+001	7.799630e+001	-2.000000e+002	0.000000e+000	-2.000000e+002	0.000000e+000
42349350.000	-2.429822e-003	-1.375174e+001	-5.709980e+001	7.751917e+001	-2.000000e+002	0.000000e+000	-2.000000e+002	0.000000e+000
42999340.000	-3.293428e-003	-1.395893e+001	-5.691984e+001	7.714767e+001	-2.000000e+002	0.000000e+000	-2.000000e+002	0.000000e+000
43649330.000	-3.209790e-003	-1.416699e+001	-5.681485e+001	7.778659e+001	-2.000000e+002	0.000000e+000	-2.000000e+002	0.000000e+000
44299320.000	-3.726052e-003	-1.437405e+001	-5.682033e+001	7.657426e+001	-2.000000e+002	0.000000e+000	-2.000000e+002	0.000000e+000
44949310.000	-3.426070e-003	-1.458466e+001	-5.656400e+001	7.691966e+001	-2.000000e+002	0.000000e+000	-2.000000e+002	0.000000e+000
45599300.000	-4.220259e-003	-1.479058e+001	-5.652277e+001	7.716031e+001	-2.000000e+002	0.000000e+000	-2.000000e+002	0.000000e+000
46249290.000	-4.490905e-003	-1.500134e+001	-5.648007e+001	7.664028e+001	-2.000000e+002	0.000000e+000	-2.000000e+002	0.000000e+000
46899280.000	-4.550282e-003	-1.520520e+001	-5.634345e+001	7.702806e+001	-2.000000e+002	0.000000e+000	-2.000000e+002	0.000000e+000
47549270.000	-6.356769e-003	-1.541414e+001	-5.629407e+001	7.671089e+001	-2.000000e+002	0.000000e+000	-2.000000e+002	0.000000e+000
48199260.000	-7.213239e-003	-1.562125e+001	-5.629128e+001	7.664302e+001	-2.000000e+002	0.000000e+000	-2.000000e+002	0.000000e+000
48849250.000	-8.236459e-003	-1.583474e+001	-5.619855e+001	7.711305e+001	-2.000000e+002	0.000000e+000	-2.000000e+002	0.000000e+000
49499240.000	-7.775988e-003	-1.603559e+001	-5.609410e+001	7.686052e+001	-2.000000e+002	0.000000e+000	-2.000000e+002	0.000000e+000
50149230.000	-8.453111e-003	-1.624627e+001	-5.606205e+001	7.722062e+001	-2.000000e+002	0.000000e+000	-2.000000e+002	0.000000e+000
50799220.000	-9.410074e-003	-1.645564e+001	-5.593271e+001	7.823956e+001	-2.000000e+002	0.000000e+000	-2.000000e+002	0.000000e+000
51449210.000	-8.485705e-003	-1.666076e+001	-5.582612e+001	7.909115e+001	-2.000000e+002	0.000000e+000	-2.000000e+002	0.000000e+000
52099200.000	-9.071059e-003	-1.686555e+001	-5.553842e+001	7.955377e+001	-2.000000e+002	0.000000e+000	-2.000000e+002	0.000000e+000
52749190.000	-8.639585e-003	-1.707317e+001	-5.544864e+001	7.940427e+001	-2.000000e+002	0.000000e+000	-2.000000e+002	0.000000e+000
53399180.000	-9.624506e-003	-1.728006e+001	-5.529880e+001	7.974400e+001	-2.000000e+002	0.000000e+000	-2.000000e+002	0.000000e+000
54049170.000	-9.835661e-003	-1.748652e+001	-5.512561e+001	7.986279e+001	-2.000000e+002	0.000000e+000	-2.000000e+002	0.000000e+000
54699160.000	-1.063725e-002	-1.769643e+001	-5.486111e+001	8.049471e+001	-2.000000e+002	0.000000e+000	-2.000000e+002	0.000000e+000
55349150.000	-1.076529e-002	-1.790492e+001	-5.464754e+001	8.051056e+001	-2.000000e+002	0.000000e+000	-2.000000e+002	0.000000e+000
55999140.000	-1.135347e-002	-1.810763e+001	-5.443747e+001	8.021778e+001	-2.000000e+002	0.000000e+000	-2.000000e+002	0.000000e+000
56649130.000	-1.217010e-002	-1.831441e+001	-5.421903e+001	8.017250e+001	-2.000000e+002	0.000000e+000	-2.000000e+002	0.000000e+000
57299120.000	-1.186178e-002	-1.851775e+001	-5.393743e+001	7.936170e+001	-2.000000e+002	0.000000e+000	-2.000000e+002	0.000000e+000
57949110.000	-1.214945e-002	-1.872505e+001	-5.374571e+001	7.842297e+001	-2.000000e+002	0.000000e+000	-2.000000e+002	0.000000e+000
58599100.000	-1.198831e-002	-1.892772e+001	-5.367689e+001	7.720642e+001	-2.000000e+002	0.000000e+000	-2.000000e+002	0.000000e+000
59249090.000	-1.264885e-002	-1.913167e+001	-5.358229e+001	7.645320e+001	-2.000000e+002	0.000000e+000	-2.000000e+002	0.000000e+000
59899080.000	-1.224474e-002	-1.933938e+001	-5.353081e+001	7.591380e+001	-2.000000e+002	0.000000e+000	-2.000000e+002	0.000000e+000
60549070.000	-1.415868e-002	-1.954465e+001	-5.346434e+001	7.589102e+001	-2.000000e+002	0.000000e+000	-2.000000e+002	0.000000e+000
61199060.000	-1.449876e-002	-1.974858e+001	-5.332830e+001	7.496841e+001	-2.000000e+002	0.000000e+000	-2.000000e+002	0.000000e+000
61849050.000	-1.433421e-002	-1.995184e+001	-5.329796e+001	7.485800e+001	-2.000000e+002	0.000000e+000	-2.000000e+002	0.000000e+000
62499040.000	-1.595264e-002	-2.015590e+001	-5.321087e+001	7.440890e+001	-2.000000e+002	0.000000e+000	-2.000000e+002	0.000000e+000
63149030.000	-1.639291e-002	-2.036070e+001	-5.318005e+001	7.422054e+001	-2.000000e+002	0.000000e+000	-2.000000e+002	0.000000e+000
63799020.000	-1.713650e-002	-2.056783e+001	-5.304942e+001	7.414600e+001	-2.000000e+002	0.000000e+000	-2.000000e+002	0.000000e+000
64449010.000	-1.758168e-002	-2.077167e+001	-5.297483e+001	7.364200e+001	-2.000000e+002	0.000000e+000	-2.000000e+002	0.000000e+000
65099000.000	-1.828365e-002	-2.097901e+001	-5.287681e+001	7.347491e+001	-2.000000e+002	0.000000e+000	-2.000000e+002	0.000000e+000
65748990.000	-1.796359e-002	-2.118018e+001	-5.283204e+001	7.336555e+001	-2.000000e+002	0.000000e+000	-2.000000e+002	0.000000e+000
66398980.000	-1.865224e-002	-2.138777e+001	-5.271508e+001	7.308527e+001	-2.000000e+002	0.000000e+000	-2.000000e+002	0.000000e+000
67048970.000	-1.893837e-002	-2.159677e+001	-5.263436e+001	7.260852e+001	-2.000000e+002	0.000000e+000	-2.000000e+002	0.000000e+000
67698960.000	-1.956138e-002	-2.180019e+001	-5.252285e+001	7.266878e+001	-2.000000e+002	0.000000e+000	-2.000000e+002	0.000000e+000
68348950.000	-1.961862e-002	-2.200100e+001	-5.250704e+001	7.221921e+001	-2.000000e+002	0.000000e+000	-2.000000e+002	0.000000e+000
68998940.000	-2.076896e-002	-2.220962e+001	-5.242673e+001	7.181687e+001	-2.000000e+002	0.000000e+000	-2.000000e+002	0.000000e+000
69648930.000	-2.021241e-002	-2.241205e+001	-5.232831e+001	7.183313e+001	-2.000000e+002	0.000000e+000	-2.000000e+002	0.000000e+000
70298920.000	-2.002105e-002	-2.262844e+001	-5.231143e+001	7.120066e+001	-2.000000e+002	0.000000e+000	-2.000000e+002	0.000000e+000
70948910.000	-2.076826e-002	-2.283645e+001	-5.228991e+001	7.135883e+001	-2.000000e+002	0.000000e+000	-2.000000e+002	0.000000e+000
71598900.000	-2.041099e-002	-2.304179e+001	-5.220075e+001	7.123501e+001	-2.000000e+002	0.000000e+000	-2.000000e+002	0.000000e+000
72248890.000	-2.153146e-002	-2.324624e+001	-5.214256e+001	7.102327e+001	-2.000000e+002	0.000000e+000	-2.000000e+002	0.000000e+000
72898880.000	-2.120123e-002	-2.345347e+001	-5.208028e+001	7.113783e+001	-2.000000e+002	0.000000e+000	-2.000000e+002	0.000000e+000
73548870.000	-2.198338e-002	-2.365985e+001	-5.201768e+001	7.065013e+001	-2.000000e+002	0.000000e+000	-2.000000e+002	0.000000e+000
74198860.000	-2.206779e-002	-2.386844e+001	-5.196630e+001	7.095633e+001	-2.000000e+002	0.000000e+000	-2.000000e+002	0.000000e+000
74848850.000	-2.315210e-002	-2.407887e+001	-5.187690e+001	7.066029e+001	-2.000000e+002	0.000000e+000	-2.000000e+002	0.000000e+000
75498840.000	-2.353738e-002	-2.428120e+001	-5.180678e+001	7.059068e+001	-2.000000e+002	0.000000e+000	-2.000000e+002	0.000000e+000
76148830.000	-2.320849e-002	-2.449106e+001	-5.178539e+001	7.061221e+001	-2.000000e+002	0.000000e+000	-2.000000e+002	0.000000e+000
76798820.000	-2.345658e-002	-2.469335e+001	-5.167254e+001	7.070404e+001	-2.000000e+002	0.000000e+000	-2.000000e+002	0.000000e+000
77448810.000	-2.469502e-002	-2.489340e+001	-5.163688e+001	7.085442e+001	-2.000000e+002	0.000000e+000	-2.000000e+002	0.000000e+000
78098800.000	-2.577966e-002	-2.510113e+001	-5.157299e+001	7.104174e+001	-2.000000e+002	0.000000e+000	-2.000000e+002	0.000000e+000
78748790.000	-2.616861e-002	-2.530741e+001	-5.148147e+001	7.075790e+001	-2.000000e+002	0.000000e+000	-2.000000e+002	0.000000e+000
79398780.000	-2.576751e-002	-2.551317e+001	-5.142188e+001	7.093668e+001	-2.000000e+002	0.000000e+000	-2.000000e+002	0.000000e+000
80048770.000	-2.640481e-002	-2.572889e+001	-5.134511e+001	7.086130e+001	-2.000000e+002	0.000000e+000	-2.000000e+002	0.000000e+000
80698760.000	-2.691394e-002	-2.593511e+001	-5.127739e+001	7.097031e+001	-2.000000e+002	0.000000e+000	-2.000000e+002	0.000000e+000
81348750.000	-2.752394e-002	-2.614114e+001	-5.119927e+001	7.140780e+001	-2.000000e+002	0.000000e+000	-2.000000e+002	0.000000e+000
81998740.000	-2.785735e-002	-2.634567e+001	-5.109446e+001	7.163359e+001	-2.000000e+002	0.000000e+000	-2.000000e+002	0.000000e+000
82648730.000	-2.868878e-002	-2.654997e+001	-5.087429e+001	7.182327e+001	-2.000000e+002	0.000000e+000	-2.000000e+002	0.000000e+000
83298720.000	-2.970664e-002	-2.675899e+001	-5.076933e+001	7.172609e+001	-2.000000e+002	0.000000e+000	-2.000000e+002	0.000000e+000
83948710.000	-2.983786e-002	-2.696302e+001	-5.061289e+001	7.196282e+001	-2.000000e+002	0.000000e+000	-2.000000e+002	0.000000e+000
84598700.000	-3.001968e-002	-2.716720e+001	-5.036925e+001	7.148563e+001	-2.000000e+002	0.000000e+000	-2.000000e+002	0.000000e+000
85248690.000	-2.992275e-002	-2.737345e+001	-5.023211e+001	7.086558e+001	-2.000000e+002	0.000000e+000	-2.000000e+002	0.000000e+000
85898680.000	-3.045032e-002	-2.758190e+001	-5.011716e+001	7.013693e+001	-2.000000e+002	0.000000e+000	-2.000000e+002	0.000000e+000
86548670.000	-3.062194e-002	-2.778644e+001	-5.001515e+001	6.894645e+001	-2.000000e+002	0.000000e+000	-2.000000e+002	0.000000e+000
87198660.000	-3.073951e-002	-2.799069e+001	-5.001797e+001	6.823229e+001	-2.000000e+002	0.000000e+000	-2.000000e+002	0.000000e+000
87848650.000	-3.128565e-002	-2.819481e+001	-4.997545e+001	6.797958e+001	-2.000000e+002	0.000000e+000	-2.000000e+002	0.000000e+000
88498640.000	-3.160708e-002	-2.840185e+001	-4.993749e+001	6.734563e+001	-2.000000e+002	0.000000e+000	-2.000000e+002	0.000000e+000
89148630.000	-3.265841e-002	-2.861106e+001	-4.993355e+001	6.719441e+001	-2.000000e+002	0.000000e+000	-2.000000e+002	0.000000e+000
89798620.000	-3.262241e-002	-2.881582e+001	-4.994886e+001	6.699624e+001	-2.000000e+002	0.000000e+000	-2.000000e+002	0.000000e+000
90448610.000	-3.239207e-002	-2.902805e+001	-4.990437e+001	6.667069e+001	-2.000000e+002	0.000000e+000	-2.000000e+002	0.000000e+000
91098600.000	-3.337399e-002	-2.923804e+001	-4.989167e+001	6.697745e+001	-2.000000e+002	0.000000e+000	-2.000000e+002	0.000000e+000
91748590.000	-3.340356e-002	-2.944801e+001	-4.986132e+001	6.766949e+001	-2.000000e+002	0.000000e+000	-2.000000e+002	0.000000e+000
92398580.000	-3.342645e-002	-2.965619e+001	-4.980182e+001	6.723573e+001	-2.000000e+002	0.000000e+000	-2.000000e+002	0.000000e+000
93048570.000	-3.325618e-002	-2.986461e+001	-4.971119e+001	6.726152e+001	-2.000000e+002	0.000000e+000	-2.000000e+002	0.000000e+000
93698560.000	-3.455191e-002	-3.007361e+001	-4.964037e+001	6.742667e+001	-2.000000e+002	0.000000e+000	-2.000000e+002	0.000000e+000
94348550.000	-3.430679e-002	-3.028175e+001	-4.952271e+001	6.749448e+001	-2.000000e+002	0.000000e+000	-2.000000e+002	0.000000e+000
94998540.000	-3.527864e-002	-3.049126e+001	-4.945186e+001	6.683873e+001	-2.000000e+002	0.000000e+000	-2.000000e+002	0.000000e+000
95648530.000	-3.610974e-002	-3.069317e+001	-4.935803e+001	6.671617e+001	-2.000000e+002	0.000000e+000	-2.000000e+002	0.000000e+000
96298520.000	-3.574316e-002	-3.089973e+001	-4.929792e+001	6.666797e+001	-2.000000e+002	0.000000e+000	-2.000000e+002	0.000000e+000
96948510.000	-3.684618e-002	-3.110410e+001	-4.924298e+001	6.653912e+001	-2.000000e+002	0.000000e+000	-2.000000e+002	0.000000e+000
97598500.000	-3.717858e-002	-3.131095e+001	-4.914580e+001	6.616681e+001	-2.000000e+002	0.000000e+000	-2.000000e+002	0.000000e+000
98248490.000	-3.607163e-002	-3.151466e+001	-4.913057e+001	6.601003e+001	-2.000000e+002	0.000000e+000	-2.000000e+002	0.000000e+000
