!Keysight Technologies,E5063A,MY54503115,A.05.08
!Date: Mon Dec 11 15:14:11 2023
!Data & Calibration Information:
!Freq	S11:NONE(--)	S21:NONE(--)	S12:NONE(--)	S22:NONE(--)
# Hz S dB R 50
100000.000	5.287244e-002	-6.443612e-001	-8.674602e+001	-3.996519e+000	-2.000000e+002	0.000000e+000	-2.000000e+002	0.000000e+000
749990.000	9.786492e-004	-6.065453e-001	-8.086983e+001	-6.133185e+001	-2.000000e+002	0.000000e+000	-2.000000e+002	0.000000e+000
1399980.000	1.980920e-003	-7.771712e-001	-8.459677e+001	1.733526e+002	-2.000000e+002	0.000000e+000	-2.000000e+002	0.000000e+000
2049970.000	1.059268e-004	-9.735936e-001	-8.326460e+001	1.461650e+002	-2.000000e+002	0.000000e+000	-2.000000e+002	0.000000e+000
2699960.000	6.003144e-004	-1.160824e+000	-7.945791e+001	9.275201e+001	-2.000000e+002	0.000000e+000	-2.000000e+002	0.000000e+000
3349950.000	5.112673e-004	-1.387024e+000	-7.403165e+001	9.087126e+001	-2.000000e+002	0.000000e+000	-2.000000e+002	0.000000e+000
3999940.000	1.221107e-003	-1.576573e+000	-8.070102e+001	5.503455e+001	-2.000000e+002	0.000000e+000	-2.000000e+002	0.000000e+000
4649930.000	1.151767e-003	-1.792430e+000	-7.641550e+001	8.573640e+001	-2.000000e+002	0.000000e+000	-2.000000e+002	0.000000e+000
5299920.000	-7.252218e-004	-1.995799e+000	-7.630038e+001	9.017890e+001	-2.000000e+002	0.000000e+000	-2.000000e+002	0.000000e+000
5949910.000	3.113585e-004	-2.196216e+000	-7.280759e+001	8.319669e+001	-2.000000e+002	0.000000e+000	-2.000000e+002	0.000000e+000
6599900.000	1.027925e-003	-2.405019e+000	-7.312307e+001	9.355683e+001	-2.000000e+002	0.000000e+000	-2.000000e+002	0.000000e+000
7249890.000	2.732437e-004	-2.618757e+000	-7.275343e+001	9.065817e+001	-2.000000e+002	0.000000e+000	-2.000000e+002	0.000000e+000
7899880.000	2.004415e-004	-2.838018e+000	-7.191987e+001	9.214861e+001	-2.000000e+002	0.000000e+000	-2.000000e+002	0.000000e+000
8549870.000	1.773303e-003	-3.045503e+000	-7.116945e+001	8.818457e+001	-2.000000e+002	0.000000e+000	-2.000000e+002	0.000000e+000
9199860.000	7.512030e-004	-3.250572e+000	-7.056919e+001	8.876101e+001	-2.000000e+002	0.000000e+000	-2.000000e+002	0.000000e+000
9849850.000	1.239904e-003	-3.455676e+000	-7.022648e+001	8.709523e+001	-2.000000e+002	0.000000e+000	-2.000000e+002	0.000000e+000
10499840.000	2.510376e-004	-3.651953e+000	-6.970705e+001	9.079168e+001	-2.000000e+002	0.000000e+000	-2.000000e+002	0.000000e+000
11149830.000	-2.203309e-003	-3.854367e+000	-6.900410e+001	8.656208e+001	-2.000000e+002	0.000000e+000	-2.000000e+002	0.000000e+000
11799820.000	-1.867973e-003	-4.057344e+000	-6.873066e+001	8.746099e+001	-2.000000e+002	0.000000e+000	-2.000000e+002	0.000000e+000
12449810.000	-5.032549e-004	-4.268726e+000	-6.815254e+001	8.789815e+001	-2.000000e+002	0.000000e+000	-2.000000e+002	0.000000e+000
13099800.000	6.415717e-004	-4.486619e+000	-6.790970e+001	8.647174e+001	-2.000000e+002	0.000000e+000	-2.000000e+002	0.000000e+000
13749790.000	-8.824392e-005	-4.688284e+000	-6.725020e+001	8.888864e+001	-2.000000e+002	0.000000e+000	-2.000000e+002	0.000000e+000
14399780.000	-1.118713e-003	-4.899764e+000	-6.695540e+001	8.844861e+001	-2.000000e+002	0.000000e+000	-2.000000e+002	0.000000e+000
15049770.000	-2.069993e-003	-5.116788e+000	-6.639310e+001	8.819230e+001	-2.000000e+002	0.000000e+000	-2.000000e+002	0.000000e+000
15699760.000	-8.808943e-005	-5.303580e+000	-6.628406e+001	8.804106e+001	-2.000000e+002	0.000000e+000	-2.000000e+002	0.000000e+000
16349750.000	3.333764e-004	-5.505165e+000	-6.574036e+001	8.735229e+001	-2.000000e+002	0.000000e+000	-2.000000e+002	0.000000e+000
16999740.000	-2.387005e-003	-5.721204e+000	-6.543785e+001	8.678962e+001	-2.000000e+002	0.000000e+000	-2.000000e+002	0.000000e+000
17649730.000	5.355043e-003	-5.951316e+000	-6.507813e+001	8.847825e+001	-2.000000e+002	0.000000e+000	-2.000000e+002	0.000000e+000
18299720.000	7.923103e-003	-6.171243e+000	-6.518124e+001	8.903363e+001	-2.000000e+002	0.000000e+000	-2.000000e+002	0.000000e+000
18949710.000	6.331369e-003	-6.372870e+000	-6.444215e+001	8.933072e+001	-2.000000e+002	0.000000e+000	-2.000000e+002	0.000000e+000
19599700.000	1.575511e-003	-6.550619e+000	-6.429923e+001	8.816228e+001	-2.000000e+002	0.000000e+000	-2.000000e+002	0.000000e+000
20249690.000	-2.774893e-003	-6.742968e+000	-6.402049e+001	8.907343e+001	-2.000000e+002	0.000000e+000	-2.000000e+002	0.000000e+000
20899680.000	-4.706173e-003	-6.978099e+000	-6.351394e+001	9.128710e+001	-2.000000e+002	0.000000e+000	-2.000000e+002	0.000000e+000
21549670.000	-5.076175e-003	-7.193244e+000	-6.324128e+001	9.203223e+001	-2.000000e+002	0.000000e+000	-2.000000e+002	0.000000e+000
22199660.000	-3.645456e-003	-7.387843e+000	-6.280925e+001	9.352751e+001	-2.000000e+002	0.000000e+000	-2.000000e+002	0.000000e+000
22849650.000	-1.787044e-004	-7.561296e+000	-6.222008e+001	9.219836e+001	-2.000000e+002	0.000000e+000	-2.000000e+002	0.000000e+000
23499640.000	-1.084399e-003	-7.768192e+000	-6.185272e+001	9.062335e+001	-2.000000e+002	0.000000e+000	-2.000000e+002	0.000000e+000
24149630.000	-3.574850e-003	-7.979972e+000	-6.139631e+001	8.959201e+001	-2.000000e+002	0.000000e+000	-2.000000e+002	0.000000e+000
24799620.000	-1.962146e-003	-8.186098e+000	-6.122001e+001	8.802543e+001	-2.000000e+002	0.000000e+000	-2.000000e+002	0.000000e+000
25449610.000	5.654608e-004	-8.390035e+000	-6.097245e+001	8.761786e+001	-2.000000e+002	0.000000e+000	-2.000000e+002	0.000000e+000
26099600.000	2.208672e-004	-8.596000e+000	-6.078559e+001	8.595095e+001	-2.000000e+002	0.000000e+000	-2.000000e+002	0.000000e+000
26749590.000	-1.299786e-003	-8.808935e+000	-6.055054e+001	8.618411e+001	-2.000000e+002	0.000000e+000	-2.000000e+002	0.000000e+000
27399580.000	-1.237681e-003	-9.017002e+000	-6.024125e+001	8.585873e+001	-2.000000e+002	0.000000e+000	-2.000000e+002	0.000000e+000
28049570.000	3.286557e-004	-9.232215e+000	-6.015824e+001	8.544680e+001	-2.000000e+002	0.000000e+000	-2.000000e+002	0.000000e+000
28699560.000	-1.071107e-003	-9.426541e+000	-5.985113e+001	8.324208e+001	-2.000000e+002	0.000000e+000	-2.000000e+002	0.000000e+000
29349550.000	-7.238235e-004	-9.628826e+000	-5.984160e+001	8.417816e+001	-2.000000e+002	0.000000e+000	-2.000000e+002	0.000000e+000
29999540.000	-7.305540e-004	-9.836017e+000	-5.967936e+001	8.344054e+001	-2.000000e+002	0.000000e+000	-2.000000e+002	0.000000e+000
30649530.000	-1.180351e-003	-1.004658e+001	-5.943666e+001	8.310478e+001	-2.000000e+002	0.000000e+000	-2.000000e+002	0.000000e+000
31299520.000	-9.689993e-004	-1.026347e+001	-5.929902e+001	8.250560e+001	-2.000000e+002	0.000000e+000	-2.000000e+002	0.000000e+000
31949510.000	-1.245094e-003	-1.046829e+001	-5.930625e+001	8.155513e+001	-2.000000e+002	0.000000e+000	-2.000000e+002	0.000000e+000
32599500.000	-2.067097e-003	-1.067635e+001	-5.901584e+001	8.244380e+001	-2.000000e+002	0.000000e+000	-2.000000e+002	0.000000e+000
33249490.000	-1.884137e-003	-1.087946e+001	-5.885212e+001	8.100329e+001	-2.000000e+002	0.000000e+000	-2.000000e+002	0.000000e+000
33899480.000	-2.312957e-003	-1.109186e+001	-5.871469e+001	8.131237e+001	-2.000000e+002	0.000000e+000	-2.000000e+002	0.000000e+000
34549470.000	-2.338947e-003	-1.128838e+001	-5.857089e+001	8.158106e+001	-2.000000e+002	0.000000e+000	-2.000000e+002	0.000000e+000
35199460.000	-1.786777e-003	-1.149368e+001	-5.853079e+001	8.075499e+001	-2.000000e+002	0.000000e+000	-2.000000e+002	0.000000e+000
35849450.000	-3.157378e-003	-1.169892e+001	-5.827529e+001	8.081030e+001	-2.000000e+002	0.000000e+000	-2.000000e+002	0.000000e+000
36499440.000	-2.482680e-003	-1.190141e+001	-5.810021e+001	8.066477e+001	-2.000000e+002	0.000000e+000	-2.000000e+002	0.000000e+000
37149430.000	-3.114705e-003	-1.211023e+001	-5.802336e+001	8.074458e+001	-2.000000e+002	0.000000e+000	-2.000000e+002	0.000000e+000
37799420.000	-2.673266e-003	-1.231695e+001	-5.784271e+001	8.050167e+001	-2.000000e+002	0.000000e+000	-2.000000e+002	0.000000e+000
38449410.000	-3.079965e-003	-1.252966e+001	-5.772507e+001	8.001757e+001	-2.000000e+002	0.000000e+000	-2.000000e+002	0.000000e+000
39099400.000	-3.195306e-003	-1.273811e+001	-5.760049e+001	7.984786e+001	-2.000000e+002	0.000000e+000	-2.000000e+002	0.000000e+000
39749390.000	-4.105840e-003	-1.295016e+001	-5.743789e+001	7.988821e+001	-2.000000e+002	0.000000e+000	-2.000000e+002	0.000000e+000
40399380.000	-4.567894e-003	-1.316075e+001	-5.724210e+001	8.005257e+001	-2.000000e+002	0.000000e+000	-2.000000e+002	0.000000e+000
41049370.000	-4.228873e-003	-1.336979e+001	-5.719207e+001	7.943532e+001	-2.000000e+002	0.000000e+000	-2.000000e+002	0.000000e+000
41699360.000	-2.928708e-003	-1.357086e+001	-5.700034e+001	7.927551e+001	-2.000000e+002	0.000000e+000	-2.000000e+002	0.000000e+000
42349350.000	-2.567468e-003	-1.377489e+001	-5.692175e+001	7.852282e+001	-2.000000e+002	0.000000e+000	-2.000000e+002	0.000000e+000
42999340.000	-3.841457e-003	-1.398121e+001	-5.673811e+001	7.952197e+001	-2.000000e+002	0.000000e+000	-2.000000e+002	0.000000e+000
43649330.000	-3.835421e-003	-1.418905e+001	-5.668107e+001	7.833032e+001	-2.000000e+002	0.000000e+000	-2.000000e+002	0.000000e+000
44299320.000	-4.205395e-003	-1.439836e+001	-5.660586e+001	7.837578e+001	-2.000000e+002	0.000000e+000	-2.000000e+002	0.000000e+000
44949310.000	-3.953030e-003	-1.460415e+001	-5.648867e+001	7.776892e+001	-2.000000e+002	0.000000e+000	-2.000000e+002	0.000000e+000
45599300.000	-5.103507e-003	-1.481714e+001	-5.643503e+001	7.853241e+001	-2.000000e+002	0.000000e+000	-2.000000e+002	0.000000e+000
46249290.000	-4.988224e-003	-1.502319e+001	-5.622426e+001	7.801475e+001	-2.000000e+002	0.000000e+000	-2.000000e+002	0.000000e+000
46899280.000	-5.352890e-003	-1.522593e+001	-5.619545e+001	7.833074e+001	-2.000000e+002	0.000000e+000	-2.000000e+002	0.000000e+000
47549270.000	-6.898783e-003	-1.543620e+001	-5.600729e+001	7.800088e+001	-2.000000e+002	0.000000e+000	-2.000000e+002	0.000000e+000
48199260.000	-7.952843e-003	-1.564285e+001	-5.583539e+001	7.822291e+001	-2.000000e+002	0.000000e+000	-2.000000e+002	0.000000e+000
48849250.000	-8.407553e-003	-1.585435e+001	-5.576497e+001	7.829341e+001	-2.000000e+002	0.000000e+000	-2.000000e+002	0.000000e+000
49499240.000	-8.467359e-003	-1.605701e+001	-5.563204e+001	7.781588e+001	-2.000000e+002	0.000000e+000	-2.000000e+002	0.000000e+000
50149230.000	-8.964283e-003	-1.626561e+001	-5.548341e+001	7.831570e+001	-2.000000e+002	0.000000e+000	-2.000000e+002	0.000000e+000
50799220.000	-9.391420e-003	-1.647466e+001	-5.532754e+001	7.795098e+001	-2.000000e+002	0.000000e+000	-2.000000e+002	0.000000e+000
51449210.000	-8.310579e-003	-1.668157e+001	-5.520996e+001	7.751706e+001	-2.000000e+002	0.000000e+000	-2.000000e+002	0.000000e+000
52099200.000	-8.503055e-003	-1.689289e+001	-5.512742e+001	7.684941e+001	-2.000000e+002	0.000000e+000	-2.000000e+002	0.000000e+000
52749190.000	-8.902061e-003	-1.709689e+001	-5.507216e+001	7.703885e+001	-2.000000e+002	0.000000e+000	-2.000000e+002	0.000000e+000
53399180.000	-8.757031e-003	-1.730216e+001	-5.499375e+001	7.702701e+001	-2.000000e+002	0.000000e+000	-2.000000e+002	0.000000e+000
54049170.000	-9.105255e-003	-1.751529e+001	-5.497754e+001	7.674072e+001	-2.000000e+002	0.000000e+000	-2.000000e+002	0.000000e+000
54699160.000	-9.034346e-003	-1.772302e+001	-5.487194e+001	7.717360e+001	-2.000000e+002	0.000000e+000	-2.000000e+002	0.000000e+000
55349150.000	-9.746537e-003	-1.793151e+001	-5.483933e+001	7.753615e+001	-2.000000e+002	0.000000e+000	-2.000000e+002	0.000000e+000
55999140.000	-1.042628e-002	-1.813779e+001	-5.470056e+001	7.837604e+001	-2.000000e+002	0.000000e+000	-2.000000e+002	0.000000e+000
56649130.000	-1.182437e-002	-1.834570e+001	-5.446806e+001	7.917137e+001	-2.000000e+002	0.000000e+000	-2.000000e+002	0.000000e+000
57299120.000	-1.246774e-002	-1.855380e+001	-5.418635e+001	7.954532e+001	-2.000000e+002	0.000000e+000	-2.000000e+002	0.000000e+000
57949110.000	-1.310518e-002	-1.875620e+001	-5.396329e+001	7.872877e+001	-2.000000e+002	0.000000e+000	-2.000000e+002	0.000000e+000
58599100.000	-1.259136e-002	-1.895883e+001	-5.376289e+001	7.787279e+001	-2.000000e+002	0.000000e+000	-2.000000e+002	0.000000e+000
59249090.000	-1.291991e-002	-1.916261e+001	-5.364162e+001	7.682639e+001	-2.000000e+002	0.000000e+000	-2.000000e+002	0.000000e+000
59899080.000	-1.306803e-002	-1.936769e+001	-5.352035e+001	7.622942e+001	-2.000000e+002	0.000000e+000	-2.000000e+002	0.000000e+000
60549070.000	-1.386439e-002	-1.957523e+001	-5.346993e+001	7.598689e+001	-2.000000e+002	0.000000e+000	-2.000000e+002	0.000000e+000
61199060.000	-1.524532e-002	-1.977899e+001	-5.337283e+001	7.571264e+001	-2.000000e+002	0.000000e+000	-2.000000e+002	0.000000e+000
61849050.000	-1.588797e-002	-1.998253e+001	-5.323856e+001	7.505744e+001	-2.000000e+002	0.000000e+000	-2.000000e+002	0.000000e+000
62499040.000	-1.660117e-002	-2.018551e+001	-5.316259e+001	7.484203e+001	-2.000000e+002	0.000000e+000	-2.000000e+002	0.000000e+000
63149030.000	-1.651456e-002	-2.038840e+001	-5.305178e+001	7.432122e+001	-2.000000e+002	0.000000e+000	-2.000000e+002	0.000000e+000
63799020.000	-1.749281e-002	-2.059630e+001	-5.296082e+001	7.416429e+001	-2.000000e+002	0.000000e+000	-2.000000e+002	0.000000e+000
64449010.000	-1.796193e-002	-2.080305e+001	-5.293771e+001	7.395416e+001	-2.000000e+002	0.000000e+000	-2.000000e+002	0.000000e+000
65099000.000	-1.859685e-002	-2.100907e+001	-5.286216e+001	7.365804e+001	-2.000000e+002	0.000000e+000	-2.000000e+002	0.000000e+000
65748990.000	-1.771933e-002	-2.121399e+001	-5.277726e+001	7.354041e+001	-2.000000e+002	0.000000e+000	-2.000000e+002	0.000000e+000
66398980.000	-1.871758e-002	-2.142039e+001	-5.267534e+001	7.307912e+001	-2.000000e+002	0.000000e+000	-2.000000e+002	0.000000e+000
67048970.000	-1.868861e-002	-2.162563e+001	-5.261366e+001	7.274992e+001	-2.000000e+002	0.000000e+000	-2.000000e+002	0.000000e+000
67698960.000	-2.016879e-002	-2.182963e+001	-5.250333e+001	7.230036e+001	-2.000000e+002	0.000000e+000	-2.000000e+002	0.000000e+000
68348950.000	-1.966466e-002	-2.203466e+001	-5.246041e+001	7.246880e+001	-2.000000e+002	0.000000e+000	-2.000000e+002	0.000000e+000
68998940.000	-2.119667e-002	-2.223934e+001	-5.237040e+001	7.241085e+001	-2.000000e+002	0.000000e+000	-2.000000e+002	0.000000e+000
69648930.000	-2.036147e-002	-2.244575e+001	-5.226955e+001	7.187859e+001	-2.000000e+002	0.000000e+000	-2.000000e+002	0.000000e+000
70298920.000	-2.026149e-002	-2.265794e+001	-5.224361e+001	7.175328e+001	-2.000000e+002	0.000000e+000	-2.000000e+002	0.000000e+000
70948910.000	-2.134817e-002	-2.286804e+001	-5.222225e+001	7.138173e+001	-2.000000e+002	0.000000e+000	-2.000000e+002	0.000000e+000
71598900.000	-2.129061e-002	-2.307274e+001	-5.215869e+001	7.151834e+001	-2.000000e+002	0.000000e+000	-2.000000e+002	0.000000e+000
72248890.000	-2.145238e-002	-2.327951e+001	-5.207502e+001	7.099478e+001	-2.000000e+002	0.000000e+000	-2.000000e+002	0.000000e+000
72898880.000	-2.187565e-002	-2.348663e+001	-5.204158e+001	7.127680e+001	-2.000000e+002	0.000000e+000	-2.000000e+002	0.000000e+000
73548870.000	-2.202433e-002	-2.369455e+001	-5.195549e+001	7.101361e+001	-2.000000e+002	0.000000e+000	-2.000000e+002	0.000000e+000
74198860.000	-2.198613e-002	-2.390221e+001	-5.185868e+001	7.128569e+001	-2.000000e+002	0.000000e+000	-2.000000e+002	0.000000e+000
74848850.000	-2.333436e-002	-2.411018e+001	-5.181021e+001	7.100182e+001	-2.000000e+002	0.000000e+000	-2.000000e+002	0.000000e+000
75498840.000	-2.355142e-002	-2.431476e+001	-5.172785e+001	7.078750e+001	-2.000000e+002	0.000000e+000	-2.000000e+002	0.000000e+000
76148830.000	-2.362757e-002	-2.452438e+001	-5.165639e+001	7.074246e+001	-2.000000e+002	0.000000e+000	-2.000000e+002	0.000000e+000
76798820.000	-2.355847e-002	-2.472822e+001	-5.158093e+001	7.105093e+001	-2.000000e+002	0.000000e+000	-2.000000e+002	0.000000e+000
77448810.000	-2.516332e-002	-2.492622e+001	-5.150336e+001	7.097760e+001	-2.000000e+002	0.000000e+000	-2.000000e+002	0.000000e+000
78098800.000	-2.620127e-002	-2.513823e+001	-5.141074e+001	7.095183e+001	-2.000000e+002	0.000000e+000	-2.000000e+002	0.000000e+000
78748790.000	-2.689139e-002	-2.533740e+001	-5.129511e+001	7.099081e+001	-2.000000e+002	0.000000e+000	-2.000000e+002	0.000000e+000
79398780.000	-2.600029e-002	-2.554194e+001	-5.120771e+001	7.097755e+001	-2.000000e+002	0.000000e+000	-2.000000e+002	0.000000e+000
80048770.000	-2.661155e-002	-2.575983e+001	-5.118120e+001	7.119838e+001	-2.000000e+002	0.000000e+000	-2.000000e+002	0.000000e+000
80698760.000	-2.705395e-002	-2.596681e+001	-5.104693e+001	7.077842e+001	-2.000000e+002	0.000000e+000	-2.000000e+002	0.000000e+000
81348750.000	-2.723768e-002	-2.617328e+001	-5.099519e+001	7.094956e+001	-2.000000e+002	0.000000e+000	-2.000000e+002	0.000000e+000
81998740.000	-2.800378e-002	-2.638113e+001	-5.087974e+001	7.114770e+001	-2.000000e+002	0.000000e+000	-2.000000e+002	0.000000e+000
82648730.000	-2.794707e-002	-2.658298e+001	-5.075021e+001	7.111297e+001	-2.000000e+002	0.000000e+000	-2.000000e+002	0.000000e+000
83298720.000	-2.917668e-002	-2.679131e+001	-5.062398e+001	7.078544e+001	-2.000000e+002	0.000000e+000	-2.000000e+002	0.000000e+000
83948710.000	-2.955784e-002	-2.699638e+001	-5.048016e+001	7.076783e+001	-2.000000e+002	0.000000e+000	-2.000000e+002	0.000000e+000
84598700.000	-2.982652e-002	-2.720463e+001	-5.031590e+001	7.047331e+001	-2.000000e+002	0.000000e+000	-2.000000e+002	0.000000e+000
85248690.000	-2.985301e-002	-2.741157e+001	-5.024055e+001	7.004938e+001	-2.000000e+002	0.000000e+000	-2.000000e+002	0.000000e+000
85898680.000	-3.005472e-002	-2.761994e+001	-5.013908e+001	6.963797e+001	-2.000000e+002	0.000000e+000	-2.000000e+002	0.000000e+000
86548670.000	-3.102607e-002	-2.782314e+001	-5.003195e+001	6.904321e+001	-2.000000e+002	0.000000e+000	-2.000000e+002	0.000000e+000
87198660.000	-3.055709e-002	-2.802948e+001	-4.996889e+001	6.852239e+001	-2.000000e+002	0.000000e+000	-2.000000e+002	0.000000e+000
87848650.000	-3.145290e-002	-2.823403e+001	-4.992175e+001	6.791421e+001	-2.000000e+002	0.000000e+000	-2.000000e+002	0.000000e+000
88498640.000	-3.183510e-002	-2.844150e+001	-4.992310e+001	6.785828e+001	-2.000000e+002	0.000000e+000	-2.000000e+002	0.000000e+000
89148630.000	-3.288420e-002	-2.864764e+001	-4.989319e+001	6.740795e+001	-2.000000e+002	0.000000e+000	-2.000000e+002	0.000000e+000
89798620.000	-3.263367e-002	-2.885392e+001	-4.980223e+001	6.734705e+001	-2.000000e+002	0.000000e+000	-2.000000e+002	0.000000e+000
90448610.000	-3.235770e-002	-2.906178e+001	-4.977221e+001	6.708387e+001	-2.000000e+002	0.000000e+000	-2.000000e+002	0.000000e+000
91098600.000	-3.334804e-002	-2.927541e+001	-4.969750e+001	6.729551e+001	-2.000000e+002	0.000000e+000	-2.000000e+002	0.000000e+000
91748590.000	-3.335374e-002	-2.948383e+001	-4.963759e+001	6.669525e+001	-2.000000e+002	0.000000e+000	-2.000000e+002	0.000000e+000
92398580.000	-3.293170e-002	-2.969174e+001	-4.958855e+001	6.717989e+001	-2.000000e+002	0.000000e+000	-2.000000e+002	0.000000e+000
93048570.000	-3.323769e-002	-2.990013e+001	-4.951644e+001	6.744968e+001	-2.000000e+002	0.000000e+000	-2.000000e+002	0.000000e+000
93698560.000	-3.360508e-002	-3.011175e+001	-4.936664e+001	6.678370e+001	-2.000000e+002	0.000000e+000	-2.000000e+002	0.000000e+000
94348550.000	-3.400019e-002	-3.031636e+001	-4.930698e+001	6.663551e+001	-2.000000e+002	0.000000e+000	-2.000000e+002	0.000000e+000
94998540.000	-3.538835e-002	-3.052569e+001	-4.930841e+001	6.687833e+001	-2.000000e+002	0.000000e+000	-2.000000e+002	0.000000e+000
95648530.000	-3.514718e-002	-3.073072e+001	-4.917078e+001	6.616171e+001	-2.000000e+002	0.000000e+000	-2.000000e+002	0.000000e+000
96298520.000	-3.513644e-002	-3.093697e+001	-4.910047e+001	6.604915e+001	-2.000000e+002	0.000000e+000	-2.000000e+002	0.000000e+000
96948510.000	-3.606794e-002	-3.114158e+001	-4.905765e+001	6.582223e+001	-2.000000e+002	0.000000e+000	-2.000000e+002	0.000000e+000
97598500.000	-3.697496e-002	-3.134952e+001	-4.889459e+001	6.555009e+001	-2.000000e+002	0.000000e+000	-2.000000e+002	0.000000e+000
98248490.000	-3.617249e-002	-3.155470e+001	-4.891365e+001	6.522119e+001	-2.000000e+002	0.000000e+000	-2.000000e+002	0.000000e+000
