!Keysight Technologies,E5063A,MY54503115,A.05.08
!Date: Mon Dec 11 13:51:36 2023
!Data & Calibration Information:
!Freq	S11:NONE(--)	S21:NONE(--)	S12:NONE(--)	S22:NONE(--)
# Hz S dB R 50
100000.000	4.727309e-002	-5.745228e-001	-8.119670e+001	5.899532e+001	-2.000000e+002	0.000000e+000	-2.000000e+002	0.000000e+000
749990.000	8.797612e-004	-5.668333e-001	-8.609521e+001	1.703358e+002	-2.000000e+002	0.000000e+000	-2.000000e+002	0.000000e+000
1399980.000	1.439984e-003	-7.465466e-001	-8.834440e+001	-9.132401e+001	-2.000000e+002	0.000000e+000	-2.000000e+002	0.000000e+000
2049970.000	1.722720e-003	-9.427089e-001	-9.536309e+001	1.474030e+002	-2.000000e+002	0.000000e+000	-2.000000e+002	0.000000e+000
2699960.000	1.279900e-003	-1.143973e+000	-8.030804e+001	1.041499e+002	-2.000000e+002	0.000000e+000	-2.000000e+002	0.000000e+000
3349950.000	1.645546e-003	-1.353906e+000	-7.766368e+001	8.848142e+001	-2.000000e+002	0.000000e+000	-2.000000e+002	0.000000e+000
3999940.000	1.558084e-003	-1.547762e+000	-8.351183e+001	8.879425e+001	-2.000000e+002	0.000000e+000	-2.000000e+002	0.000000e+000
4649930.000	1.944090e-003	-1.757228e+000	-7.671289e+001	7.610816e+001	-2.000000e+002	0.000000e+000	-2.000000e+002	0.000000e+000
5299920.000	4.646358e-004	-1.964971e+000	-7.600612e+001	9.362704e+001	-2.000000e+002	0.000000e+000	-2.000000e+002	0.000000e+000
5949910.000	-9.597653e-004	-2.174836e+000	-7.430369e+001	9.726749e+001	-2.000000e+002	0.000000e+000	-2.000000e+002	0.000000e+000
6599900.000	7.875979e-004	-2.375856e+000	-7.136925e+001	8.618339e+001	-2.000000e+002	0.000000e+000	-2.000000e+002	0.000000e+000
7249890.000	-9.865960e-005	-2.589638e+000	-7.229176e+001	7.346307e+001	-2.000000e+002	0.000000e+000	-2.000000e+002	0.000000e+000
7899880.000	8.245829e-004	-2.791735e+000	-7.136568e+001	7.955021e+001	-2.000000e+002	0.000000e+000	-2.000000e+002	0.000000e+000
8549870.000	2.950209e-003	-3.013742e+000	-7.170096e+001	8.303797e+001	-2.000000e+002	0.000000e+000	-2.000000e+002	0.000000e+000
9199860.000	1.814196e-003	-3.214817e+000	-7.083912e+001	8.909741e+001	-2.000000e+002	0.000000e+000	-2.000000e+002	0.000000e+000
9849850.000	1.874837e-003	-3.427047e+000	-7.005211e+001	8.711996e+001	-2.000000e+002	0.000000e+000	-2.000000e+002	0.000000e+000
10499840.000	1.028843e-003	-3.622818e+000	-6.949564e+001	8.652306e+001	-2.000000e+002	0.000000e+000	-2.000000e+002	0.000000e+000
11149830.000	-1.302436e-003	-3.821233e+000	-6.922853e+001	8.685359e+001	-2.000000e+002	0.000000e+000	-2.000000e+002	0.000000e+000
11799820.000	-1.572745e-003	-4.026712e+000	-6.845263e+001	8.728418e+001	-2.000000e+002	0.000000e+000	-2.000000e+002	0.000000e+000
12449810.000	-1.041239e-004	-4.242383e+000	-6.848896e+001	8.787099e+001	-2.000000e+002	0.000000e+000	-2.000000e+002	0.000000e+000
13099800.000	1.379481e-003	-4.453522e+000	-6.795961e+001	8.821723e+001	-2.000000e+002	0.000000e+000	-2.000000e+002	0.000000e+000
13749790.000	1.295369e-004	-4.652331e+000	-6.753175e+001	8.649292e+001	-2.000000e+002	0.000000e+000	-2.000000e+002	0.000000e+000
14399780.000	-8.274928e-005	-4.868678e+000	-6.688014e+001	8.678171e+001	-2.000000e+002	0.000000e+000	-2.000000e+002	0.000000e+000
15049770.000	-8.126001e-004	-5.086709e+000	-6.655501e+001	8.586617e+001	-2.000000e+002	0.000000e+000	-2.000000e+002	0.000000e+000
15699760.000	5.600628e-004	-5.270976e+000	-6.644007e+001	8.812520e+001	-2.000000e+002	0.000000e+000	-2.000000e+002	0.000000e+000
16349750.000	5.682326e-004	-5.470173e+000	-6.595810e+001	8.526486e+001	-2.000000e+002	0.000000e+000	-2.000000e+002	0.000000e+000
16999740.000	-1.393231e-003	-5.687930e+000	-6.585171e+001	8.469695e+001	-2.000000e+002	0.000000e+000	-2.000000e+002	0.000000e+000
17649730.000	5.603577e-003	-5.919357e+000	-6.507781e+001	8.495619e+001	-2.000000e+002	0.000000e+000	-2.000000e+002	0.000000e+000
18299720.000	8.474883e-003	-6.138545e+000	-6.511882e+001	8.564198e+001	-2.000000e+002	0.000000e+000	-2.000000e+002	0.000000e+000
18949710.000	8.127100e-003	-6.339379e+000	-6.479191e+001	8.518741e+001	-2.000000e+002	0.000000e+000	-2.000000e+002	0.000000e+000
19599700.000	2.153931e-003	-6.520907e+000	-6.458720e+001	8.597655e+001	-2.000000e+002	0.000000e+000	-2.000000e+002	0.000000e+000
20249690.000	-9.283314e-004	-6.712818e+000	-6.438696e+001	8.425490e+001	-2.000000e+002	0.000000e+000	-2.000000e+002	0.000000e+000
20899680.000	-3.177442e-003	-6.949933e+000	-6.408335e+001	8.560207e+001	-2.000000e+002	0.000000e+000	-2.000000e+002	0.000000e+000
21549670.000	-3.455145e-003	-7.165975e+000	-6.406188e+001	8.598332e+001	-2.000000e+002	0.000000e+000	-2.000000e+002	0.000000e+000
22199660.000	-2.745155e-003	-7.360918e+000	-6.383995e+001	8.762384e+001	-2.000000e+002	0.000000e+000	-2.000000e+002	0.000000e+000
22849650.000	7.634182e-004	-7.538789e+000	-6.371748e+001	8.931080e+001	-2.000000e+002	0.000000e+000	-2.000000e+002	0.000000e+000
23499640.000	-4.754861e-004	-7.741642e+000	-6.309291e+001	9.156155e+001	-2.000000e+002	0.000000e+000	-2.000000e+002	0.000000e+000
24149630.000	-2.502375e-003	-7.955133e+000	-6.228661e+001	9.116918e+001	-2.000000e+002	0.000000e+000	-2.000000e+002	0.000000e+000
24799620.000	-2.044658e-003	-8.158344e+000	-6.195150e+001	8.988567e+001	-2.000000e+002	0.000000e+000	-2.000000e+002	0.000000e+000
25449610.000	1.089551e-003	-8.367430e+000	-6.155927e+001	8.820481e+001	-2.000000e+002	0.000000e+000	-2.000000e+002	0.000000e+000
26099600.000	6.371225e-004	-8.569835e+000	-6.131451e+001	8.671733e+001	-2.000000e+002	0.000000e+000	-2.000000e+002	0.000000e+000
26749590.000	-3.550897e-004	-8.778159e+000	-6.095443e+001	8.773199e+001	-2.000000e+002	0.000000e+000	-2.000000e+002	0.000000e+000
27399580.000	-9.195484e-004	-8.987872e+000	-6.079314e+001	8.638026e+001	-2.000000e+002	0.000000e+000	-2.000000e+002	0.000000e+000
28049570.000	-4.462785e-004	-9.200283e+000	-6.025816e+001	8.588157e+001	-2.000000e+002	0.000000e+000	-2.000000e+002	0.000000e+000
28699560.000	-3.860614e-004	-9.395516e+000	-6.012555e+001	8.470518e+001	-2.000000e+002	0.000000e+000	-2.000000e+002	0.000000e+000
29349550.000	-7.312427e-004	-9.599095e+000	-6.004461e+001	8.334502e+001	-2.000000e+002	0.000000e+000	-2.000000e+002	0.000000e+000
29999540.000	-1.028791e-003	-9.808492e+000	-5.999890e+001	8.339544e+001	-2.000000e+002	0.000000e+000	-2.000000e+002	0.000000e+000
30649530.000	-1.593857e-003	-1.001811e+001	-5.983338e+001	8.203703e+001	-2.000000e+002	0.000000e+000	-2.000000e+002	0.000000e+000
31299520.000	-5.812361e-004	-1.023149e+001	-5.973021e+001	8.257286e+001	-2.000000e+002	0.000000e+000	-2.000000e+002	0.000000e+000
31949510.000	-9.634673e-004	-1.043913e+001	-5.950447e+001	8.187088e+001	-2.000000e+002	0.000000e+000	-2.000000e+002	0.000000e+000
32599500.000	-1.759711e-003	-1.064747e+001	-5.955600e+001	8.059715e+001	-2.000000e+002	0.000000e+000	-2.000000e+002	0.000000e+000
33249490.000	-1.655135e-003	-1.085151e+001	-5.938022e+001	8.082964e+001	-2.000000e+002	0.000000e+000	-2.000000e+002	0.000000e+000
33899480.000	-2.077953e-003	-1.106331e+001	-5.905769e+001	8.080228e+001	-2.000000e+002	0.000000e+000	-2.000000e+002	0.000000e+000
34549470.000	-2.491305e-003	-1.125893e+001	-5.901844e+001	8.042539e+001	-2.000000e+002	0.000000e+000	-2.000000e+002	0.000000e+000
35199460.000	-2.847618e-003	-1.146637e+001	-5.877992e+001	8.010884e+001	-2.000000e+002	0.000000e+000	-2.000000e+002	0.000000e+000
35849450.000	-2.024507e-003	-1.166984e+001	-5.876110e+001	8.086150e+001	-2.000000e+002	0.000000e+000	-2.000000e+002	0.000000e+000
36499440.000	-2.350979e-003	-1.187273e+001	-5.865378e+001	8.000146e+001	-2.000000e+002	0.000000e+000	-2.000000e+002	0.000000e+000
37149430.000	-2.677645e-003	-1.208061e+001	-5.841670e+001	8.011223e+001	-2.000000e+002	0.000000e+000	-2.000000e+002	0.000000e+000
37799420.000	-3.145599e-003	-1.229025e+001	-5.828586e+001	7.938751e+001	-2.000000e+002	0.000000e+000	-2.000000e+002	0.000000e+000
38449410.000	-3.132261e-003	-1.249806e+001	-5.815531e+001	7.890890e+001	-2.000000e+002	0.000000e+000	-2.000000e+002	0.000000e+000
39099400.000	-3.099614e-003	-1.270730e+001	-5.812723e+001	7.907335e+001	-2.000000e+002	0.000000e+000	-2.000000e+002	0.000000e+000
39749390.000	-3.851343e-003	-1.292011e+001	-5.782228e+001	7.898335e+001	-2.000000e+002	0.000000e+000	-2.000000e+002	0.000000e+000
40399380.000	-4.867157e-003	-1.313003e+001	-5.776743e+001	7.873828e+001	-2.000000e+002	0.000000e+000	-2.000000e+002	0.000000e+000
41049370.000	-3.189175e-003	-1.333739e+001	-5.757012e+001	7.835814e+001	-2.000000e+002	0.000000e+000	-2.000000e+002	0.000000e+000
41699360.000	-3.044682e-003	-1.354027e+001	-5.749828e+001	7.823950e+001	-2.000000e+002	0.000000e+000	-2.000000e+002	0.000000e+000
42349350.000	-2.304604e-003	-1.374369e+001	-5.739728e+001	7.803393e+001	-2.000000e+002	0.000000e+000	-2.000000e+002	0.000000e+000
42999340.000	-3.707042e-003	-1.395312e+001	-5.727729e+001	7.749572e+001	-2.000000e+002	0.000000e+000	-2.000000e+002	0.000000e+000
43649330.000	-3.407472e-003	-1.415729e+001	-5.716419e+001	7.779864e+001	-2.000000e+002	0.000000e+000	-2.000000e+002	0.000000e+000
44299320.000	-3.598923e-003	-1.436752e+001	-5.712666e+001	7.772970e+001	-2.000000e+002	0.000000e+000	-2.000000e+002	0.000000e+000
44949310.000	-4.083003e-003	-1.457517e+001	-5.702792e+001	7.722486e+001	-2.000000e+002	0.000000e+000	-2.000000e+002	0.000000e+000
45599300.000	-4.665385e-003	-1.478466e+001	-5.695018e+001	7.726860e+001	-2.000000e+002	0.000000e+000	-2.000000e+002	0.000000e+000
46249290.000	-5.076621e-003	-1.499256e+001	-5.685195e+001	7.680385e+001	-2.000000e+002	0.000000e+000	-2.000000e+002	0.000000e+000
46899280.000	-5.459954e-003	-1.519494e+001	-5.674193e+001	7.715358e+001	-2.000000e+002	0.000000e+000	-2.000000e+002	0.000000e+000
47549270.000	-6.376987e-003	-1.540389e+001	-5.669056e+001	7.710298e+001	-2.000000e+002	0.000000e+000	-2.000000e+002	0.000000e+000
48199260.000	-7.648208e-003	-1.561368e+001	-5.653038e+001	7.740918e+001	-2.000000e+002	0.000000e+000	-2.000000e+002	0.000000e+000
48849250.000	-8.352834e-003	-1.582587e+001	-5.654433e+001	7.700207e+001	-2.000000e+002	0.000000e+000	-2.000000e+002	0.000000e+000
49499240.000	-8.285081e-003	-1.602871e+001	-5.642786e+001	7.677896e+001	-2.000000e+002	0.000000e+000	-2.000000e+002	0.000000e+000
50149230.000	-8.394657e-003	-1.623605e+001	-5.636687e+001	7.747605e+001	-2.000000e+002	0.000000e+000	-2.000000e+002	0.000000e+000
50799220.000	-9.025874e-003	-1.644752e+001	-5.617546e+001	7.728717e+001	-2.000000e+002	0.000000e+000	-2.000000e+002	0.000000e+000
51449210.000	-8.450730e-003	-1.665625e+001	-5.611923e+001	7.730464e+001	-2.000000e+002	0.000000e+000	-2.000000e+002	0.000000e+000
52099200.000	-8.641047e-003	-1.686094e+001	-5.612492e+001	7.652289e+001	-2.000000e+002	0.000000e+000	-2.000000e+002	0.000000e+000
52749190.000	-9.164422e-003	-1.706679e+001	-5.614402e+001	7.688614e+001	-2.000000e+002	0.000000e+000	-2.000000e+002	0.000000e+000
53399180.000	-9.460975e-003	-1.727942e+001	-5.612877e+001	7.712415e+001	-2.000000e+002	0.000000e+000	-2.000000e+002	0.000000e+000
54049170.000	-9.735073e-003	-1.748601e+001	-5.619224e+001	7.834119e+001	-2.000000e+002	0.000000e+000	-2.000000e+002	0.000000e+000
54699160.000	-1.012895e-002	-1.769502e+001	-5.604946e+001	7.984279e+001	-2.000000e+002	0.000000e+000	-2.000000e+002	0.000000e+000
55349150.000	-1.123933e-002	-1.790349e+001	-5.595645e+001	8.122769e+001	-2.000000e+002	0.000000e+000	-2.000000e+002	0.000000e+000
55999140.000	-1.162314e-002	-1.811460e+001	-5.567382e+001	8.283945e+001	-2.000000e+002	0.000000e+000	-2.000000e+002	0.000000e+000
56649130.000	-1.321168e-002	-1.831646e+001	-5.529927e+001	8.476263e+001	-2.000000e+002	0.000000e+000	-2.000000e+002	0.000000e+000
57299120.000	-1.376097e-002	-1.851850e+001	-5.465265e+001	8.477972e+001	-2.000000e+002	0.000000e+000	-2.000000e+002	0.000000e+000
57949110.000	-1.412094e-002	-1.872155e+001	-5.420502e+001	8.285835e+001	-2.000000e+002	0.000000e+000	-2.000000e+002	0.000000e+000
58599100.000	-1.337660e-002	-1.892422e+001	-5.410559e+001	8.100169e+001	-2.000000e+002	0.000000e+000	-2.000000e+002	0.000000e+000
59249090.000	-1.424166e-002	-1.913253e+001	-5.395875e+001	7.990652e+001	-2.000000e+002	0.000000e+000	-2.000000e+002	0.000000e+000
59899080.000	-1.371545e-002	-1.933537e+001	-5.398145e+001	7.857154e+001	-2.000000e+002	0.000000e+000	-2.000000e+002	0.000000e+000
60549070.000	-1.541476e-002	-1.954148e+001	-5.384558e+001	7.869947e+001	-2.000000e+002	0.000000e+000	-2.000000e+002	0.000000e+000
61199060.000	-1.619537e-002	-1.974897e+001	-5.380078e+001	7.808273e+001	-2.000000e+002	0.000000e+000	-2.000000e+002	0.000000e+000
61849050.000	-1.640634e-002	-1.994965e+001	-5.377028e+001	7.765117e+001	-2.000000e+002	0.000000e+000	-2.000000e+002	0.000000e+000
62499040.000	-1.734597e-002	-2.015597e+001	-5.367063e+001	7.736926e+001	-2.000000e+002	0.000000e+000	-2.000000e+002	0.000000e+000
63149030.000	-1.761908e-002	-2.035963e+001	-5.356387e+001	7.742806e+001	-2.000000e+002	0.000000e+000	-2.000000e+002	0.000000e+000
63799020.000	-1.851390e-002	-2.056346e+001	-5.341376e+001	7.741081e+001	-2.000000e+002	0.000000e+000	-2.000000e+002	0.000000e+000
64449010.000	-1.938369e-002	-2.076709e+001	-5.330226e+001	7.706533e+001	-2.000000e+002	0.000000e+000	-2.000000e+002	0.000000e+000
65099000.000	-1.989431e-002	-2.097224e+001	-5.317305e+001	7.649538e+001	-2.000000e+002	0.000000e+000	-2.000000e+002	0.000000e+000
65748990.000	-1.943261e-002	-2.117806e+001	-5.307746e+001	7.599655e+001	-2.000000e+002	0.000000e+000	-2.000000e+002	0.000000e+000
66398980.000	-1.965412e-002	-2.138589e+001	-5.293548e+001	7.554399e+001	-2.000000e+002	0.000000e+000	-2.000000e+002	0.000000e+000
67048970.000	-1.980227e-002	-2.159142e+001	-5.286953e+001	7.455043e+001	-2.000000e+002	0.000000e+000	-2.000000e+002	0.000000e+000
67698960.000	-2.036238e-002	-2.179502e+001	-5.277064e+001	7.418804e+001	-2.000000e+002	0.000000e+000	-2.000000e+002	0.000000e+000
68348950.000	-2.075191e-002	-2.199749e+001	-5.275951e+001	7.354253e+001	-2.000000e+002	0.000000e+000	-2.000000e+002	0.000000e+000
68998940.000	-2.121739e-002	-2.220246e+001	-5.275215e+001	7.317675e+001	-2.000000e+002	0.000000e+000	-2.000000e+002	0.000000e+000
69648930.000	-2.083390e-002	-2.241033e+001	-5.270102e+001	7.315519e+001	-2.000000e+002	0.000000e+000	-2.000000e+002	0.000000e+000
70298920.000	-2.106751e-002	-2.262110e+001	-5.267821e+001	7.311197e+001	-2.000000e+002	0.000000e+000	-2.000000e+002	0.000000e+000
70948910.000	-2.195827e-002	-2.283139e+001	-5.262504e+001	7.254512e+001	-2.000000e+002	0.000000e+000	-2.000000e+002	0.000000e+000
71598900.000	-2.175980e-002	-2.303371e+001	-5.263890e+001	7.283656e+001	-2.000000e+002	0.000000e+000	-2.000000e+002	0.000000e+000
72248890.000	-2.278480e-002	-2.324570e+001	-5.257392e+001	7.274562e+001	-2.000000e+002	0.000000e+000	-2.000000e+002	0.000000e+000
72898880.000	-2.234086e-002	-2.345270e+001	-5.250319e+001	7.311791e+001	-2.000000e+002	0.000000e+000	-2.000000e+002	0.000000e+000
73548870.000	-2.328618e-002	-2.365656e+001	-5.241833e+001	7.310923e+001	-2.000000e+002	0.000000e+000	-2.000000e+002	0.000000e+000
74198860.000	-2.373127e-002	-2.386476e+001	-5.235381e+001	7.313950e+001	-2.000000e+002	0.000000e+000	-2.000000e+002	0.000000e+000
74848850.000	-2.431986e-002	-2.407162e+001	-5.231446e+001	7.295131e+001	-2.000000e+002	0.000000e+000	-2.000000e+002	0.000000e+000
75498840.000	-2.390619e-002	-2.427794e+001	-5.219907e+001	7.311649e+001	-2.000000e+002	0.000000e+000	-2.000000e+002	0.000000e+000
76148830.000	-2.471040e-002	-2.448544e+001	-5.218124e+001	7.337615e+001	-2.000000e+002	0.000000e+000	-2.000000e+002	0.000000e+000
76798820.000	-2.479856e-002	-2.469327e+001	-5.212050e+001	7.261307e+001	-2.000000e+002	0.000000e+000	-2.000000e+002	0.000000e+000
77448810.000	-2.629522e-002	-2.489425e+001	-5.208116e+001	7.269454e+001	-2.000000e+002	0.000000e+000	-2.000000e+002	0.000000e+000
78098800.000	-2.682649e-002	-2.510059e+001	-5.205046e+001	7.309483e+001	-2.000000e+002	0.000000e+000	-2.000000e+002	0.000000e+000
78748790.000	-2.729501e-002	-2.530885e+001	-5.192635e+001	7.360490e+001	-2.000000e+002	0.000000e+000	-2.000000e+002	0.000000e+000
79398780.000	-2.743188e-002	-2.551247e+001	-5.181070e+001	7.366137e+001	-2.000000e+002	0.000000e+000	-2.000000e+002	0.000000e+000
80048770.000	-2.803774e-002	-2.572807e+001	-5.172781e+001	7.379068e+001	-2.000000e+002	0.000000e+000	-2.000000e+002	0.000000e+000
80698760.000	-2.871451e-002	-2.593487e+001	-5.159635e+001	7.410481e+001	-2.000000e+002	0.000000e+000	-2.000000e+002	0.000000e+000
81348750.000	-2.913473e-002	-2.613890e+001	-5.156746e+001	7.460586e+001	-2.000000e+002	0.000000e+000	-2.000000e+002	0.000000e+000
81998740.000	-2.936677e-002	-2.634782e+001	-5.138758e+001	7.508204e+001	-2.000000e+002	0.000000e+000	-2.000000e+002	0.000000e+000
82648730.000	-3.019667e-002	-2.654733e+001	-5.122747e+001	7.497694e+001	-2.000000e+002	0.000000e+000	-2.000000e+002	0.000000e+000
83298720.000	-3.149903e-002	-2.675754e+001	-5.101792e+001	7.473644e+001	-2.000000e+002	0.000000e+000	-2.000000e+002	0.000000e+000
83948710.000	-3.171276e-002	-2.696148e+001	-5.082797e+001	7.479785e+001	-2.000000e+002	0.000000e+000	-2.000000e+002	0.000000e+000
84598700.000	-3.158477e-002	-2.716691e+001	-5.059136e+001	7.437766e+001	-2.000000e+002	0.000000e+000	-2.000000e+002	0.000000e+000
85248690.000	-3.164646e-002	-2.737062e+001	-5.043910e+001	7.337683e+001	-2.000000e+002	0.000000e+000	-2.000000e+002	0.000000e+000
85898680.000	-3.205937e-002	-2.757937e+001	-5.029434e+001	7.191892e+001	-2.000000e+002	0.000000e+000	-2.000000e+002	0.000000e+000
86548670.000	-3.182256e-002	-2.778050e+001	-5.026747e+001	7.116531e+001	-2.000000e+002	0.000000e+000	-2.000000e+002	0.000000e+000
87198660.000	-3.169945e-002	-2.798787e+001	-5.024203e+001	7.027341e+001	-2.000000e+002	0.000000e+000	-2.000000e+002	0.000000e+000
87848650.000	-3.224308e-002	-2.819688e+001	-5.024907e+001	6.938077e+001	-2.000000e+002	0.000000e+000	-2.000000e+002	0.000000e+000
88498640.000	-3.277819e-002	-2.840203e+001	-5.022089e+001	6.894530e+001	-2.000000e+002	0.000000e+000	-2.000000e+002	0.000000e+000
89148630.000	-3.359172e-002	-2.860959e+001	-5.030902e+001	6.862360e+001	-2.000000e+002	0.000000e+000	-2.000000e+002	0.000000e+000
89798620.000	-3.365213e-002	-2.882040e+001	-5.037561e+001	6.856188e+001	-2.000000e+002	0.000000e+000	-2.000000e+002	0.000000e+000
90448610.000	-3.374188e-002	-2.902770e+001	-5.038401e+001	6.833603e+001	-2.000000e+002	0.000000e+000	-2.000000e+002	0.000000e+000
91098600.000	-3.425375e-002	-2.924420e+001	-5.037137e+001	6.875328e+001	-2.000000e+002	0.000000e+000	-2.000000e+002	0.000000e+000
91748590.000	-3.416395e-002	-2.945341e+001	-5.031060e+001	6.892026e+001	-2.000000e+002	0.000000e+000	-2.000000e+002	0.000000e+000
92398580.000	-3.490556e-002	-2.965840e+001	-5.036859e+001	6.950579e+001	-2.000000e+002	0.000000e+000	-2.000000e+002	0.000000e+000
93048570.000	-3.538516e-002	-2.987083e+001	-5.035801e+001	7.032557e+001	-2.000000e+002	0.000000e+000	-2.000000e+002	0.000000e+000
93698560.000	-3.607891e-002	-3.008177e+001	-5.014393e+001	7.077523e+001	-2.000000e+002	0.000000e+000	-2.000000e+002	0.000000e+000
94348550.000	-3.697827e-002	-3.028814e+001	-4.997789e+001	7.134499e+001	-2.000000e+002	0.000000e+000	-2.000000e+002	0.000000e+000
94998540.000	-3.729535e-002	-3.049664e+001	-4.988140e+001	7.128294e+001	-2.000000e+002	0.000000e+000	-2.000000e+002	0.000000e+000
95648530.000	-3.792410e-002	-3.070178e+001	-4.977818e+001	7.125481e+001	-2.000000e+002	0.000000e+000	-2.000000e+002	0.000000e+000
96298520.000	-3.829345e-002	-3.090204e+001	-4.963376e+001	7.135933e+001	-2.000000e+002	0.000000e+000	-2.000000e+002	0.000000e+000
96948510.000	-3.952460e-002	-3.110718e+001	-4.948071e+001	7.130292e+001	-2.000000e+002	0.000000e+000	-2.000000e+002	0.000000e+000
97598500.000	-3.953657e-002	-3.130883e+001	-4.932942e+001	7.095694e+001	-2.000000e+002	0.000000e+000	-2.000000e+002	0.000000e+000
98248490.000	-3.867866e-002	-3.151281e+001	-4.928677e+001	7.009651e+001	-2.000000e+002	0.000000e+000	-2.000000e+002	0.000000e+000
