!Keysight Technologies,E5063A,MY54503115,A.05.08
!Date: Mon Dec 11 13:55:13 2023
!Data & Calibration Information:
!Freq	S11:NONE(--)	S21:NONE(--)	S12:NONE(--)	S22:NONE(--)
# Hz S dB R 50
100000.000	4.973724e-002	-5.970312e-001	-8.456883e+001	3.926980e+001	-2.000000e+002	0.000000e+000	-2.000000e+002	0.000000e+000
749990.000	3.995064e-004	-5.876212e-001	-9.171162e+001	4.617250e+000	-2.000000e+002	0.000000e+000	-2.000000e+002	0.000000e+000
1399980.000	3.380814e-003	-7.574984e-001	-9.501290e+001	-9.686825e+001	-2.000000e+002	0.000000e+000	-2.000000e+002	0.000000e+000
2049970.000	1.083381e-004	-9.573306e-001	-7.947104e+001	1.288563e+002	-2.000000e+002	0.000000e+000	-2.000000e+002	0.000000e+000
2699960.000	4.901546e-004	-1.158016e+000	-9.118592e+001	-1.613752e+002	-2.000000e+002	0.000000e+000	-2.000000e+002	0.000000e+000
3349950.000	1.194112e-003	-1.364260e+000	-7.535130e+001	1.049843e+002	-2.000000e+002	0.000000e+000	-2.000000e+002	0.000000e+000
3999940.000	2.175597e-003	-1.561834e+000	-7.856285e+001	6.658538e+001	-2.000000e+002	0.000000e+000	-2.000000e+002	0.000000e+000
4649930.000	3.424224e-003	-1.775518e+000	-7.428318e+001	9.759509e+001	-2.000000e+002	0.000000e+000	-2.000000e+002	0.000000e+000
5299920.000	1.102854e-003	-1.974322e+000	-7.608976e+001	9.848859e+001	-2.000000e+002	0.000000e+000	-2.000000e+002	0.000000e+000
5949910.000	1.430152e-003	-2.181472e+000	-7.392060e+001	9.010259e+001	-2.000000e+002	0.000000e+000	-2.000000e+002	0.000000e+000
6599900.000	6.646448e-004	-2.387376e+000	-7.294725e+001	7.874211e+001	-2.000000e+002	0.000000e+000	-2.000000e+002	0.000000e+000
7249890.000	9.362614e-004	-2.597206e+000	-7.200264e+001	8.031697e+001	-2.000000e+002	0.000000e+000	-2.000000e+002	0.000000e+000
7899880.000	8.896726e-004	-2.808700e+000	-7.178413e+001	8.645016e+001	-2.000000e+002	0.000000e+000	-2.000000e+002	0.000000e+000
8549870.000	3.746232e-003	-3.023265e+000	-7.166153e+001	8.735769e+001	-2.000000e+002	0.000000e+000	-2.000000e+002	0.000000e+000
9199860.000	2.488906e-003	-3.230321e+000	-7.050093e+001	8.515676e+001	-2.000000e+002	0.000000e+000	-2.000000e+002	0.000000e+000
9849850.000	2.979047e-003	-3.435490e+000	-7.028763e+001	8.705523e+001	-2.000000e+002	0.000000e+000	-2.000000e+002	0.000000e+000
10499840.000	1.230600e-003	-3.632902e+000	-6.951769e+001	8.705873e+001	-2.000000e+002	0.000000e+000	-2.000000e+002	0.000000e+000
11149830.000	-2.995876e-004	-3.831538e+000	-6.909450e+001	8.757194e+001	-2.000000e+002	0.000000e+000	-2.000000e+002	0.000000e+000
11799820.000	-4.813756e-004	-4.036238e+000	-6.872417e+001	8.611167e+001	-2.000000e+002	0.000000e+000	-2.000000e+002	0.000000e+000
12449810.000	5.444707e-004	-4.248323e+000	-6.791101e+001	8.729185e+001	-2.000000e+002	0.000000e+000	-2.000000e+002	0.000000e+000
13099800.000	1.455191e-003	-4.464723e+000	-6.779983e+001	8.467212e+001	-2.000000e+002	0.000000e+000	-2.000000e+002	0.000000e+000
13749790.000	1.022559e-003	-4.663421e+000	-6.723294e+001	8.714699e+001	-2.000000e+002	0.000000e+000	-2.000000e+002	0.000000e+000
14399780.000	-3.300930e-004	-4.880218e+000	-6.675079e+001	8.685767e+001	-2.000000e+002	0.000000e+000	-2.000000e+002	0.000000e+000
15049770.000	-6.651445e-004	-5.095382e+000	-6.644341e+001	8.627531e+001	-2.000000e+002	0.000000e+000	-2.000000e+002	0.000000e+000
15699760.000	1.623209e-003	-5.278247e+000	-6.605498e+001	8.576159e+001	-2.000000e+002	0.000000e+000	-2.000000e+002	0.000000e+000
16349750.000	1.611843e-003	-5.482502e+000	-6.581719e+001	8.438990e+001	-2.000000e+002	0.000000e+000	-2.000000e+002	0.000000e+000
16999740.000	-1.104945e-003	-5.695835e+000	-6.556472e+001	8.533997e+001	-2.000000e+002	0.000000e+000	-2.000000e+002	0.000000e+000
17649730.000	6.369192e-003	-5.927167e+000	-6.525905e+001	8.646912e+001	-2.000000e+002	0.000000e+000	-2.000000e+002	0.000000e+000
18299720.000	9.216003e-003	-6.148403e+000	-6.471609e+001	8.480579e+001	-2.000000e+002	0.000000e+000	-2.000000e+002	0.000000e+000
18949710.000	8.272825e-003	-6.349142e+000	-6.451790e+001	8.534508e+001	-2.000000e+002	0.000000e+000	-2.000000e+002	0.000000e+000
19599700.000	3.252461e-003	-6.531372e+000	-6.426066e+001	8.582271e+001	-2.000000e+002	0.000000e+000	-2.000000e+002	0.000000e+000
20249690.000	-6.902248e-004	-6.723628e+000	-6.416648e+001	8.429038e+001	-2.000000e+002	0.000000e+000	-2.000000e+002	0.000000e+000
20899680.000	-2.528399e-003	-6.960249e+000	-6.392307e+001	8.508162e+001	-2.000000e+002	0.000000e+000	-2.000000e+002	0.000000e+000
21549670.000	-2.832141e-003	-7.175357e+000	-6.380080e+001	8.516455e+001	-2.000000e+002	0.000000e+000	-2.000000e+002	0.000000e+000
22199660.000	-1.872540e-003	-7.367555e+000	-6.372099e+001	8.721676e+001	-2.000000e+002	0.000000e+000	-2.000000e+002	0.000000e+000
22849650.000	1.108223e-003	-7.550663e+000	-6.342296e+001	8.805715e+001	-2.000000e+002	0.000000e+000	-2.000000e+002	0.000000e+000
23499640.000	2.575127e-004	-7.752923e+000	-6.283290e+001	9.009119e+001	-2.000000e+002	0.000000e+000	-2.000000e+002	0.000000e+000
24149630.000	-1.760276e-003	-7.963319e+000	-6.223840e+001	9.112301e+001	-2.000000e+002	0.000000e+000	-2.000000e+002	0.000000e+000
24799620.000	-8.374254e-004	-8.169576e+000	-6.160551e+001	8.912601e+001	-2.000000e+002	0.000000e+000	-2.000000e+002	0.000000e+000
25449610.000	1.700339e-003	-8.377251e+000	-6.148179e+001	8.741474e+001	-2.000000e+002	0.000000e+000	-2.000000e+002	0.000000e+000
26099600.000	1.058557e-003	-8.579865e+000	-6.130647e+001	8.674358e+001	-2.000000e+002	0.000000e+000	-2.000000e+002	0.000000e+000
26749590.000	-2.213397e-005	-8.787223e+000	-6.102962e+001	8.607525e+001	-2.000000e+002	0.000000e+000	-2.000000e+002	0.000000e+000
27399580.000	-2.290984e-004	-8.998698e+000	-6.065248e+001	8.529101e+001	-2.000000e+002	0.000000e+000	-2.000000e+002	0.000000e+000
28049570.000	4.669484e-004	-9.208983e+000	-6.038471e+001	8.582611e+001	-2.000000e+002	0.000000e+000	-2.000000e+002	0.000000e+000
28699560.000	3.182834e-004	-9.408388e+000	-6.015436e+001	8.326403e+001	-2.000000e+002	0.000000e+000	-2.000000e+002	0.000000e+000
29349550.000	2.270820e-004	-9.611105e+000	-5.996153e+001	8.386902e+001	-2.000000e+002	0.000000e+000	-2.000000e+002	0.000000e+000
29999540.000	-1.498306e-004	-9.814079e+000	-6.004797e+001	8.207748e+001	-2.000000e+002	0.000000e+000	-2.000000e+002	0.000000e+000
30649530.000	-5.377136e-004	-1.002598e+001	-5.972791e+001	8.277522e+001	-2.000000e+002	0.000000e+000	-2.000000e+002	0.000000e+000
31299520.000	-1.940683e-004	-1.024093e+001	-5.962696e+001	8.149577e+001	-2.000000e+002	0.000000e+000	-2.000000e+002	0.000000e+000
31949510.000	-6.933288e-004	-1.044550e+001	-5.935505e+001	8.126902e+001	-2.000000e+002	0.000000e+000	-2.000000e+002	0.000000e+000
32599500.000	-7.132585e-004	-1.065209e+001	-5.929278e+001	8.164587e+001	-2.000000e+002	0.000000e+000	-2.000000e+002	0.000000e+000
33249490.000	-1.009889e-003	-1.085988e+001	-5.913808e+001	8.148383e+001	-2.000000e+002	0.000000e+000	-2.000000e+002	0.000000e+000
33899480.000	-9.669687e-004	-1.107102e+001	-5.895334e+001	8.113729e+001	-2.000000e+002	0.000000e+000	-2.000000e+002	0.000000e+000
34549470.000	-1.610869e-003	-1.126904e+001	-5.883675e+001	8.160799e+001	-2.000000e+002	0.000000e+000	-2.000000e+002	0.000000e+000
35199460.000	-9.943668e-004	-1.147351e+001	-5.866198e+001	7.990724e+001	-2.000000e+002	0.000000e+000	-2.000000e+002	0.000000e+000
35849450.000	-1.849692e-003	-1.167570e+001	-5.857139e+001	7.943720e+001	-2.000000e+002	0.000000e+000	-2.000000e+002	0.000000e+000
36499440.000	-1.689125e-003	-1.188333e+001	-5.835200e+001	7.984253e+001	-2.000000e+002	0.000000e+000	-2.000000e+002	0.000000e+000
37149430.000	-1.915673e-003	-1.208839e+001	-5.830995e+001	7.981026e+001	-2.000000e+002	0.000000e+000	-2.000000e+002	0.000000e+000
37799420.000	-2.379976e-003	-1.229796e+001	-5.817114e+001	7.977159e+001	-2.000000e+002	0.000000e+000	-2.000000e+002	0.000000e+000
38449410.000	-2.260471e-003	-1.250700e+001	-5.803646e+001	7.924894e+001	-2.000000e+002	0.000000e+000	-2.000000e+002	0.000000e+000
39099400.000	-2.790444e-003	-1.271706e+001	-5.788753e+001	7.904253e+001	-2.000000e+002	0.000000e+000	-2.000000e+002	0.000000e+000
39749390.000	-3.199432e-003	-1.292935e+001	-5.792967e+001	7.851938e+001	-2.000000e+002	0.000000e+000	-2.000000e+002	0.000000e+000
40399380.000	-4.239182e-003	-1.313961e+001	-5.774160e+001	7.913778e+001	-2.000000e+002	0.000000e+000	-2.000000e+002	0.000000e+000
41049370.000	-3.745752e-003	-1.334176e+001	-5.765206e+001	7.932255e+001	-2.000000e+002	0.000000e+000	-2.000000e+002	0.000000e+000
41699360.000	-2.327528e-003	-1.354897e+001	-5.738990e+001	7.884021e+001	-2.000000e+002	0.000000e+000	-2.000000e+002	0.000000e+000
42349350.000	-2.241691e-003	-1.375314e+001	-5.733460e+001	7.838975e+001	-2.000000e+002	0.000000e+000	-2.000000e+002	0.000000e+000
42999340.000	-3.635204e-003	-1.395708e+001	-5.725415e+001	7.854471e+001	-2.000000e+002	0.000000e+000	-2.000000e+002	0.000000e+000
43649330.000	-3.306156e-003	-1.416730e+001	-5.722173e+001	7.811909e+001	-2.000000e+002	0.000000e+000	-2.000000e+002	0.000000e+000
44299320.000	-3.374576e-003	-1.437407e+001	-5.707469e+001	7.751138e+001	-2.000000e+002	0.000000e+000	-2.000000e+002	0.000000e+000
44949310.000	-3.470714e-003	-1.458533e+001	-5.698264e+001	7.783057e+001	-2.000000e+002	0.000000e+000	-2.000000e+002	0.000000e+000
45599300.000	-3.632596e-003	-1.479237e+001	-5.705730e+001	7.849707e+001	-2.000000e+002	0.000000e+000	-2.000000e+002	0.000000e+000
46249290.000	-4.463654e-003	-1.499968e+001	-5.688062e+001	7.898084e+001	-2.000000e+002	0.000000e+000	-2.000000e+002	0.000000e+000
46899280.000	-4.868581e-003	-1.520767e+001	-5.670653e+001	8.032921e+001	-2.000000e+002	0.000000e+000	-2.000000e+002	0.000000e+000
47549270.000	-6.677260e-003	-1.541198e+001	-5.645095e+001	8.042340e+001	-2.000000e+002	0.000000e+000	-2.000000e+002	0.000000e+000
48199260.000	-7.823725e-003	-1.561879e+001	-5.626937e+001	7.953379e+001	-2.000000e+002	0.000000e+000	-2.000000e+002	0.000000e+000
48849250.000	-8.140699e-003	-1.583022e+001	-5.621031e+001	7.943118e+001	-2.000000e+002	0.000000e+000	-2.000000e+002	0.000000e+000
49499240.000	-8.325341e-003	-1.603495e+001	-5.608181e+001	7.901706e+001	-2.000000e+002	0.000000e+000	-2.000000e+002	0.000000e+000
50149230.000	-8.053225e-003	-1.624473e+001	-5.605564e+001	7.973258e+001	-2.000000e+002	0.000000e+000	-2.000000e+002	0.000000e+000
50799220.000	-8.957984e-003	-1.645299e+001	-5.590577e+001	7.968255e+001	-2.000000e+002	0.000000e+000	-2.000000e+002	0.000000e+000
51449210.000	-8.692443e-003	-1.666116e+001	-5.572613e+001	7.987069e+001	-2.000000e+002	0.000000e+000	-2.000000e+002	0.000000e+000
52099200.000	-8.726999e-003	-1.686567e+001	-5.552031e+001	7.904910e+001	-2.000000e+002	0.000000e+000	-2.000000e+002	0.000000e+000
52749190.000	-8.670113e-003	-1.707125e+001	-5.553396e+001	7.948412e+001	-2.000000e+002	0.000000e+000	-2.000000e+002	0.000000e+000
53399180.000	-9.441579e-003	-1.728233e+001	-5.541764e+001	7.986361e+001	-2.000000e+002	0.000000e+000	-2.000000e+002	0.000000e+000
54049170.000	-9.307042e-003	-1.748278e+001	-5.525358e+001	8.050984e+001	-2.000000e+002	0.000000e+000	-2.000000e+002	0.000000e+000
54699160.000	-9.985804e-003	-1.769681e+001	-5.496811e+001	8.017897e+001	-2.000000e+002	0.000000e+000	-2.000000e+002	0.000000e+000
55349150.000	-1.086644e-002	-1.790058e+001	-5.484117e+001	8.053866e+001	-2.000000e+002	0.000000e+000	-2.000000e+002	0.000000e+000
55999140.000	-1.056691e-002	-1.810881e+001	-5.467802e+001	8.054428e+001	-2.000000e+002	0.000000e+000	-2.000000e+002	0.000000e+000
56649130.000	-1.179800e-002	-1.831590e+001	-5.460003e+001	8.019725e+001	-2.000000e+002	0.000000e+000	-2.000000e+002	0.000000e+000
57299120.000	-1.248658e-002	-1.852030e+001	-5.426806e+001	8.060399e+001	-2.000000e+002	0.000000e+000	-2.000000e+002	0.000000e+000
57949110.000	-1.254460e-002	-1.872408e+001	-5.400936e+001	7.976616e+001	-2.000000e+002	0.000000e+000	-2.000000e+002	0.000000e+000
58599100.000	-1.258074e-002	-1.892363e+001	-5.388873e+001	7.859369e+001	-2.000000e+002	0.000000e+000	-2.000000e+002	0.000000e+000
59249090.000	-1.359811e-002	-1.913073e+001	-5.369143e+001	7.776134e+001	-2.000000e+002	0.000000e+000	-2.000000e+002	0.000000e+000
59899080.000	-1.292896e-002	-1.933673e+001	-5.361795e+001	7.698595e+001	-2.000000e+002	0.000000e+000	-2.000000e+002	0.000000e+000
60549070.000	-1.377323e-002	-1.954185e+001	-5.360459e+001	7.649851e+001	-2.000000e+002	0.000000e+000	-2.000000e+002	0.000000e+000
61199060.000	-1.495814e-002	-1.974805e+001	-5.347052e+001	7.593593e+001	-2.000000e+002	0.000000e+000	-2.000000e+002	0.000000e+000
61849050.000	-1.517724e-002	-1.995189e+001	-5.339132e+001	7.523534e+001	-2.000000e+002	0.000000e+000	-2.000000e+002	0.000000e+000
62499040.000	-1.600359e-002	-2.015542e+001	-5.335412e+001	7.501943e+001	-2.000000e+002	0.000000e+000	-2.000000e+002	0.000000e+000
63149030.000	-1.582642e-002	-2.035798e+001	-5.329478e+001	7.454719e+001	-2.000000e+002	0.000000e+000	-2.000000e+002	0.000000e+000
63799020.000	-1.721795e-002	-2.056676e+001	-5.321181e+001	7.402666e+001	-2.000000e+002	0.000000e+000	-2.000000e+002	0.000000e+000
64449010.000	-1.774171e-002	-2.077088e+001	-5.321875e+001	7.412977e+001	-2.000000e+002	0.000000e+000	-2.000000e+002	0.000000e+000
65099000.000	-1.831930e-002	-2.097684e+001	-5.310430e+001	7.399426e+001	-2.000000e+002	0.000000e+000	-2.000000e+002	0.000000e+000
65748990.000	-1.830789e-002	-2.118109e+001	-5.305174e+001	7.391684e+001	-2.000000e+002	0.000000e+000	-2.000000e+002	0.000000e+000
66398980.000	-1.826765e-002	-2.138697e+001	-5.292404e+001	7.338007e+001	-2.000000e+002	0.000000e+000	-2.000000e+002	0.000000e+000
67048970.000	-1.905984e-002	-2.159407e+001	-5.283073e+001	7.354831e+001	-2.000000e+002	0.000000e+000	-2.000000e+002	0.000000e+000
67698960.000	-1.920505e-002	-2.179645e+001	-5.279326e+001	7.286535e+001	-2.000000e+002	0.000000e+000	-2.000000e+002	0.000000e+000
68348950.000	-2.007810e-002	-2.200123e+001	-5.273464e+001	7.232334e+001	-2.000000e+002	0.000000e+000	-2.000000e+002	0.000000e+000
68998940.000	-2.031494e-002	-2.220798e+001	-5.269648e+001	7.220989e+001	-2.000000e+002	0.000000e+000	-2.000000e+002	0.000000e+000
69648930.000	-2.070547e-002	-2.241581e+001	-5.262837e+001	7.198953e+001	-2.000000e+002	0.000000e+000	-2.000000e+002	0.000000e+000
70298920.000	-1.997646e-002	-2.262703e+001	-5.261456e+001	7.197253e+001	-2.000000e+002	0.000000e+000	-2.000000e+002	0.000000e+000
70948910.000	-2.114258e-002	-2.283455e+001	-5.249370e+001	7.213109e+001	-2.000000e+002	0.000000e+000	-2.000000e+002	0.000000e+000
71598900.000	-2.071219e-002	-2.304278e+001	-5.247629e+001	7.215881e+001	-2.000000e+002	0.000000e+000	-2.000000e+002	0.000000e+000
72248890.000	-2.150435e-002	-2.324658e+001	-5.242165e+001	7.273648e+001	-2.000000e+002	0.000000e+000	-2.000000e+002	0.000000e+000
72898880.000	-2.190440e-002	-2.345747e+001	-5.229430e+001	7.223142e+001	-2.000000e+002	0.000000e+000	-2.000000e+002	0.000000e+000
73548870.000	-2.252972e-002	-2.365984e+001	-5.225721e+001	7.214686e+001	-2.000000e+002	0.000000e+000	-2.000000e+002	0.000000e+000
74198860.000	-2.271718e-002	-2.386671e+001	-5.217819e+001	7.187425e+001	-2.000000e+002	0.000000e+000	-2.000000e+002	0.000000e+000
74848850.000	-2.358873e-002	-2.407474e+001	-5.214276e+001	7.188415e+001	-2.000000e+002	0.000000e+000	-2.000000e+002	0.000000e+000
75498840.000	-2.373128e-002	-2.428331e+001	-5.212641e+001	7.171708e+001	-2.000000e+002	0.000000e+000	-2.000000e+002	0.000000e+000
76148830.000	-2.380549e-002	-2.448845e+001	-5.206069e+001	7.191282e+001	-2.000000e+002	0.000000e+000	-2.000000e+002	0.000000e+000
76798820.000	-2.330606e-002	-2.469271e+001	-5.196187e+001	7.220840e+001	-2.000000e+002	0.000000e+000	-2.000000e+002	0.000000e+000
77448810.000	-2.508670e-002	-2.489640e+001	-5.189601e+001	7.202815e+001	-2.000000e+002	0.000000e+000	-2.000000e+002	0.000000e+000
78098800.000	-2.588901e-002	-2.510461e+001	-5.186843e+001	7.183197e+001	-2.000000e+002	0.000000e+000	-2.000000e+002	0.000000e+000
78748790.000	-2.646190e-002	-2.530839e+001	-5.179190e+001	7.227250e+001	-2.000000e+002	0.000000e+000	-2.000000e+002	0.000000e+000
79398780.000	-2.633013e-002	-2.551315e+001	-5.167985e+001	7.231246e+001	-2.000000e+002	0.000000e+000	-2.000000e+002	0.000000e+000
80048770.000	-2.708562e-002	-2.572948e+001	-5.160472e+001	7.275093e+001	-2.000000e+002	0.000000e+000	-2.000000e+002	0.000000e+000
80698760.000	-2.743522e-002	-2.593587e+001	-5.146433e+001	7.299845e+001	-2.000000e+002	0.000000e+000	-2.000000e+002	0.000000e+000
81348750.000	-2.807097e-002	-2.614069e+001	-5.136847e+001	7.295067e+001	-2.000000e+002	0.000000e+000	-2.000000e+002	0.000000e+000
81998740.000	-2.847403e-002	-2.634280e+001	-5.121275e+001	7.335082e+001	-2.000000e+002	0.000000e+000	-2.000000e+002	0.000000e+000
82648730.000	-2.943657e-002	-2.654574e+001	-5.104155e+001	7.350340e+001	-2.000000e+002	0.000000e+000	-2.000000e+002	0.000000e+000
83298720.000	-2.958699e-002	-2.675322e+001	-5.092094e+001	7.324758e+001	-2.000000e+002	0.000000e+000	-2.000000e+002	0.000000e+000
83948710.000	-3.056416e-002	-2.696272e+001	-5.072988e+001	7.341848e+001	-2.000000e+002	0.000000e+000	-2.000000e+002	0.000000e+000
84598700.000	-3.022793e-002	-2.716708e+001	-5.055917e+001	7.292655e+001	-2.000000e+002	0.000000e+000	-2.000000e+002	0.000000e+000
85248690.000	-3.077439e-002	-2.737308e+001	-5.039402e+001	7.201273e+001	-2.000000e+002	0.000000e+000	-2.000000e+002	0.000000e+000
85898680.000	-3.074507e-002	-2.758061e+001	-5.030828e+001	7.107180e+001	-2.000000e+002	0.000000e+000	-2.000000e+002	0.000000e+000
86548670.000	-3.147598e-002	-2.778400e+001	-5.019993e+001	7.015280e+001	-2.000000e+002	0.000000e+000	-2.000000e+002	0.000000e+000
87198660.000	-3.106371e-002	-2.798718e+001	-5.018642e+001	6.960942e+001	-2.000000e+002	0.000000e+000	-2.000000e+002	0.000000e+000
87848650.000	-3.153659e-002	-2.819652e+001	-5.018192e+001	6.896423e+001	-2.000000e+002	0.000000e+000	-2.000000e+002	0.000000e+000
88498640.000	-3.194836e-002	-2.840188e+001	-5.011734e+001	6.870155e+001	-2.000000e+002	0.000000e+000	-2.000000e+002	0.000000e+000
89148630.000	-3.236722e-002	-2.860743e+001	-5.011712e+001	6.818640e+001	-2.000000e+002	0.000000e+000	-2.000000e+002	0.000000e+000
89798620.000	-3.256428e-002	-2.881816e+001	-5.021163e+001	6.781879e+001	-2.000000e+002	0.000000e+000	-2.000000e+002	0.000000e+000
90448610.000	-3.246435e-002	-2.902575e+001	-5.019912e+001	6.792407e+001	-2.000000e+002	0.000000e+000	-2.000000e+002	0.000000e+000
91098600.000	-3.372875e-002	-2.923980e+001	-5.015491e+001	6.789608e+001	-2.000000e+002	0.000000e+000	-2.000000e+002	0.000000e+000
91748590.000	-3.341803e-002	-2.944738e+001	-5.014513e+001	6.794356e+001	-2.000000e+002	0.000000e+000	-2.000000e+002	0.000000e+000
92398580.000	-3.347100e-002	-2.965657e+001	-5.013525e+001	6.861230e+001	-2.000000e+002	0.000000e+000	-2.000000e+002	0.000000e+000
93048570.000	-3.368154e-002	-2.986853e+001	-5.007221e+001	6.864287e+001	-2.000000e+002	0.000000e+000	-2.000000e+002	0.000000e+000
93698560.000	-3.499097e-002	-3.007692e+001	-4.998749e+001	6.911431e+001	-2.000000e+002	0.000000e+000	-2.000000e+002	0.000000e+000
94348550.000	-3.493936e-002	-3.028446e+001	-4.989989e+001	6.954416e+001	-2.000000e+002	0.000000e+000	-2.000000e+002	0.000000e+000
94998540.000	-3.615616e-002	-3.049183e+001	-4.973565e+001	6.956323e+001	-2.000000e+002	0.000000e+000	-2.000000e+002	0.000000e+000
95648530.000	-3.664738e-002	-3.069777e+001	-4.967102e+001	6.948008e+001	-2.000000e+002	0.000000e+000	-2.000000e+002	0.000000e+000
96298520.000	-3.654977e-002	-3.090438e+001	-4.958225e+001	6.926268e+001	-2.000000e+002	0.000000e+000	-2.000000e+002	0.000000e+000
96948510.000	-3.794316e-002	-3.110710e+001	-4.944314e+001	6.921046e+001	-2.000000e+002	0.000000e+000	-2.000000e+002	0.000000e+000
97598500.000	-3.836111e-002	-3.131336e+001	-4.932182e+001	6.891152e+001	-2.000000e+002	0.000000e+000	-2.000000e+002	0.000000e+000
98248490.000	-3.748819e-002	-3.151706e+001	-4.923421e+001	6.858538e+001	-2.000000e+002	0.000000e+000	-2.000000e+002	0.000000e+000
