!Keysight Technologies,E5063A,MY54503115,A.05.08
!Date: Mon Dec 11 15:01:52 2023
!Data & Calibration Information:
!Freq	S11:NONE(--)	S21:NONE(--)	S12:NONE(--)	S22:NONE(--)
# Hz S dB R 50
100000.000	5.269753e-002	-6.380189e-001	-8.026655e+001	8.224922e+001	-2.000000e+002	0.000000e+000	-2.000000e+002	0.000000e+000
749990.000	-1.991788e-004	-5.902602e-001	-8.521144e+001	-7.835315e+001	-2.000000e+002	0.000000e+000	-2.000000e+002	0.000000e+000
1399980.000	6.410370e-004	-7.701717e-001	-8.072119e+001	1.727533e+002	-2.000000e+002	0.000000e+000	-2.000000e+002	0.000000e+000
2049970.000	3.856760e-004	-9.637322e-001	-7.983050e+001	1.351407e+002	-2.000000e+002	0.000000e+000	-2.000000e+002	0.000000e+000
2699960.000	-3.258250e-004	-1.155683e+000	-8.619004e+001	8.033681e+001	-2.000000e+002	0.000000e+000	-2.000000e+002	0.000000e+000
3349950.000	1.155660e-003	-1.367714e+000	-7.608510e+001	9.881648e+001	-2.000000e+002	0.000000e+000	-2.000000e+002	0.000000e+000
3999940.000	5.230866e-004	-1.573294e+000	-7.593091e+001	7.639677e+001	-2.000000e+002	0.000000e+000	-2.000000e+002	0.000000e+000
4649930.000	1.583445e-003	-1.797832e+000	-7.509202e+001	7.116416e+001	-2.000000e+002	0.000000e+000	-2.000000e+002	0.000000e+000
5299920.000	8.820890e-004	-1.983469e+000	-7.520623e+001	9.895036e+001	-2.000000e+002	0.000000e+000	-2.000000e+002	0.000000e+000
5949910.000	7.664264e-004	-2.192179e+000	-7.339070e+001	8.959711e+001	-2.000000e+002	0.000000e+000	-2.000000e+002	0.000000e+000
6599900.000	-4.359329e-004	-2.400295e+000	-7.512164e+001	7.867670e+001	-2.000000e+002	0.000000e+000	-2.000000e+002	0.000000e+000
7249890.000	2.336515e-004	-2.606966e+000	-7.333035e+001	8.541712e+001	-2.000000e+002	0.000000e+000	-2.000000e+002	0.000000e+000
7899880.000	-7.142674e-004	-2.807623e+000	-7.163147e+001	9.244846e+001	-2.000000e+002	0.000000e+000	-2.000000e+002	0.000000e+000
8549870.000	2.168240e-003	-3.034396e+000	-7.073015e+001	8.628855e+001	-2.000000e+002	0.000000e+000	-2.000000e+002	0.000000e+000
9199860.000	1.285651e-003	-3.237846e+000	-7.045444e+001	8.953314e+001	-2.000000e+002	0.000000e+000	-2.000000e+002	0.000000e+000
9849850.000	1.121298e-003	-3.446116e+000	-6.988976e+001	8.621339e+001	-2.000000e+002	0.000000e+000	-2.000000e+002	0.000000e+000
10499840.000	7.917600e-004	-3.641585e+000	-6.891296e+001	8.501120e+001	-2.000000e+002	0.000000e+000	-2.000000e+002	0.000000e+000
11149830.000	-1.678084e-003	-3.841152e+000	-6.865031e+001	8.747186e+001	-2.000000e+002	0.000000e+000	-2.000000e+002	0.000000e+000
11799820.000	-2.467545e-003	-4.043453e+000	-6.803286e+001	8.520956e+001	-2.000000e+002	0.000000e+000	-2.000000e+002	0.000000e+000
12449810.000	-7.753468e-004	-4.257446e+000	-6.774418e+001	8.599103e+001	-2.000000e+002	0.000000e+000	-2.000000e+002	0.000000e+000
13099800.000	-6.513333e-005	-4.472480e+000	-6.747341e+001	8.706744e+001	-2.000000e+002	0.000000e+000	-2.000000e+002	0.000000e+000
13749790.000	-9.842362e-004	-4.675221e+000	-6.673880e+001	8.533257e+001	-2.000000e+002	0.000000e+000	-2.000000e+002	0.000000e+000
14399780.000	-1.632273e-003	-4.888127e+000	-6.648719e+001	8.645075e+001	-2.000000e+002	0.000000e+000	-2.000000e+002	0.000000e+000
15049770.000	-1.705539e-003	-5.105242e+000	-6.627048e+001	8.580188e+001	-2.000000e+002	0.000000e+000	-2.000000e+002	0.000000e+000
15699760.000	-2.228387e-005	-5.293586e+000	-6.581985e+001	8.467259e+001	-2.000000e+002	0.000000e+000	-2.000000e+002	0.000000e+000
16349750.000	-3.813386e-004	-5.490785e+000	-6.535437e+001	8.484391e+001	-2.000000e+002	0.000000e+000	-2.000000e+002	0.000000e+000
16999740.000	-2.331467e-003	-5.708195e+000	-6.531814e+001	8.653072e+001	-2.000000e+002	0.000000e+000	-2.000000e+002	0.000000e+000
17649730.000	4.751514e-003	-5.936215e+000	-6.468495e+001	8.459870e+001	-2.000000e+002	0.000000e+000	-2.000000e+002	0.000000e+000
18299720.000	7.192768e-003	-6.158236e+000	-6.453734e+001	8.523573e+001	-2.000000e+002	0.000000e+000	-2.000000e+002	0.000000e+000
18949710.000	6.471521e-003	-6.358190e+000	-6.416078e+001	8.355805e+001	-2.000000e+002	0.000000e+000	-2.000000e+002	0.000000e+000
19599700.000	1.218138e-003	-6.536692e+000	-6.379217e+001	8.431083e+001	-2.000000e+002	0.000000e+000	-2.000000e+002	0.000000e+000
20249690.000	-3.047144e-003	-6.727646e+000	-6.379415e+001	8.503151e+001	-2.000000e+002	0.000000e+000	-2.000000e+002	0.000000e+000
20899680.000	-4.037098e-003	-6.965200e+000	-6.345129e+001	8.525621e+001	-2.000000e+002	0.000000e+000	-2.000000e+002	0.000000e+000
21549670.000	-4.571869e-003	-7.179224e+000	-6.318321e+001	8.601712e+001	-2.000000e+002	0.000000e+000	-2.000000e+002	0.000000e+000
22199660.000	-3.432861e-003	-7.372792e+000	-6.310199e+001	8.512041e+001	-2.000000e+002	0.000000e+000	-2.000000e+002	0.000000e+000
22849650.000	7.252823e-006	-7.550554e+000	-6.279615e+001	8.641713e+001	-2.000000e+002	0.000000e+000	-2.000000e+002	0.000000e+000
23499640.000	-1.031147e-003	-7.758421e+000	-6.244788e+001	8.751914e+001	-2.000000e+002	0.000000e+000	-2.000000e+002	0.000000e+000
24149630.000	-2.843275e-003	-7.967976e+000	-6.216456e+001	8.761141e+001	-2.000000e+002	0.000000e+000	-2.000000e+002	0.000000e+000
24799620.000	-1.892054e-003	-8.172652e+000	-6.175677e+001	8.725416e+001	-2.000000e+002	0.000000e+000	-2.000000e+002	0.000000e+000
25449610.000	6.752396e-004	-8.378872e+000	-6.135244e+001	8.689643e+001	-2.000000e+002	0.000000e+000	-2.000000e+002	0.000000e+000
26099600.000	1.708360e-004	-8.585249e+000	-6.093507e+001	8.624302e+001	-2.000000e+002	0.000000e+000	-2.000000e+002	0.000000e+000
26749590.000	-1.114169e-003	-8.790972e+000	-6.068354e+001	8.524852e+001	-2.000000e+002	0.000000e+000	-2.000000e+002	0.000000e+000
27399580.000	-1.776842e-003	-9.001273e+000	-6.053296e+001	8.508244e+001	-2.000000e+002	0.000000e+000	-2.000000e+002	0.000000e+000
28049570.000	-7.445889e-004	-9.212396e+000	-6.020902e+001	8.499597e+001	-2.000000e+002	0.000000e+000	-2.000000e+002	0.000000e+000
28699560.000	-9.339556e-004	-9.412677e+000	-6.004204e+001	8.351802e+001	-2.000000e+002	0.000000e+000	-2.000000e+002	0.000000e+000
29349550.000	-1.149181e-003	-9.613404e+000	-5.972061e+001	8.250502e+001	-2.000000e+002	0.000000e+000	-2.000000e+002	0.000000e+000
29999540.000	-7.866632e-004	-9.820408e+000	-5.960811e+001	8.365769e+001	-2.000000e+002	0.000000e+000	-2.000000e+002	0.000000e+000
30649530.000	-1.551579e-003	-1.003115e+001	-5.946158e+001	8.253151e+001	-2.000000e+002	0.000000e+000	-2.000000e+002	0.000000e+000
31299520.000	-9.659745e-004	-1.024761e+001	-5.946255e+001	8.184302e+001	-2.000000e+002	0.000000e+000	-2.000000e+002	0.000000e+000
31949510.000	-1.471039e-003	-1.044881e+001	-5.923747e+001	8.216399e+001	-2.000000e+002	0.000000e+000	-2.000000e+002	0.000000e+000
32599500.000	-2.053298e-003	-1.065638e+001	-5.897208e+001	8.150769e+001	-2.000000e+002	0.000000e+000	-2.000000e+002	0.000000e+000
33249490.000	-2.302817e-003	-1.086641e+001	-5.879826e+001	8.144683e+001	-2.000000e+002	0.000000e+000	-2.000000e+002	0.000000e+000
33899480.000	-2.332722e-003	-1.107805e+001	-5.878974e+001	8.052681e+001	-2.000000e+002	0.000000e+000	-2.000000e+002	0.000000e+000
34549470.000	-2.399364e-003	-1.127050e+001	-5.848199e+001	8.010520e+001	-2.000000e+002	0.000000e+000	-2.000000e+002	0.000000e+000
35199460.000	-2.689057e-003	-1.147683e+001	-5.843368e+001	8.032218e+001	-2.000000e+002	0.000000e+000	-2.000000e+002	0.000000e+000
35849450.000	-2.331445e-003	-1.168044e+001	-5.828292e+001	8.002362e+001	-2.000000e+002	0.000000e+000	-2.000000e+002	0.000000e+000
36499440.000	-2.945354e-003	-1.188619e+001	-5.809727e+001	7.949029e+001	-2.000000e+002	0.000000e+000	-2.000000e+002	0.000000e+000
37149430.000	-2.987792e-003	-1.209450e+001	-5.798190e+001	7.959248e+001	-2.000000e+002	0.000000e+000	-2.000000e+002	0.000000e+000
37799420.000	-3.324377e-003	-1.229924e+001	-5.780845e+001	7.917620e+001	-2.000000e+002	0.000000e+000	-2.000000e+002	0.000000e+000
38449410.000	-3.528463e-003	-1.250907e+001	-5.766027e+001	7.900981e+001	-2.000000e+002	0.000000e+000	-2.000000e+002	0.000000e+000
39099400.000	-3.416248e-003	-1.272223e+001	-5.756245e+001	7.848158e+001	-2.000000e+002	0.000000e+000	-2.000000e+002	0.000000e+000
39749390.000	-4.384587e-003	-1.293241e+001	-5.745830e+001	7.856422e+001	-2.000000e+002	0.000000e+000	-2.000000e+002	0.000000e+000
40399380.000	-4.238837e-003	-1.313972e+001	-5.727881e+001	7.869646e+001	-2.000000e+002	0.000000e+000	-2.000000e+002	0.000000e+000
41049370.000	-4.315088e-003	-1.335073e+001	-5.713156e+001	7.866837e+001	-2.000000e+002	0.000000e+000	-2.000000e+002	0.000000e+000
41699360.000	-3.458766e-003	-1.355319e+001	-5.700204e+001	7.813230e+001	-2.000000e+002	0.000000e+000	-2.000000e+002	0.000000e+000
42349350.000	-2.503828e-003	-1.375986e+001	-5.687764e+001	7.774914e+001	-2.000000e+002	0.000000e+000	-2.000000e+002	0.000000e+000
42999340.000	-3.235428e-003	-1.395973e+001	-5.678882e+001	7.797455e+001	-2.000000e+002	0.000000e+000	-2.000000e+002	0.000000e+000
43649330.000	-3.698641e-003	-1.416934e+001	-5.665263e+001	7.735652e+001	-2.000000e+002	0.000000e+000	-2.000000e+002	0.000000e+000
44299320.000	-3.784691e-003	-1.437694e+001	-5.658290e+001	7.707619e+001	-2.000000e+002	0.000000e+000	-2.000000e+002	0.000000e+000
44949310.000	-3.605915e-003	-1.458519e+001	-5.648517e+001	7.682107e+001	-2.000000e+002	0.000000e+000	-2.000000e+002	0.000000e+000
45599300.000	-4.743780e-003	-1.479866e+001	-5.637710e+001	7.709953e+001	-2.000000e+002	0.000000e+000	-2.000000e+002	0.000000e+000
46249290.000	-5.096603e-003	-1.500454e+001	-5.630912e+001	7.655202e+001	-2.000000e+002	0.000000e+000	-2.000000e+002	0.000000e+000
46899280.000	-5.108344e-003	-1.520664e+001	-5.616925e+001	7.703477e+001	-2.000000e+002	0.000000e+000	-2.000000e+002	0.000000e+000
47549270.000	-6.537821e-003	-1.541685e+001	-5.611706e+001	7.675918e+001	-2.000000e+002	0.000000e+000	-2.000000e+002	0.000000e+000
48199260.000	-7.337191e-003	-1.562499e+001	-5.596150e+001	7.654707e+001	-2.000000e+002	0.000000e+000	-2.000000e+002	0.000000e+000
48849250.000	-8.641068e-003	-1.583191e+001	-5.588464e+001	7.640955e+001	-2.000000e+002	0.000000e+000	-2.000000e+002	0.000000e+000
49499240.000	-8.237344e-003	-1.603855e+001	-5.581442e+001	7.670248e+001	-2.000000e+002	0.000000e+000	-2.000000e+002	0.000000e+000
50149230.000	-8.929517e-003	-1.624709e+001	-5.562211e+001	7.728136e+001	-2.000000e+002	0.000000e+000	-2.000000e+002	0.000000e+000
50799220.000	-9.459680e-003	-1.646013e+001	-5.548869e+001	7.656456e+001	-2.000000e+002	0.000000e+000	-2.000000e+002	0.000000e+000
51449210.000	-8.340899e-003	-1.666209e+001	-5.539433e+001	7.668970e+001	-2.000000e+002	0.000000e+000	-2.000000e+002	0.000000e+000
52099200.000	-8.262095e-003	-1.686900e+001	-5.532108e+001	7.611743e+001	-2.000000e+002	0.000000e+000	-2.000000e+002	0.000000e+000
52749190.000	-8.407298e-003	-1.707911e+001	-5.523602e+001	7.610920e+001	-2.000000e+002	0.000000e+000	-2.000000e+002	0.000000e+000
53399180.000	-8.765540e-003	-1.728413e+001	-5.524265e+001	7.652962e+001	-2.000000e+002	0.000000e+000	-2.000000e+002	0.000000e+000
54049170.000	-9.450678e-003	-1.749094e+001	-5.516380e+001	7.797605e+001	-2.000000e+002	0.000000e+000	-2.000000e+002	0.000000e+000
54699160.000	-9.839955e-003	-1.770353e+001	-5.499941e+001	7.867731e+001	-2.000000e+002	0.000000e+000	-2.000000e+002	0.000000e+000
55349150.000	-1.052775e-002	-1.790878e+001	-5.474499e+001	7.882704e+001	-2.000000e+002	0.000000e+000	-2.000000e+002	0.000000e+000
55999140.000	-1.081042e-002	-1.811510e+001	-5.440644e+001	7.953882e+001	-2.000000e+002	0.000000e+000	-2.000000e+002	0.000000e+000
56649130.000	-1.196925e-002	-1.831913e+001	-5.411321e+001	7.816672e+001	-2.000000e+002	0.000000e+000	-2.000000e+002	0.000000e+000
57299120.000	-1.220549e-002	-1.852679e+001	-5.392261e+001	7.728953e+001	-2.000000e+002	0.000000e+000	-2.000000e+002	0.000000e+000
57949110.000	-1.275674e-002	-1.873180e+001	-5.382591e+001	7.606966e+001	-2.000000e+002	0.000000e+000	-2.000000e+002	0.000000e+000
58599100.000	-1.201471e-002	-1.893597e+001	-5.377575e+001	7.556413e+001	-2.000000e+002	0.000000e+000	-2.000000e+002	0.000000e+000
59249090.000	-1.293591e-002	-1.914383e+001	-5.372948e+001	7.546537e+001	-2.000000e+002	0.000000e+000	-2.000000e+002	0.000000e+000
59899080.000	-1.279963e-002	-1.934577e+001	-5.354933e+001	7.555240e+001	-2.000000e+002	0.000000e+000	-2.000000e+002	0.000000e+000
60549070.000	-1.360548e-002	-1.955278e+001	-5.344257e+001	7.451414e+001	-2.000000e+002	0.000000e+000	-2.000000e+002	0.000000e+000
61199060.000	-1.510929e-002	-1.975847e+001	-5.332248e+001	7.402988e+001	-2.000000e+002	0.000000e+000	-2.000000e+002	0.000000e+000
61849050.000	-1.531423e-002	-1.995743e+001	-5.336245e+001	7.417810e+001	-2.000000e+002	0.000000e+000	-2.000000e+002	0.000000e+000
62499040.000	-1.606281e-002	-2.016372e+001	-5.319854e+001	7.405481e+001	-2.000000e+002	0.000000e+000	-2.000000e+002	0.000000e+000
63149030.000	-1.656110e-002	-2.036794e+001	-5.311112e+001	7.394450e+001	-2.000000e+002	0.000000e+000	-2.000000e+002	0.000000e+000
63799020.000	-1.679263e-002	-2.057190e+001	-5.305813e+001	7.328796e+001	-2.000000e+002	0.000000e+000	-2.000000e+002	0.000000e+000
64449010.000	-1.767026e-002	-2.078003e+001	-5.291833e+001	7.299493e+001	-2.000000e+002	0.000000e+000	-2.000000e+002	0.000000e+000
65099000.000	-1.868200e-002	-2.098229e+001	-5.283050e+001	7.303677e+001	-2.000000e+002	0.000000e+000	-2.000000e+002	0.000000e+000
65748990.000	-1.841485e-002	-2.118847e+001	-5.278577e+001	7.258004e+001	-2.000000e+002	0.000000e+000	-2.000000e+002	0.000000e+000
66398980.000	-1.886218e-002	-2.139363e+001	-5.272084e+001	7.207064e+001	-2.000000e+002	0.000000e+000	-2.000000e+002	0.000000e+000
67048970.000	-1.934401e-002	-2.159777e+001	-5.260668e+001	7.217937e+001	-2.000000e+002	0.000000e+000	-2.000000e+002	0.000000e+000
67698960.000	-1.933233e-002	-2.180334e+001	-5.252270e+001	7.181974e+001	-2.000000e+002	0.000000e+000	-2.000000e+002	0.000000e+000
68348950.000	-1.979977e-002	-2.200951e+001	-5.245256e+001	7.139049e+001	-2.000000e+002	0.000000e+000	-2.000000e+002	0.000000e+000
68998940.000	-2.064668e-002	-2.221256e+001	-5.240096e+001	7.153382e+001	-2.000000e+002	0.000000e+000	-2.000000e+002	0.000000e+000
69648930.000	-2.017925e-002	-2.241925e+001	-5.226722e+001	7.064144e+001	-2.000000e+002	0.000000e+000	-2.000000e+002	0.000000e+000
70298920.000	-2.024643e-002	-2.263189e+001	-5.219959e+001	7.066663e+001	-2.000000e+002	0.000000e+000	-2.000000e+002	0.000000e+000
70948910.000	-2.144941e-002	-2.284109e+001	-5.216588e+001	7.047383e+001	-2.000000e+002	0.000000e+000	-2.000000e+002	0.000000e+000
71598900.000	-2.070413e-002	-2.304435e+001	-5.212855e+001	7.025511e+001	-2.000000e+002	0.000000e+000	-2.000000e+002	0.000000e+000
72248890.000	-2.169646e-002	-2.325131e+001	-5.201765e+001	7.036365e+001	-2.000000e+002	0.000000e+000	-2.000000e+002	0.000000e+000
72898880.000	-2.149915e-002	-2.345810e+001	-5.200606e+001	6.992803e+001	-2.000000e+002	0.000000e+000	-2.000000e+002	0.000000e+000
73548870.000	-2.237443e-002	-2.366418e+001	-5.197049e+001	6.964736e+001	-2.000000e+002	0.000000e+000	-2.000000e+002	0.000000e+000
74198860.000	-2.239949e-002	-2.387402e+001	-5.189323e+001	6.977817e+001	-2.000000e+002	0.000000e+000	-2.000000e+002	0.000000e+000
74848850.000	-2.330607e-002	-2.408095e+001	-5.184526e+001	6.968066e+001	-2.000000e+002	0.000000e+000	-2.000000e+002	0.000000e+000
75498840.000	-2.319220e-002	-2.429141e+001	-5.178778e+001	6.986793e+001	-2.000000e+002	0.000000e+000	-2.000000e+002	0.000000e+000
76148830.000	-2.364782e-002	-2.449285e+001	-5.171375e+001	6.978152e+001	-2.000000e+002	0.000000e+000	-2.000000e+002	0.000000e+000
76798820.000	-2.316867e-002	-2.469887e+001	-5.162920e+001	6.991175e+001	-2.000000e+002	0.000000e+000	-2.000000e+002	0.000000e+000
77448810.000	-2.477724e-002	-2.489879e+001	-5.158612e+001	6.947330e+001	-2.000000e+002	0.000000e+000	-2.000000e+002	0.000000e+000
78098800.000	-2.606678e-002	-2.510750e+001	-5.143914e+001	6.967950e+001	-2.000000e+002	0.000000e+000	-2.000000e+002	0.000000e+000
78748790.000	-2.599680e-002	-2.531200e+001	-5.141428e+001	6.995270e+001	-2.000000e+002	0.000000e+000	-2.000000e+002	0.000000e+000
79398780.000	-2.631674e-002	-2.551943e+001	-5.132405e+001	6.956845e+001	-2.000000e+002	0.000000e+000	-2.000000e+002	0.000000e+000
80048770.000	-2.604990e-002	-2.573193e+001	-5.119461e+001	6.947933e+001	-2.000000e+002	0.000000e+000	-2.000000e+002	0.000000e+000
80698760.000	-2.672169e-002	-2.593967e+001	-5.113629e+001	6.945681e+001	-2.000000e+002	0.000000e+000	-2.000000e+002	0.000000e+000
81348750.000	-2.713800e-002	-2.614578e+001	-5.108374e+001	6.955458e+001	-2.000000e+002	0.000000e+000	-2.000000e+002	0.000000e+000
81998740.000	-2.747379e-002	-2.635337e+001	-5.102898e+001	6.984635e+001	-2.000000e+002	0.000000e+000	-2.000000e+002	0.000000e+000
82648730.000	-2.787894e-002	-2.655419e+001	-5.084839e+001	7.025949e+001	-2.000000e+002	0.000000e+000	-2.000000e+002	0.000000e+000
83298720.000	-2.926931e-002	-2.676376e+001	-5.074840e+001	6.996176e+001	-2.000000e+002	0.000000e+000	-2.000000e+002	0.000000e+000
83948710.000	-2.971589e-002	-2.696851e+001	-5.060742e+001	7.015799e+001	-2.000000e+002	0.000000e+000	-2.000000e+002	0.000000e+000
84598700.000	-2.890525e-002	-2.717338e+001	-5.041581e+001	6.983854e+001	-2.000000e+002	0.000000e+000	-2.000000e+002	0.000000e+000
85248690.000	-3.014725e-002	-2.738212e+001	-5.026611e+001	6.907982e+001	-2.000000e+002	0.000000e+000	-2.000000e+002	0.000000e+000
85898680.000	-3.020284e-002	-2.758732e+001	-5.018246e+001	6.824285e+001	-2.000000e+002	0.000000e+000	-2.000000e+002	0.000000e+000
86548670.000	-3.059940e-002	-2.779411e+001	-5.016218e+001	6.751949e+001	-2.000000e+002	0.000000e+000	-2.000000e+002	0.000000e+000
87198660.000	-3.043776e-002	-2.799830e+001	-5.014923e+001	6.718617e+001	-2.000000e+002	0.000000e+000	-2.000000e+002	0.000000e+000
87848650.000	-3.074533e-002	-2.820291e+001	-5.010891e+001	6.698938e+001	-2.000000e+002	0.000000e+000	-2.000000e+002	0.000000e+000
88498640.000	-3.168607e-002	-2.841043e+001	-4.999338e+001	6.711618e+001	-2.000000e+002	0.000000e+000	-2.000000e+002	0.000000e+000
89148630.000	-3.212248e-002	-2.861652e+001	-4.996938e+001	6.663415e+001	-2.000000e+002	0.000000e+000	-2.000000e+002	0.000000e+000
89798620.000	-3.266674e-002	-2.882405e+001	-4.992905e+001	6.635220e+001	-2.000000e+002	0.000000e+000	-2.000000e+002	0.000000e+000
90448610.000	-3.155769e-002	-2.903127e+001	-4.989210e+001	6.634342e+001	-2.000000e+002	0.000000e+000	-2.000000e+002	0.000000e+000
91098600.000	-3.286062e-002	-2.924301e+001	-4.983292e+001	6.611273e+001	-2.000000e+002	0.000000e+000	-2.000000e+002	0.000000e+000
91748590.000	-3.248384e-002	-2.945257e+001	-4.981273e+001	6.638822e+001	-2.000000e+002	0.000000e+000	-2.000000e+002	0.000000e+000
92398580.000	-3.231292e-002	-2.966030e+001	-4.976439e+001	6.607807e+001	-2.000000e+002	0.000000e+000	-2.000000e+002	0.000000e+000
93048570.000	-3.283990e-002	-2.986946e+001	-4.970732e+001	6.565689e+001	-2.000000e+002	0.000000e+000	-2.000000e+002	0.000000e+000
93698560.000	-3.362905e-002	-3.007862e+001	-4.959108e+001	6.607826e+001	-2.000000e+002	0.000000e+000	-2.000000e+002	0.000000e+000
94348550.000	-3.368060e-002	-3.028794e+001	-4.952139e+001	6.578529e+001	-2.000000e+002	0.000000e+000	-2.000000e+002	0.000000e+000
94998540.000	-3.498601e-002	-3.049614e+001	-4.947374e+001	6.548846e+001	-2.000000e+002	0.000000e+000	-2.000000e+002	0.000000e+000
95648530.000	-3.454288e-002	-3.070231e+001	-4.937134e+001	6.540595e+001	-2.000000e+002	0.000000e+000	-2.000000e+002	0.000000e+000
96298520.000	-3.524952e-002	-3.090664e+001	-4.933848e+001	6.572157e+001	-2.000000e+002	0.000000e+000	-2.000000e+002	0.000000e+000
96948510.000	-3.589981e-002	-3.110984e+001	-4.926727e+001	6.558975e+001	-2.000000e+002	0.000000e+000	-2.000000e+002	0.000000e+000
97598500.000	-3.667553e-002	-3.131581e+001	-4.916921e+001	6.521795e+001	-2.000000e+002	0.000000e+000	-2.000000e+002	0.000000e+000
98248490.000	-3.590602e-002	-3.151895e+001	-4.908809e+001	6.486235e+001	-2.000000e+002	0.000000e+000	-2.000000e+002	0.000000e+000
