!Keysight Technologies,E5063A,MY54503115,A.05.08
!Date: Mon Dec 04 17:54:42 2023
!Data & Calibration Information:
!Freq	S11:NONE(--)	S21:NONE(--)	S12:NONE(--)	S22:NONE(--)
# Hz S dB R 50
100000.000	4.398188e-002	-5.081458e-001	-9.692194e+001	1.167173e+002	-2.000000e+002	0.000000e+000	-2.000000e+002	0.000000e+000
749990.000	1.664900e-003	-5.773793e-001	-8.198723e+001	-1.504652e+002	-2.000000e+002	0.000000e+000	-2.000000e+002	0.000000e+000
1399980.000	3.408973e-003	-7.655714e-001	-8.104032e+001	1.620480e+002	-2.000000e+002	0.000000e+000	-2.000000e+002	0.000000e+000
2049970.000	1.840193e-003	-9.633368e-001	-8.112114e+001	1.314181e+002	-2.000000e+002	0.000000e+000	-2.000000e+002	0.000000e+000
2699960.000	2.769881e-003	-1.154919e+000	-8.496392e+001	1.078061e+002	-2.000000e+002	0.000000e+000	-2.000000e+002	0.000000e+000
3349950.000	4.538701e-003	-1.363178e+000	-8.188166e+001	8.949598e+001	-2.000000e+002	0.000000e+000	-2.000000e+002	0.000000e+000
3999940.000	3.835646e-003	-1.565646e+000	-7.878998e+001	6.932110e+001	-2.000000e+002	0.000000e+000	-2.000000e+002	0.000000e+000
4649930.000	4.522762e-003	-1.773635e+000	-7.484074e+001	8.909546e+001	-2.000000e+002	0.000000e+000	-2.000000e+002	0.000000e+000
5299920.000	2.676257e-003	-1.978166e+000	-7.451934e+001	9.139423e+001	-2.000000e+002	0.000000e+000	-2.000000e+002	0.000000e+000
5949910.000	2.572205e-003	-2.184988e+000	-7.568242e+001	7.424137e+001	-2.000000e+002	0.000000e+000	-2.000000e+002	0.000000e+000
6599900.000	2.777559e-003	-2.393592e+000	-7.339669e+001	8.664649e+001	-2.000000e+002	0.000000e+000	-2.000000e+002	0.000000e+000
7249890.000	2.727854e-003	-2.592515e+000	-7.310349e+001	8.958780e+001	-2.000000e+002	0.000000e+000	-2.000000e+002	0.000000e+000
7899880.000	1.465011e-003	-2.801467e+000	-7.239174e+001	8.955596e+001	-2.000000e+002	0.000000e+000	-2.000000e+002	0.000000e+000
8549870.000	6.345657e-003	-3.016752e+000	-7.144849e+001	8.846892e+001	-2.000000e+002	0.000000e+000	-2.000000e+002	0.000000e+000
9199860.000	5.320195e-003	-3.225114e+000	-7.103643e+001	8.897883e+001	-2.000000e+002	0.000000e+000	-2.000000e+002	0.000000e+000
9849850.000	5.202981e-003	-3.434016e+000	-7.012161e+001	8.771421e+001	-2.000000e+002	0.000000e+000	-2.000000e+002	0.000000e+000
10499840.000	2.835190e-003	-3.630529e+000	-6.953978e+001	8.702097e+001	-2.000000e+002	0.000000e+000	-2.000000e+002	0.000000e+000
11149830.000	7.801841e-004	-3.824979e+000	-6.896066e+001	8.832344e+001	-2.000000e+002	0.000000e+000	-2.000000e+002	0.000000e+000
11799820.000	4.533262e-004	-4.026728e+000	-6.872923e+001	8.622974e+001	-2.000000e+002	0.000000e+000	-2.000000e+002	0.000000e+000
12449810.000	1.704056e-003	-4.239837e+000	-6.817957e+001	8.763156e+001	-2.000000e+002	0.000000e+000	-2.000000e+002	0.000000e+000
13099800.000	4.494469e-003	-4.446236e+000	-6.770283e+001	8.695855e+001	-2.000000e+002	0.000000e+000	-2.000000e+002	0.000000e+000
13749790.000	4.108128e-003	-4.644662e+000	-6.718584e+001	8.599560e+001	-2.000000e+002	0.000000e+000	-2.000000e+002	0.000000e+000
14399780.000	1.781271e-003	-4.857048e+000	-6.690887e+001	8.627501e+001	-2.000000e+002	0.000000e+000	-2.000000e+002	0.000000e+000
15049770.000	4.014403e-003	-5.068990e+000	-6.655840e+001	8.640108e+001	-2.000000e+002	0.000000e+000	-2.000000e+002	0.000000e+000
15699760.000	4.677965e-003	-5.255790e+000	-6.647471e+001	8.808956e+001	-2.000000e+002	0.000000e+000	-2.000000e+002	0.000000e+000
16349750.000	6.026459e-003	-5.461189e+000	-6.608029e+001	8.478764e+001	-2.000000e+002	0.000000e+000	-2.000000e+002	0.000000e+000
16999740.000	4.847926e-003	-5.679224e+000	-6.610115e+001	8.515745e+001	-2.000000e+002	0.000000e+000	-2.000000e+002	0.000000e+000
17649730.000	1.308051e-002	-5.911514e+000	-6.540221e+001	8.580263e+001	-2.000000e+002	0.000000e+000	-2.000000e+002	0.000000e+000
18299720.000	1.672445e-002	-6.139992e+000	-6.524457e+001	8.660685e+001	-2.000000e+002	0.000000e+000	-2.000000e+002	0.000000e+000
18949710.000	1.561285e-002	-6.350599e+000	-6.489195e+001	8.710594e+001	-2.000000e+002	0.000000e+000	-2.000000e+002	0.000000e+000
19599700.000	1.017212e-002	-6.535195e+000	-6.456543e+001	8.697819e+001	-2.000000e+002	0.000000e+000	-2.000000e+002	0.000000e+000
20249690.000	5.545422e-003	-6.733005e+000	-6.417299e+001	8.722558e+001	-2.000000e+002	0.000000e+000	-2.000000e+002	0.000000e+000
20899680.000	2.874841e-003	-6.971394e+000	-6.361253e+001	8.671619e+001	-2.000000e+002	0.000000e+000	-2.000000e+002	0.000000e+000
21549670.000	1.337407e-003	-7.191254e+000	-6.338887e+001	8.624594e+001	-2.000000e+002	0.000000e+000	-2.000000e+002	0.000000e+000
22199660.000	1.600089e-003	-7.386606e+000	-6.310064e+001	8.578465e+001	-2.000000e+002	0.000000e+000	-2.000000e+002	0.000000e+000
22849650.000	4.300891e-003	-7.565925e+000	-6.284968e+001	8.548924e+001	-2.000000e+002	0.000000e+000	-2.000000e+002	0.000000e+000
23499640.000	2.813960e-003	-7.764512e+000	-6.265166e+001	8.391716e+001	-2.000000e+002	0.000000e+000	-2.000000e+002	0.000000e+000
24149630.000	1.130448e-004	-7.975237e+000	-6.240171e+001	8.359310e+001	-2.000000e+002	0.000000e+000	-2.000000e+002	0.000000e+000
24799620.000	2.353120e-004	-8.180055e+000	-6.207863e+001	8.413577e+001	-2.000000e+002	0.000000e+000	-2.000000e+002	0.000000e+000
25449610.000	2.348075e-003	-8.383530e+000	-6.201412e+001	8.266501e+001	-2.000000e+002	0.000000e+000	-2.000000e+002	0.000000e+000
26099600.000	1.818755e-003	-8.586251e+000	-6.170681e+001	8.241463e+001	-2.000000e+002	0.000000e+000	-2.000000e+002	0.000000e+000
26749590.000	4.130974e-004	-8.790840e+000	-6.161476e+001	8.331775e+001	-2.000000e+002	0.000000e+000	-2.000000e+002	0.000000e+000
27399580.000	-1.264497e-004	-8.995150e+000	-6.140957e+001	8.284940e+001	-2.000000e+002	0.000000e+000	-2.000000e+002	0.000000e+000
28049570.000	2.178617e-004	-9.207984e+000	-6.120675e+001	8.289558e+001	-2.000000e+002	0.000000e+000	-2.000000e+002	0.000000e+000
28699560.000	8.198377e-005	-9.400274e+000	-6.112960e+001	8.215453e+001	-2.000000e+002	0.000000e+000	-2.000000e+002	0.000000e+000
29349550.000	-2.834761e-004	-9.600462e+000	-6.079531e+001	8.140615e+001	-2.000000e+002	0.000000e+000	-2.000000e+002	0.000000e+000
29999540.000	-7.941129e-004	-9.803067e+000	-6.103740e+001	8.247702e+001	-2.000000e+002	0.000000e+000	-2.000000e+002	0.000000e+000
30649530.000	-1.043947e-003	-1.001462e+001	-6.063648e+001	8.116040e+001	-2.000000e+002	0.000000e+000	-2.000000e+002	0.000000e+000
31299520.000	-4.247723e-004	-1.022652e+001	-6.060282e+001	8.106490e+001	-2.000000e+002	0.000000e+000	-2.000000e+002	0.000000e+000
31949510.000	-8.934526e-004	-1.043147e+001	-6.039131e+001	8.115114e+001	-2.000000e+002	0.000000e+000	-2.000000e+002	0.000000e+000
32599500.000	-1.464733e-003	-1.063796e+001	-6.020660e+001	8.088552e+001	-2.000000e+002	0.000000e+000	-2.000000e+002	0.000000e+000
33249490.000	-1.160051e-003	-1.084655e+001	-6.017039e+001	8.195321e+001	-2.000000e+002	0.000000e+000	-2.000000e+002	0.000000e+000
33899480.000	-1.578666e-003	-1.104970e+001	-6.009796e+001	8.143281e+001	-2.000000e+002	0.000000e+000	-2.000000e+002	0.000000e+000
34549470.000	-1.838963e-003	-1.124739e+001	-5.996546e+001	8.114896e+001	-2.000000e+002	0.000000e+000	-2.000000e+002	0.000000e+000
35199460.000	-1.932135e-003	-1.144882e+001	-5.976077e+001	8.181434e+001	-2.000000e+002	0.000000e+000	-2.000000e+002	0.000000e+000
35849450.000	-2.125964e-003	-1.165063e+001	-5.979929e+001	8.155899e+001	-2.000000e+002	0.000000e+000	-2.000000e+002	0.000000e+000
36499440.000	-1.892863e-003	-1.185679e+001	-5.957295e+001	8.313775e+001	-2.000000e+002	0.000000e+000	-2.000000e+002	0.000000e+000
37149430.000	-2.009008e-003	-1.206407e+001	-5.941170e+001	8.248284e+001	-2.000000e+002	0.000000e+000	-2.000000e+002	0.000000e+000
37799420.000	-2.793289e-003	-1.227283e+001	-5.929510e+001	8.272026e+001	-2.000000e+002	0.000000e+000	-2.000000e+002	0.000000e+000
38449410.000	-2.732633e-003	-1.247485e+001	-5.911235e+001	8.337674e+001	-2.000000e+002	0.000000e+000	-2.000000e+002	0.000000e+000
39099400.000	-3.253080e-003	-1.268756e+001	-5.908597e+001	8.289646e+001	-2.000000e+002	0.000000e+000	-2.000000e+002	0.000000e+000
39749390.000	-3.937037e-003	-1.289882e+001	-5.892625e+001	8.347957e+001	-2.000000e+002	0.000000e+000	-2.000000e+002	0.000000e+000
40399380.000	-4.273942e-003	-1.310517e+001	-5.880173e+001	8.417059e+001	-2.000000e+002	0.000000e+000	-2.000000e+002	0.000000e+000
41049370.000	-4.256414e-003	-1.331583e+001	-5.881301e+001	8.494517e+001	-2.000000e+002	0.000000e+000	-2.000000e+002	0.000000e+000
41699360.000	-3.790130e-003	-1.351910e+001	-5.854850e+001	8.584333e+001	-2.000000e+002	0.000000e+000	-2.000000e+002	0.000000e+000
42349350.000	-3.511759e-003	-1.371985e+001	-5.832064e+001	8.556040e+001	-2.000000e+002	0.000000e+000	-2.000000e+002	0.000000e+000
42999340.000	-4.522281e-003	-1.392197e+001	-5.803495e+001	8.674033e+001	-2.000000e+002	0.000000e+000	-2.000000e+002	0.000000e+000
43649330.000	-4.919525e-003	-1.412378e+001	-5.778737e+001	8.699745e+001	-2.000000e+002	0.000000e+000	-2.000000e+002	0.000000e+000
44299320.000	-4.861067e-003	-1.433156e+001	-5.764804e+001	8.683381e+001	-2.000000e+002	0.000000e+000	-2.000000e+002	0.000000e+000
44949310.000	-4.805735e-003	-1.453692e+001	-5.744186e+001	8.662316e+001	-2.000000e+002	0.000000e+000	-2.000000e+002	0.000000e+000
45599300.000	-5.496609e-003	-1.474952e+001	-5.731661e+001	8.634501e+001	-2.000000e+002	0.000000e+000	-2.000000e+002	0.000000e+000
46249290.000	-6.062737e-003	-1.495538e+001	-5.724066e+001	8.746857e+001	-2.000000e+002	0.000000e+000	-2.000000e+002	0.000000e+000
46899280.000	-6.625165e-003	-1.515786e+001	-5.702136e+001	8.823618e+001	-2.000000e+002	0.000000e+000	-2.000000e+002	0.000000e+000
47549270.000	-8.242972e-003	-1.536236e+001	-5.666832e+001	8.828768e+001	-2.000000e+002	0.000000e+000	-2.000000e+002	0.000000e+000
48199260.000	-9.201691e-003	-1.556437e+001	-5.635872e+001	8.875806e+001	-2.000000e+002	0.000000e+000	-2.000000e+002	0.000000e+000
48849250.000	-1.079791e-002	-1.577095e+001	-5.605380e+001	8.829934e+001	-2.000000e+002	0.000000e+000	-2.000000e+002	0.000000e+000
49499240.000	-9.966126e-003	-1.597160e+001	-5.588554e+001	8.728640e+001	-2.000000e+002	0.000000e+000	-2.000000e+002	0.000000e+000
50149230.000	-9.644676e-003	-1.617824e+001	-5.572604e+001	8.658303e+001	-2.000000e+002	0.000000e+000	-2.000000e+002	0.000000e+000
50799220.000	-1.043320e-002	-1.638591e+001	-5.547465e+001	8.545875e+001	-2.000000e+002	0.000000e+000	-2.000000e+002	0.000000e+000
51449210.000	-9.356387e-003	-1.659306e+001	-5.545834e+001	8.471087e+001	-2.000000e+002	0.000000e+000	-2.000000e+002	0.000000e+000
52099200.000	-9.162008e-003	-1.679685e+001	-5.539671e+001	8.453489e+001	-2.000000e+002	0.000000e+000	-2.000000e+002	0.000000e+000
52749190.000	-9.629317e-003	-1.700264e+001	-5.525555e+001	8.430033e+001	-2.000000e+002	0.000000e+000	-2.000000e+002	0.000000e+000
53399180.000	-9.420381e-003	-1.720830e+001	-5.517074e+001	8.340196e+001	-2.000000e+002	0.000000e+000	-2.000000e+002	0.000000e+000
54049170.000	-1.016274e-002	-1.741677e+001	-5.500152e+001	8.370751e+001	-2.000000e+002	0.000000e+000	-2.000000e+002	0.000000e+000
54699160.000	-1.019823e-002	-1.762289e+001	-5.490732e+001	8.341264e+001	-2.000000e+002	0.000000e+000	-2.000000e+002	0.000000e+000
55349150.000	-1.015714e-002	-1.782950e+001	-5.482204e+001	8.269983e+001	-2.000000e+002	0.000000e+000	-2.000000e+002	0.000000e+000
55999140.000	-1.019907e-002	-1.803576e+001	-5.483592e+001	8.236830e+001	-2.000000e+002	0.000000e+000	-2.000000e+002	0.000000e+000
56649130.000	-1.169654e-002	-1.824359e+001	-5.482188e+001	8.222792e+001	-2.000000e+002	0.000000e+000	-2.000000e+002	0.000000e+000
57299120.000	-1.188666e-002	-1.845059e+001	-5.476724e+001	8.172104e+001	-2.000000e+002	0.000000e+000	-2.000000e+002	0.000000e+000
57949110.000	-1.232903e-002	-1.865864e+001	-5.479668e+001	8.236890e+001	-2.000000e+002	0.000000e+000	-2.000000e+002	0.000000e+000
58599100.000	-1.243546e-002	-1.885655e+001	-5.476235e+001	8.314845e+001	-2.000000e+002	0.000000e+000	-2.000000e+002	0.000000e+000
59249090.000	-1.366890e-002	-1.906401e+001	-5.463335e+001	8.442737e+001	-2.000000e+002	0.000000e+000	-2.000000e+002	0.000000e+000
59899080.000	-1.416591e-002	-1.926567e+001	-5.441519e+001	8.480390e+001	-2.000000e+002	0.000000e+000	-2.000000e+002	0.000000e+000
60549070.000	-1.486870e-002	-1.946870e+001	-5.421408e+001	8.424481e+001	-2.000000e+002	0.000000e+000	-2.000000e+002	0.000000e+000
61199060.000	-1.579260e-002	-1.967356e+001	-5.414203e+001	8.484736e+001	-2.000000e+002	0.000000e+000	-2.000000e+002	0.000000e+000
61849050.000	-1.663461e-002	-1.987670e+001	-5.414957e+001	8.570847e+001	-2.000000e+002	0.000000e+000	-2.000000e+002	0.000000e+000
62499040.000	-1.787478e-002	-2.007731e+001	-5.392859e+001	8.656469e+001	-2.000000e+002	0.000000e+000	-2.000000e+002	0.000000e+000
63149030.000	-1.887990e-002	-2.027824e+001	-5.368524e+001	8.780784e+001	-2.000000e+002	0.000000e+000	-2.000000e+002	0.000000e+000
63799020.000	-1.972978e-002	-2.048104e+001	-5.339364e+001	8.804649e+001	-2.000000e+002	0.000000e+000	-2.000000e+002	0.000000e+000
64449010.000	-2.059741e-002	-2.068069e+001	-5.314458e+001	8.832670e+001	-2.000000e+002	0.000000e+000	-2.000000e+002	0.000000e+000
65099000.000	-2.089664e-002	-2.088388e+001	-5.284825e+001	8.831373e+001	-2.000000e+002	0.000000e+000	-2.000000e+002	0.000000e+000
65748990.000	-2.137280e-002	-2.108621e+001	-5.258677e+001	8.816535e+001	-2.000000e+002	0.000000e+000	-2.000000e+002	0.000000e+000
66398980.000	-2.205059e-002	-2.128702e+001	-5.227214e+001	8.784959e+001	-2.000000e+002	0.000000e+000	-2.000000e+002	0.000000e+000
67048970.000	-2.201086e-002	-2.149047e+001	-5.198887e+001	8.675129e+001	-2.000000e+002	0.000000e+000	-2.000000e+002	0.000000e+000
67698960.000	-2.230251e-002	-2.168976e+001	-5.168973e+001	8.622272e+001	-2.000000e+002	0.000000e+000	-2.000000e+002	0.000000e+000
68348950.000	-2.206840e-002	-2.189069e+001	-5.154643e+001	8.520847e+001	-2.000000e+002	0.000000e+000	-2.000000e+002	0.000000e+000
68998940.000	-2.375834e-002	-2.209356e+001	-5.138634e+001	8.459179e+001	-2.000000e+002	0.000000e+000	-2.000000e+002	0.000000e+000
69648930.000	-2.331385e-002	-2.229419e+001	-5.117290e+001	8.400803e+001	-2.000000e+002	0.000000e+000	-2.000000e+002	0.000000e+000
70298920.000	-2.160110e-002	-2.249921e+001	-5.092415e+001	8.304565e+001	-2.000000e+002	0.000000e+000	-2.000000e+002	0.000000e+000
70948910.000	-2.216428e-002	-2.269950e+001	-5.069604e+001	8.185032e+001	-2.000000e+002	0.000000e+000	-2.000000e+002	0.000000e+000
71598900.000	-2.194781e-002	-2.290191e+001	-5.049565e+001	8.075945e+001	-2.000000e+002	0.000000e+000	-2.000000e+002	0.000000e+000
72248890.000	-2.233820e-002	-2.310522e+001	-5.030411e+001	7.844926e+001	-2.000000e+002	0.000000e+000	-2.000000e+002	0.000000e+000
72898880.000	-2.160922e-002	-2.330884e+001	-5.024732e+001	7.668621e+001	-2.000000e+002	0.000000e+000	-2.000000e+002	0.000000e+000
73548870.000	-2.165039e-002	-2.351682e+001	-5.031078e+001	7.517332e+001	-2.000000e+002	0.000000e+000	-2.000000e+002	0.000000e+000
74198860.000	-2.132791e-002	-2.371771e+001	-5.028323e+001	7.395673e+001	-2.000000e+002	0.000000e+000	-2.000000e+002	0.000000e+000
74848850.000	-2.168550e-002	-2.392687e+001	-5.026246e+001	7.280054e+001	-2.000000e+002	0.000000e+000	-2.000000e+002	0.000000e+000
75498840.000	-2.122264e-002	-2.413485e+001	-5.032367e+001	7.195542e+001	-2.000000e+002	0.000000e+000	-2.000000e+002	0.000000e+000
76148830.000	-2.162543e-002	-2.433742e+001	-5.032943e+001	7.135235e+001	-2.000000e+002	0.000000e+000	-2.000000e+002	0.000000e+000
76798820.000	-2.114900e-002	-2.454513e+001	-5.038734e+001	7.067024e+001	-2.000000e+002	0.000000e+000	-2.000000e+002	0.000000e+000
77448810.000	-2.327733e-002	-2.474955e+001	-5.042125e+001	7.030324e+001	-2.000000e+002	0.000000e+000	-2.000000e+002	0.000000e+000
78098800.000	-2.353591e-002	-2.495712e+001	-5.044362e+001	6.993120e+001	-2.000000e+002	0.000000e+000	-2.000000e+002	0.000000e+000
78748790.000	-2.418936e-002	-2.516240e+001	-5.046988e+001	6.961172e+001	-2.000000e+002	0.000000e+000	-2.000000e+002	0.000000e+000
79398780.000	-2.401685e-002	-2.536767e+001	-5.046230e+001	6.974094e+001	-2.000000e+002	0.000000e+000	-2.000000e+002	0.000000e+000
80048770.000	-2.312758e-002	-2.557716e+001	-5.039457e+001	6.934306e+001	-2.000000e+002	0.000000e+000	-2.000000e+002	0.000000e+000
80698760.000	-2.358992e-002	-2.578005e+001	-5.038684e+001	6.902892e+001	-2.000000e+002	0.000000e+000	-2.000000e+002	0.000000e+000
81348750.000	-2.360852e-002	-2.598523e+001	-5.039000e+001	6.876832e+001	-2.000000e+002	0.000000e+000	-2.000000e+002	0.000000e+000
81998740.000	-2.396246e-002	-2.619395e+001	-5.037535e+001	6.850888e+001	-2.000000e+002	0.000000e+000	-2.000000e+002	0.000000e+000
82648730.000	-2.595034e-002	-2.640221e+001	-5.034631e+001	6.841250e+001	-2.000000e+002	0.000000e+000	-2.000000e+002	0.000000e+000
83298720.000	-2.626047e-002	-2.661040e+001	-5.032500e+001	6.807445e+001	-2.000000e+002	0.000000e+000	-2.000000e+002	0.000000e+000
83948710.000	-2.624290e-002	-2.681823e+001	-5.029983e+001	6.806195e+001	-2.000000e+002	0.000000e+000	-2.000000e+002	0.000000e+000
84598700.000	-2.702861e-002	-2.702266e+001	-5.026188e+001	6.805748e+001	-2.000000e+002	0.000000e+000	-2.000000e+002	0.000000e+000
85248690.000	-2.733423e-002	-2.723172e+001	-5.022243e+001	6.765678e+001	-2.000000e+002	0.000000e+000	-2.000000e+002	0.000000e+000
85898680.000	-2.769062e-002	-2.743964e+001	-5.024193e+001	6.764281e+001	-2.000000e+002	0.000000e+000	-2.000000e+002	0.000000e+000
86548670.000	-2.835314e-002	-2.764559e+001	-5.018993e+001	6.777417e+001	-2.000000e+002	0.000000e+000	-2.000000e+002	0.000000e+000
87198660.000	-2.831466e-002	-2.784764e+001	-5.015722e+001	6.748232e+001	-2.000000e+002	0.000000e+000	-2.000000e+002	0.000000e+000
87848650.000	-2.918088e-002	-2.805200e+001	-5.014735e+001	6.721791e+001	-2.000000e+002	0.000000e+000	-2.000000e+002	0.000000e+000
88498640.000	-2.974901e-002	-2.825436e+001	-5.010751e+001	6.708358e+001	-2.000000e+002	0.000000e+000	-2.000000e+002	0.000000e+000
89148630.000	-3.052801e-002	-2.845724e+001	-5.013175e+001	6.716581e+001	-2.000000e+002	0.000000e+000	-2.000000e+002	0.000000e+000
89798620.000	-3.078272e-002	-2.866184e+001	-5.012104e+001	6.737047e+001	-2.000000e+002	0.000000e+000	-2.000000e+002	0.000000e+000
90448610.000	-3.087117e-002	-2.887020e+001	-5.007814e+001	6.728382e+001	-2.000000e+002	0.000000e+000	-2.000000e+002	0.000000e+000
91098600.000	-3.133867e-002	-2.908108e+001	-5.008001e+001	6.712046e+001	-2.000000e+002	0.000000e+000	-2.000000e+002	0.000000e+000
91748590.000	-3.122747e-002	-2.928773e+001	-5.006675e+001	6.816891e+001	-2.000000e+002	0.000000e+000	-2.000000e+002	0.000000e+000
92398580.000	-3.121231e-002	-2.949427e+001	-5.002522e+001	6.792822e+001	-2.000000e+002	0.000000e+000	-2.000000e+002	0.000000e+000
93048570.000	-3.127036e-002	-2.970211e+001	-5.004831e+001	6.745772e+001	-2.000000e+002	0.000000e+000	-2.000000e+002	0.000000e+000
93698560.000	-3.270454e-002	-2.991377e+001	-4.989837e+001	6.787507e+001	-2.000000e+002	0.000000e+000	-2.000000e+002	0.000000e+000
94348550.000	-3.253077e-002	-3.011593e+001	-4.986508e+001	6.821925e+001	-2.000000e+002	0.000000e+000	-2.000000e+002	0.000000e+000
94998540.000	-3.406919e-002	-3.032207e+001	-4.990767e+001	6.792783e+001	-2.000000e+002	0.000000e+000	-2.000000e+002	0.000000e+000
95648530.000	-3.377627e-002	-3.052953e+001	-4.978220e+001	6.882333e+001	-2.000000e+002	0.000000e+000	-2.000000e+002	0.000000e+000
96298520.000	-3.430017e-002	-3.073404e+001	-4.973557e+001	6.852545e+001	-2.000000e+002	0.000000e+000	-2.000000e+002	0.000000e+000
96948510.000	-3.513054e-002	-3.093755e+001	-4.964922e+001	6.878132e+001	-2.000000e+002	0.000000e+000	-2.000000e+002	0.000000e+000
97598500.000	-3.602866e-002	-3.114293e+001	-4.960054e+001	6.907375e+001	-2.000000e+002	0.000000e+000	-2.000000e+002	0.000000e+000
98248490.000	-3.567675e-002	-3.134386e+001	-4.959333e+001	6.924205e+001	-2.000000e+002	0.000000e+000	-2.000000e+002	0.000000e+000
