!Keysight Technologies,E5063A,MY54503115,A.05.08
!Date: Mon Dec 04 17:57:01 2023
!Data & Calibration Information:
!Freq	S11:NONE(--)	S21:NONE(--)	S12:NONE(--)	S22:NONE(--)
# Hz S dB R 50
100000.000	4.314797e-002	-5.187088e-001	-8.942559e+001	3.361230e+001	-2.000000e+002	0.000000e+000	-2.000000e+002	0.000000e+000
749990.000	2.013250e-003	-5.830043e-001	-8.903289e+001	-1.458766e+002	-2.000000e+002	0.000000e+000	-2.000000e+002	0.000000e+000
1399980.000	4.002708e-003	-7.625625e-001	-8.937514e+001	-2.457682e+001	-2.000000e+002	0.000000e+000	-2.000000e+002	0.000000e+000
2049970.000	2.665947e-003	-9.588642e-001	-8.760767e+001	1.072538e+002	-2.000000e+002	0.000000e+000	-2.000000e+002	0.000000e+000
2699960.000	2.067576e-003	-1.159026e+000	-7.949648e+001	9.541294e+001	-2.000000e+002	0.000000e+000	-2.000000e+002	0.000000e+000
3349950.000	5.342688e-003	-1.368724e+000	-7.960665e+001	7.567150e+001	-2.000000e+002	0.000000e+000	-2.000000e+002	0.000000e+000
3999940.000	3.793114e-003	-1.570094e+000	-7.727117e+001	1.023052e+002	-2.000000e+002	0.000000e+000	-2.000000e+002	0.000000e+000
4649930.000	5.484812e-003	-1.781222e+000	-7.442602e+001	8.477851e+001	-2.000000e+002	0.000000e+000	-2.000000e+002	0.000000e+000
5299920.000	3.266951e-003	-1.979247e+000	-7.432552e+001	8.499347e+001	-2.000000e+002	0.000000e+000	-2.000000e+002	0.000000e+000
5949910.000	3.277671e-003	-2.188623e+000	-7.435654e+001	8.752271e+001	-2.000000e+002	0.000000e+000	-2.000000e+002	0.000000e+000
6599900.000	2.478761e-003	-2.390235e+000	-7.235349e+001	7.837560e+001	-2.000000e+002	0.000000e+000	-2.000000e+002	0.000000e+000
7249890.000	3.049469e-003	-2.596262e+000	-7.326923e+001	8.599593e+001	-2.000000e+002	0.000000e+000	-2.000000e+002	0.000000e+000
7899880.000	3.070008e-003	-2.815213e+000	-7.109988e+001	9.066709e+001	-2.000000e+002	0.000000e+000	-2.000000e+002	0.000000e+000
8549870.000	6.573115e-003	-3.020234e+000	-7.101174e+001	8.736716e+001	-2.000000e+002	0.000000e+000	-2.000000e+002	0.000000e+000
9199860.000	5.159505e-003	-3.228063e+000	-7.054070e+001	8.676326e+001	-2.000000e+002	0.000000e+000	-2.000000e+002	0.000000e+000
9849850.000	5.338285e-003	-3.436354e+000	-7.000208e+001	8.738886e+001	-2.000000e+002	0.000000e+000	-2.000000e+002	0.000000e+000
10499840.000	3.034628e-003	-3.631139e+000	-6.985131e+001	8.749170e+001	-2.000000e+002	0.000000e+000	-2.000000e+002	0.000000e+000
11149830.000	1.043669e-003	-3.831240e+000	-6.888903e+001	8.840565e+001	-2.000000e+002	0.000000e+000	-2.000000e+002	0.000000e+000
11799820.000	5.527459e-004	-4.033262e+000	-6.858781e+001	8.614436e+001	-2.000000e+002	0.000000e+000	-2.000000e+002	0.000000e+000
12449810.000	1.701830e-003	-4.242843e+000	-6.818624e+001	8.683462e+001	-2.000000e+002	0.000000e+000	-2.000000e+002	0.000000e+000
13099800.000	4.383149e-003	-4.450761e+000	-6.760262e+001	8.612964e+001	-2.000000e+002	0.000000e+000	-2.000000e+002	0.000000e+000
13749790.000	3.909888e-003	-4.649812e+000	-6.736352e+001	8.445703e+001	-2.000000e+002	0.000000e+000	-2.000000e+002	0.000000e+000
14399780.000	2.191807e-003	-4.862512e+000	-6.692444e+001	8.550164e+001	-2.000000e+002	0.000000e+000	-2.000000e+002	0.000000e+000
15049770.000	4.330862e-003	-5.070610e+000	-6.653900e+001	8.472793e+001	-2.000000e+002	0.000000e+000	-2.000000e+002	0.000000e+000
15699760.000	5.064445e-003	-5.261506e+000	-6.617596e+001	8.659551e+001	-2.000000e+002	0.000000e+000	-2.000000e+002	0.000000e+000
16349750.000	5.938773e-003	-5.458968e+000	-6.598694e+001	8.525185e+001	-2.000000e+002	0.000000e+000	-2.000000e+002	0.000000e+000
16999740.000	4.519132e-003	-5.683679e+000	-6.589761e+001	8.313292e+001	-2.000000e+002	0.000000e+000	-2.000000e+002	0.000000e+000
17649730.000	1.351025e-002	-5.915348e+000	-6.526322e+001	8.733812e+001	-2.000000e+002	0.000000e+000	-2.000000e+002	0.000000e+000
18299720.000	1.680571e-002	-6.142457e+000	-6.512645e+001	8.560515e+001	-2.000000e+002	0.000000e+000	-2.000000e+002	0.000000e+000
18949710.000	1.570026e-002	-6.357098e+000	-6.453900e+001	8.623565e+001	-2.000000e+002	0.000000e+000	-2.000000e+002	0.000000e+000
19599700.000	1.008922e-002	-6.540015e+000	-6.449901e+001	8.598838e+001	-2.000000e+002	0.000000e+000	-2.000000e+002	0.000000e+000
20249690.000	5.437456e-003	-6.735451e+000	-6.445261e+001	8.772480e+001	-2.000000e+002	0.000000e+000	-2.000000e+002	0.000000e+000
20899680.000	2.633681e-003	-6.977633e+000	-6.403750e+001	8.819130e+001	-2.000000e+002	0.000000e+000	-2.000000e+002	0.000000e+000
21549670.000	1.491881e-003	-7.193936e+000	-6.340877e+001	8.799799e+001	-2.000000e+002	0.000000e+000	-2.000000e+002	0.000000e+000
22199660.000	1.876725e-003	-7.389876e+000	-6.292489e+001	8.852863e+001	-2.000000e+002	0.000000e+000	-2.000000e+002	0.000000e+000
22849650.000	4.250586e-003	-7.564102e+000	-6.254189e+001	8.917066e+001	-2.000000e+002	0.000000e+000	-2.000000e+002	0.000000e+000
23499640.000	2.812319e-003	-7.767284e+000	-6.225875e+001	8.716897e+001	-2.000000e+002	0.000000e+000	-2.000000e+002	0.000000e+000
24149630.000	2.593021e-004	-7.975146e+000	-6.188005e+001	8.549505e+001	-2.000000e+002	0.000000e+000	-2.000000e+002	0.000000e+000
24799620.000	-1.665529e-004	-8.180935e+000	-6.168619e+001	8.493511e+001	-2.000000e+002	0.000000e+000	-2.000000e+002	0.000000e+000
25449610.000	2.398469e-003	-8.382128e+000	-6.156030e+001	8.458547e+001	-2.000000e+002	0.000000e+000	-2.000000e+002	0.000000e+000
26099600.000	1.430063e-003	-8.585225e+000	-6.147752e+001	8.378939e+001	-2.000000e+002	0.000000e+000	-2.000000e+002	0.000000e+000
26749590.000	4.436263e-004	-8.787075e+000	-6.118205e+001	8.330423e+001	-2.000000e+002	0.000000e+000	-2.000000e+002	0.000000e+000
27399580.000	-2.894198e-004	-8.998544e+000	-6.116306e+001	8.291997e+001	-2.000000e+002	0.000000e+000	-2.000000e+002	0.000000e+000
28049570.000	1.123358e-003	-9.205639e+000	-6.085827e+001	8.220457e+001	-2.000000e+002	0.000000e+000	-2.000000e+002	0.000000e+000
28699560.000	1.137146e-004	-9.402460e+000	-6.068843e+001	8.206042e+001	-2.000000e+002	0.000000e+000	-2.000000e+002	0.000000e+000
29349550.000	-2.539296e-004	-9.606781e+000	-6.065880e+001	8.283190e+001	-2.000000e+002	0.000000e+000	-2.000000e+002	0.000000e+000
29999540.000	-1.021741e-004	-9.805131e+000	-6.008729e+001	8.150890e+001	-2.000000e+002	0.000000e+000	-2.000000e+002	0.000000e+000
30649530.000	-6.980422e-004	-1.001594e+001	-6.031584e+001	8.085559e+001	-2.000000e+002	0.000000e+000	-2.000000e+002	0.000000e+000
31299520.000	-9.415858e-005	-1.022739e+001	-6.019674e+001	8.149042e+001	-2.000000e+002	0.000000e+000	-2.000000e+002	0.000000e+000
31949510.000	-1.363484e-004	-1.043377e+001	-6.006860e+001	8.073447e+001	-2.000000e+002	0.000000e+000	-2.000000e+002	0.000000e+000
32599500.000	-1.303528e-003	-1.063938e+001	-5.991801e+001	8.105528e+001	-2.000000e+002	0.000000e+000	-2.000000e+002	0.000000e+000
33249490.000	-1.102815e-003	-1.084203e+001	-5.978596e+001	8.144642e+001	-2.000000e+002	0.000000e+000	-2.000000e+002	0.000000e+000
33899480.000	-9.838173e-004	-1.105493e+001	-5.977163e+001	8.080836e+001	-2.000000e+002	0.000000e+000	-2.000000e+002	0.000000e+000
34549470.000	-1.149647e-003	-1.125144e+001	-5.962640e+001	8.088237e+001	-2.000000e+002	0.000000e+000	-2.000000e+002	0.000000e+000
35199460.000	-1.531074e-003	-1.145175e+001	-5.956623e+001	8.045624e+001	-2.000000e+002	0.000000e+000	-2.000000e+002	0.000000e+000
35849450.000	-1.299959e-003	-1.165339e+001	-5.949934e+001	8.161851e+001	-2.000000e+002	0.000000e+000	-2.000000e+002	0.000000e+000
36499440.000	-1.791673e-003	-1.185958e+001	-5.941447e+001	8.202635e+001	-2.000000e+002	0.000000e+000	-2.000000e+002	0.000000e+000
37149430.000	-2.113497e-003	-1.206723e+001	-5.938710e+001	8.466223e+001	-2.000000e+002	0.000000e+000	-2.000000e+002	0.000000e+000
37799420.000	-2.969914e-003	-1.227238e+001	-5.905884e+001	8.496437e+001	-2.000000e+002	0.000000e+000	-2.000000e+002	0.000000e+000
38449410.000	-2.635100e-003	-1.247841e+001	-5.863153e+001	8.519208e+001	-2.000000e+002	0.000000e+000	-2.000000e+002	0.000000e+000
39099400.000	-3.793273e-003	-1.268461e+001	-5.832539e+001	8.371344e+001	-2.000000e+002	0.000000e+000	-2.000000e+002	0.000000e+000
39749390.000	-4.050024e-003	-1.289563e+001	-5.817113e+001	8.362664e+001	-2.000000e+002	0.000000e+000	-2.000000e+002	0.000000e+000
40399380.000	-4.168970e-003	-1.310370e+001	-5.789669e+001	8.315675e+001	-2.000000e+002	0.000000e+000	-2.000000e+002	0.000000e+000
41049370.000	-3.720645e-003	-1.330744e+001	-5.778542e+001	8.223171e+001	-2.000000e+002	0.000000e+000	-2.000000e+002	0.000000e+000
41699360.000	-2.764993e-003	-1.351159e+001	-5.768400e+001	8.148153e+001	-2.000000e+002	0.000000e+000	-2.000000e+002	0.000000e+000
42349350.000	-2.491330e-003	-1.371854e+001	-5.763977e+001	8.087957e+001	-2.000000e+002	0.000000e+000	-2.000000e+002	0.000000e+000
42999340.000	-3.153680e-003	-1.392004e+001	-5.763029e+001	8.074237e+001	-2.000000e+002	0.000000e+000	-2.000000e+002	0.000000e+000
43649330.000	-3.447078e-003	-1.412605e+001	-5.756363e+001	8.056978e+001	-2.000000e+002	0.000000e+000	-2.000000e+002	0.000000e+000
44299320.000	-3.516602e-003	-1.433212e+001	-5.751820e+001	8.141346e+001	-2.000000e+002	0.000000e+000	-2.000000e+002	0.000000e+000
44949310.000	-3.738049e-003	-1.454309e+001	-5.740102e+001	8.182293e+001	-2.000000e+002	0.000000e+000	-2.000000e+002	0.000000e+000
45599300.000	-4.134915e-003	-1.474986e+001	-5.731378e+001	8.137236e+001	-2.000000e+002	0.000000e+000	-2.000000e+002	0.000000e+000
46249290.000	-5.070109e-003	-1.495784e+001	-5.727169e+001	8.162257e+001	-2.000000e+002	0.000000e+000	-2.000000e+002	0.000000e+000
46899280.000	-5.440447e-003	-1.516306e+001	-5.725554e+001	8.194512e+001	-2.000000e+002	0.000000e+000	-2.000000e+002	0.000000e+000
47549270.000	-7.032963e-003	-1.536532e+001	-5.717446e+001	8.319678e+001	-2.000000e+002	0.000000e+000	-2.000000e+002	0.000000e+000
48199260.000	-7.685649e-003	-1.557266e+001	-5.709712e+001	8.348743e+001	-2.000000e+002	0.000000e+000	-2.000000e+002	0.000000e+000
48849250.000	-9.114181e-003	-1.578031e+001	-5.710279e+001	8.412172e+001	-2.000000e+002	0.000000e+000	-2.000000e+002	0.000000e+000
49499240.000	-9.243852e-003	-1.598784e+001	-5.693694e+001	8.551669e+001	-2.000000e+002	0.000000e+000	-2.000000e+002	0.000000e+000
50149230.000	-9.397523e-003	-1.619339e+001	-5.678946e+001	8.668306e+001	-2.000000e+002	0.000000e+000	-2.000000e+002	0.000000e+000
50799220.000	-1.007192e-002	-1.640156e+001	-5.653612e+001	8.751610e+001	-2.000000e+002	0.000000e+000	-2.000000e+002	0.000000e+000
51449210.000	-9.733311e-003	-1.660507e+001	-5.626595e+001	8.921968e+001	-2.000000e+002	0.000000e+000	-2.000000e+002	0.000000e+000
52099200.000	-1.049654e-002	-1.681176e+001	-5.596747e+001	8.946169e+001	-2.000000e+002	0.000000e+000	-2.000000e+002	0.000000e+000
52749190.000	-1.045151e-002	-1.701181e+001	-5.565297e+001	9.073622e+001	-2.000000e+002	0.000000e+000	-2.000000e+002	0.000000e+000
53399180.000	-1.115273e-002	-1.721442e+001	-5.524691e+001	9.062230e+001	-2.000000e+002	0.000000e+000	-2.000000e+002	0.000000e+000
54049170.000	-1.132625e-002	-1.741710e+001	-5.484990e+001	8.990992e+001	-2.000000e+002	0.000000e+000	-2.000000e+002	0.000000e+000
54699160.000	-1.108329e-002	-1.762191e+001	-5.449578e+001	8.845536e+001	-2.000000e+002	0.000000e+000	-2.000000e+002	0.000000e+000
55349150.000	-1.144823e-002	-1.782665e+001	-5.432236e+001	8.678227e+001	-2.000000e+002	0.000000e+000	-2.000000e+002	0.000000e+000
55999140.000	-1.123084e-002	-1.803537e+001	-5.415597e+001	8.530192e+001	-2.000000e+002	0.000000e+000	-2.000000e+002	0.000000e+000
56649130.000	-1.189977e-002	-1.823860e+001	-5.416387e+001	8.445134e+001	-2.000000e+002	0.000000e+000	-2.000000e+002	0.000000e+000
57299120.000	-1.211179e-002	-1.844426e+001	-5.416767e+001	8.374617e+001	-2.000000e+002	0.000000e+000	-2.000000e+002	0.000000e+000
57949110.000	-1.307374e-002	-1.865333e+001	-5.425497e+001	8.391388e+001	-2.000000e+002	0.000000e+000	-2.000000e+002	0.000000e+000
58599100.000	-1.311325e-002	-1.885066e+001	-5.412238e+001	8.479065e+001	-2.000000e+002	0.000000e+000	-2.000000e+002	0.000000e+000
59249090.000	-1.392863e-002	-1.905888e+001	-5.390626e+001	8.517295e+001	-2.000000e+002	0.000000e+000	-2.000000e+002	0.000000e+000
59899080.000	-1.391156e-002	-1.925882e+001	-5.365395e+001	8.495053e+001	-2.000000e+002	0.000000e+000	-2.000000e+002	0.000000e+000
60549070.000	-1.512782e-002	-1.946164e+001	-5.356023e+001	8.376225e+001	-2.000000e+002	0.000000e+000	-2.000000e+002	0.000000e+000
61199060.000	-1.552605e-002	-1.966541e+001	-5.346022e+001	8.365317e+001	-2.000000e+002	0.000000e+000	-2.000000e+002	0.000000e+000
61849050.000	-1.611708e-002	-1.986704e+001	-5.342344e+001	8.365949e+001	-2.000000e+002	0.000000e+000	-2.000000e+002	0.000000e+000
62499040.000	-1.714277e-002	-2.006921e+001	-5.328426e+001	8.393970e+001	-2.000000e+002	0.000000e+000	-2.000000e+002	0.000000e+000
63149030.000	-1.715597e-002	-2.027494e+001	-5.311494e+001	8.414423e+001	-2.000000e+002	0.000000e+000	-2.000000e+002	0.000000e+000
63799020.000	-1.817411e-002	-2.047801e+001	-5.296676e+001	8.412090e+001	-2.000000e+002	0.000000e+000	-2.000000e+002	0.000000e+000
64449010.000	-1.893282e-002	-2.067996e+001	-5.283272e+001	8.367936e+001	-2.000000e+002	0.000000e+000	-2.000000e+002	0.000000e+000
65099000.000	-1.970144e-002	-2.088416e+001	-5.278546e+001	8.395925e+001	-2.000000e+002	0.000000e+000	-2.000000e+002	0.000000e+000
65748990.000	-1.951711e-002	-2.108880e+001	-5.257433e+001	8.411356e+001	-2.000000e+002	0.000000e+000	-2.000000e+002	0.000000e+000
66398980.000	-2.019351e-002	-2.128807e+001	-5.240909e+001	8.413789e+001	-2.000000e+002	0.000000e+000	-2.000000e+002	0.000000e+000
67048970.000	-2.026457e-002	-2.149353e+001	-5.227807e+001	8.406047e+001	-2.000000e+002	0.000000e+000	-2.000000e+002	0.000000e+000
67698960.000	-2.115570e-002	-2.169606e+001	-5.212199e+001	8.441797e+001	-2.000000e+002	0.000000e+000	-2.000000e+002	0.000000e+000
68348950.000	-2.240172e-002	-2.189712e+001	-5.194730e+001	8.455059e+001	-2.000000e+002	0.000000e+000	-2.000000e+002	0.000000e+000
68998940.000	-2.255463e-002	-2.209721e+001	-5.167875e+001	8.492977e+001	-2.000000e+002	0.000000e+000	-2.000000e+002	0.000000e+000
69648930.000	-2.306635e-002	-2.230119e+001	-5.139547e+001	8.531241e+001	-2.000000e+002	0.000000e+000	-2.000000e+002	0.000000e+000
70298920.000	-2.204685e-002	-2.250325e+001	-5.097500e+001	8.512684e+001	-2.000000e+002	0.000000e+000	-2.000000e+002	0.000000e+000
70948910.000	-2.230556e-002	-2.270247e+001	-5.056207e+001	8.370683e+001	-2.000000e+002	0.000000e+000	-2.000000e+002	0.000000e+000
71598900.000	-2.226257e-002	-2.290164e+001	-5.023786e+001	8.190538e+001	-2.000000e+002	0.000000e+000	-2.000000e+002	0.000000e+000
72248890.000	-2.176084e-002	-2.310457e+001	-5.003915e+001	7.933033e+001	-2.000000e+002	0.000000e+000	-2.000000e+002	0.000000e+000
72898880.000	-2.130214e-002	-2.330881e+001	-4.996686e+001	7.684029e+001	-2.000000e+002	0.000000e+000	-2.000000e+002	0.000000e+000
73548870.000	-2.143409e-002	-2.351493e+001	-5.002271e+001	7.528441e+001	-2.000000e+002	0.000000e+000	-2.000000e+002	0.000000e+000
74198860.000	-2.083986e-002	-2.371943e+001	-5.001328e+001	7.387600e+001	-2.000000e+002	0.000000e+000	-2.000000e+002	0.000000e+000
74848850.000	-2.157067e-002	-2.392540e+001	-5.007282e+001	7.267988e+001	-2.000000e+002	0.000000e+000	-2.000000e+002	0.000000e+000
75498840.000	-2.106451e-002	-2.413296e+001	-5.011853e+001	7.175524e+001	-2.000000e+002	0.000000e+000	-2.000000e+002	0.000000e+000
76148830.000	-2.109380e-002	-2.434070e+001	-5.011915e+001	7.110870e+001	-2.000000e+002	0.000000e+000	-2.000000e+002	0.000000e+000
76798820.000	-2.062619e-002	-2.454372e+001	-5.021830e+001	7.019128e+001	-2.000000e+002	0.000000e+000	-2.000000e+002	0.000000e+000
77448810.000	-2.323985e-002	-2.474901e+001	-5.019163e+001	7.002234e+001	-2.000000e+002	0.000000e+000	-2.000000e+002	0.000000e+000
78098800.000	-2.368837e-002	-2.495472e+001	-5.019816e+001	6.974262e+001	-2.000000e+002	0.000000e+000	-2.000000e+002	0.000000e+000
78748790.000	-2.367995e-002	-2.516224e+001	-5.022147e+001	6.945286e+001	-2.000000e+002	0.000000e+000	-2.000000e+002	0.000000e+000
79398780.000	-2.383757e-002	-2.536623e+001	-5.017913e+001	6.915884e+001	-2.000000e+002	0.000000e+000	-2.000000e+002	0.000000e+000
80048770.000	-2.308000e-002	-2.557679e+001	-5.014787e+001	6.885865e+001	-2.000000e+002	0.000000e+000	-2.000000e+002	0.000000e+000
80698760.000	-2.293526e-002	-2.577833e+001	-5.015021e+001	6.842038e+001	-2.000000e+002	0.000000e+000	-2.000000e+002	0.000000e+000
81348750.000	-2.362406e-002	-2.598457e+001	-5.016217e+001	6.818342e+001	-2.000000e+002	0.000000e+000	-2.000000e+002	0.000000e+000
81998740.000	-2.356900e-002	-2.618879e+001	-5.013061e+001	6.793875e+001	-2.000000e+002	0.000000e+000	-2.000000e+002	0.000000e+000
82648730.000	-2.531029e-002	-2.639920e+001	-5.013974e+001	6.763232e+001	-2.000000e+002	0.000000e+000	-2.000000e+002	0.000000e+000
83298720.000	-2.584366e-002	-2.660818e+001	-5.009931e+001	6.775970e+001	-2.000000e+002	0.000000e+000	-2.000000e+002	0.000000e+000
83948710.000	-2.653781e-002	-2.681644e+001	-5.009908e+001	6.768163e+001	-2.000000e+002	0.000000e+000	-2.000000e+002	0.000000e+000
84598700.000	-2.651543e-002	-2.702191e+001	-5.006239e+001	6.770527e+001	-2.000000e+002	0.000000e+000	-2.000000e+002	0.000000e+000
85248690.000	-2.697720e-002	-2.723256e+001	-5.006554e+001	6.754563e+001	-2.000000e+002	0.000000e+000	-2.000000e+002	0.000000e+000
85898680.000	-2.766315e-002	-2.743715e+001	-4.999679e+001	6.751385e+001	-2.000000e+002	0.000000e+000	-2.000000e+002	0.000000e+000
86548670.000	-2.791035e-002	-2.764059e+001	-4.997102e+001	6.739869e+001	-2.000000e+002	0.000000e+000	-2.000000e+002	0.000000e+000
87198660.000	-2.840926e-002	-2.784454e+001	-4.988678e+001	6.724245e+001	-2.000000e+002	0.000000e+000	-2.000000e+002	0.000000e+000
87848650.000	-2.930780e-002	-2.804994e+001	-4.989936e+001	6.742533e+001	-2.000000e+002	0.000000e+000	-2.000000e+002	0.000000e+000
88498640.000	-2.923183e-002	-2.824804e+001	-4.988174e+001	6.722318e+001	-2.000000e+002	0.000000e+000	-2.000000e+002	0.000000e+000
89148630.000	-3.038947e-002	-2.845308e+001	-4.983471e+001	6.715100e+001	-2.000000e+002	0.000000e+000	-2.000000e+002	0.000000e+000
89798620.000	-3.059196e-002	-2.865646e+001	-4.978851e+001	6.719331e+001	-2.000000e+002	0.000000e+000	-2.000000e+002	0.000000e+000
90448610.000	-3.055943e-002	-2.886429e+001	-4.975038e+001	6.693255e+001	-2.000000e+002	0.000000e+000	-2.000000e+002	0.000000e+000
91098600.000	-3.119255e-002	-2.907574e+001	-4.967993e+001	6.709537e+001	-2.000000e+002	0.000000e+000	-2.000000e+002	0.000000e+000
91748590.000	-3.111785e-002	-2.928156e+001	-4.967716e+001	6.711549e+001	-2.000000e+002	0.000000e+000	-2.000000e+002	0.000000e+000
92398580.000	-3.128489e-002	-2.948841e+001	-4.959157e+001	6.732536e+001	-2.000000e+002	0.000000e+000	-2.000000e+002	0.000000e+000
93048570.000	-3.140289e-002	-2.969643e+001	-4.948457e+001	6.696208e+001	-2.000000e+002	0.000000e+000	-2.000000e+002	0.000000e+000
93698560.000	-3.164181e-002	-2.990462e+001	-4.944668e+001	6.743009e+001	-2.000000e+002	0.000000e+000	-2.000000e+002	0.000000e+000
94348550.000	-3.208514e-002	-3.011112e+001	-4.935717e+001	6.720650e+001	-2.000000e+002	0.000000e+000	-2.000000e+002	0.000000e+000
94998540.000	-3.207028e-002	-3.032437e+001	-4.955708e+001	6.775169e+001	-2.000000e+002	0.000000e+000	-2.000000e+002	0.000000e+000
95648530.000	-3.317897e-002	-3.052140e+001	-4.930278e+001	6.693285e+001	-2.000000e+002	0.000000e+000	-2.000000e+002	0.000000e+000
96298520.000	-3.353693e-002	-3.072428e+001	-4.923056e+001	6.709911e+001	-2.000000e+002	0.000000e+000	-2.000000e+002	0.000000e+000
96948510.000	-3.390893e-002	-3.092676e+001	-4.914193e+001	6.700786e+001	-2.000000e+002	0.000000e+000	-2.000000e+002	0.000000e+000
97598500.000	-3.511243e-002	-3.113311e+001	-4.911425e+001	6.718138e+001	-2.000000e+002	0.000000e+000	-2.000000e+002	0.000000e+000
98248490.000	-3.443553e-002	-3.133365e+001	-4.912601e+001	6.744707e+001	-2.000000e+002	0.000000e+000	-2.000000e+002	0.000000e+000
