!Keysight Technologies,E5063A,MY54503115,A.05.08
!Date: Mon Dec 04 18:00:56 2023
!Data & Calibration Information:
!Freq	S11:NONE(--)	S21:NONE(--)	S12:NONE(--)	S22:NONE(--)
# Hz S dB R 50
100000.000	4.394663e-002	-5.200360e-001	-8.669006e+001	1.453355e+002	-2.000000e+002	0.000000e+000	-2.000000e+002	0.000000e+000
749990.000	2.725973e-003	-5.926422e-001	-8.197045e+001	-3.047542e+001	-2.000000e+002	0.000000e+000	-2.000000e+002	0.000000e+000
1399980.000	2.839926e-003	-7.664376e-001	-8.979407e+001	-1.073590e+002	-2.000000e+002	0.000000e+000	-2.000000e+002	0.000000e+000
2049970.000	1.373384e-003	-9.515523e-001	-8.633026e+001	8.869006e+001	-2.000000e+002	0.000000e+000	-2.000000e+002	0.000000e+000
2699960.000	2.071723e-003	-1.161875e+000	-7.720258e+001	9.943129e+001	-2.000000e+002	0.000000e+000	-2.000000e+002	0.000000e+000
3349950.000	4.247397e-003	-1.370225e+000	-7.806076e+001	1.109796e+002	-2.000000e+002	0.000000e+000	-2.000000e+002	0.000000e+000
3999940.000	3.768691e-003	-1.569876e+000	-7.800693e+001	1.050394e+002	-2.000000e+002	0.000000e+000	-2.000000e+002	0.000000e+000
4649930.000	4.634464e-003	-1.779534e+000	-7.438462e+001	1.023953e+002	-2.000000e+002	0.000000e+000	-2.000000e+002	0.000000e+000
5299920.000	2.658477e-003	-1.980641e+000	-7.750730e+001	6.733964e+001	-2.000000e+002	0.000000e+000	-2.000000e+002	0.000000e+000
5949910.000	2.396969e-003	-2.184761e+000	-7.331618e+001	8.375461e+001	-2.000000e+002	0.000000e+000	-2.000000e+002	0.000000e+000
6599900.000	2.552313e-003	-2.390764e+000	-7.304849e+001	8.907724e+001	-2.000000e+002	0.000000e+000	-2.000000e+002	0.000000e+000
7249890.000	1.997608e-003	-2.598988e+000	-7.406417e+001	8.948264e+001	-2.000000e+002	0.000000e+000	-2.000000e+002	0.000000e+000
7899880.000	1.827866e-003	-2.817352e+000	-7.121948e+001	9.246548e+001	-2.000000e+002	0.000000e+000	-2.000000e+002	0.000000e+000
8549870.000	6.186884e-003	-3.021836e+000	-7.119483e+001	8.869358e+001	-2.000000e+002	0.000000e+000	-2.000000e+002	0.000000e+000
9199860.000	4.976986e-003	-3.227142e+000	-7.090402e+001	8.604856e+001	-2.000000e+002	0.000000e+000	-2.000000e+002	0.000000e+000
9849850.000	5.010955e-003	-3.433899e+000	-7.003991e+001	8.640822e+001	-2.000000e+002	0.000000e+000	-2.000000e+002	0.000000e+000
10499840.000	2.515397e-003	-3.632047e+000	-6.940513e+001	8.752726e+001	-2.000000e+002	0.000000e+000	-2.000000e+002	0.000000e+000
11149830.000	7.467168e-004	-3.829618e+000	-6.878272e+001	8.669806e+001	-2.000000e+002	0.000000e+000	-2.000000e+002	0.000000e+000
11799820.000	-4.322427e-004	-4.029219e+000	-6.873926e+001	8.616685e+001	-2.000000e+002	0.000000e+000	-2.000000e+002	0.000000e+000
12449810.000	7.716645e-004	-4.243250e+000	-6.856465e+001	8.666012e+001	-2.000000e+002	0.000000e+000	-2.000000e+002	0.000000e+000
13099800.000	4.121974e-003	-4.446818e+000	-6.747314e+001	8.668437e+001	-2.000000e+002	0.000000e+000	-2.000000e+002	0.000000e+000
13749790.000	3.454406e-003	-4.646825e+000	-6.724182e+001	8.704747e+001	-2.000000e+002	0.000000e+000	-2.000000e+002	0.000000e+000
14399780.000	1.450709e-003	-4.861744e+000	-6.709167e+001	8.670426e+001	-2.000000e+002	0.000000e+000	-2.000000e+002	0.000000e+000
15049770.000	3.436167e-003	-5.068575e+000	-6.659573e+001	8.593296e+001	-2.000000e+002	0.000000e+000	-2.000000e+002	0.000000e+000
15699760.000	4.774903e-003	-5.261776e+000	-6.620792e+001	8.483795e+001	-2.000000e+002	0.000000e+000	-2.000000e+002	0.000000e+000
16349750.000	5.073633e-003	-5.462010e+000	-6.586119e+001	8.557560e+001	-2.000000e+002	0.000000e+000	-2.000000e+002	0.000000e+000
16999740.000	4.162535e-003	-5.680673e+000	-6.585889e+001	8.702794e+001	-2.000000e+002	0.000000e+000	-2.000000e+002	0.000000e+000
17649730.000	1.249715e-002	-5.913495e+000	-6.534555e+001	8.647236e+001	-2.000000e+002	0.000000e+000	-2.000000e+002	0.000000e+000
18299720.000	1.568109e-002	-6.141014e+000	-6.503953e+001	8.864894e+001	-2.000000e+002	0.000000e+000	-2.000000e+002	0.000000e+000
18949710.000	1.460485e-002	-6.351399e+000	-6.468661e+001	8.726087e+001	-2.000000e+002	0.000000e+000	-2.000000e+002	0.000000e+000
19599700.000	9.246984e-003	-6.539259e+000	-6.444355e+001	8.695988e+001	-2.000000e+002	0.000000e+000	-2.000000e+002	0.000000e+000
20249690.000	4.609311e-003	-6.734324e+000	-6.409059e+001	8.814412e+001	-2.000000e+002	0.000000e+000	-2.000000e+002	0.000000e+000
20899680.000	1.954579e-003	-6.974277e+000	-6.365818e+001	8.976964e+001	-2.000000e+002	0.000000e+000	-2.000000e+002	0.000000e+000
21549670.000	1.431567e-003	-7.194018e+000	-6.329479e+001	8.962485e+001	-2.000000e+002	0.000000e+000	-2.000000e+002	0.000000e+000
22199660.000	1.578326e-003	-7.387097e+000	-6.272917e+001	8.842442e+001	-2.000000e+002	0.000000e+000	-2.000000e+002	0.000000e+000
22849650.000	3.965161e-003	-7.563659e+000	-6.230553e+001	8.746236e+001	-2.000000e+002	0.000000e+000	-2.000000e+002	0.000000e+000
23499640.000	1.942666e-003	-7.761781e+000	-6.209396e+001	8.632983e+001	-2.000000e+002	0.000000e+000	-2.000000e+002	0.000000e+000
24149630.000	3.579928e-004	-7.972021e+000	-6.182705e+001	8.525537e+001	-2.000000e+002	0.000000e+000	-2.000000e+002	0.000000e+000
24799620.000	5.656771e-005	-8.179399e+000	-6.164858e+001	8.475662e+001	-2.000000e+002	0.000000e+000	-2.000000e+002	0.000000e+000
25449610.000	1.847001e-003	-8.383175e+000	-6.148885e+001	8.375724e+001	-2.000000e+002	0.000000e+000	-2.000000e+002	0.000000e+000
26099600.000	8.413510e-004	-8.581246e+000	-6.136689e+001	8.416792e+001	-2.000000e+002	0.000000e+000	-2.000000e+002	0.000000e+000
26749590.000	3.697613e-004	-8.787993e+000	-6.115884e+001	8.258959e+001	-2.000000e+002	0.000000e+000	-2.000000e+002	0.000000e+000
27399580.000	-1.403532e-004	-8.998570e+000	-6.094963e+001	8.305875e+001	-2.000000e+002	0.000000e+000	-2.000000e+002	0.000000e+000
28049570.000	1.330852e-004	-9.204811e+000	-6.084101e+001	8.306395e+001	-2.000000e+002	0.000000e+000	-2.000000e+002	0.000000e+000
28699560.000	-2.196520e-004	-9.399739e+000	-6.056084e+001	8.242427e+001	-2.000000e+002	0.000000e+000	-2.000000e+002	0.000000e+000
29349550.000	-5.755344e-004	-9.600070e+000	-6.045044e+001	8.121792e+001	-2.000000e+002	0.000000e+000	-2.000000e+002	0.000000e+000
29999540.000	-7.551565e-004	-9.806280e+000	-6.032587e+001	8.294034e+001	-2.000000e+002	0.000000e+000	-2.000000e+002	0.000000e+000
30649530.000	-3.168705e-004	-1.001762e+001	-6.013114e+001	8.133957e+001	-2.000000e+002	0.000000e+000	-2.000000e+002	0.000000e+000
31299520.000	-3.537683e-004	-1.022674e+001	-6.015680e+001	8.173504e+001	-2.000000e+002	0.000000e+000	-2.000000e+002	0.000000e+000
31949510.000	-9.106988e-004	-1.043201e+001	-6.001258e+001	8.128972e+001	-2.000000e+002	0.000000e+000	-2.000000e+002	0.000000e+000
32599500.000	-1.415810e-003	-1.063444e+001	-5.989880e+001	8.123477e+001	-2.000000e+002	0.000000e+000	-2.000000e+002	0.000000e+000
33249490.000	-1.650600e-003	-1.084584e+001	-5.973615e+001	8.098402e+001	-2.000000e+002	0.000000e+000	-2.000000e+002	0.000000e+000
33899480.000	-1.453854e-003	-1.105204e+001	-5.959397e+001	8.059351e+001	-2.000000e+002	0.000000e+000	-2.000000e+002	0.000000e+000
34549470.000	-2.346260e-003	-1.124703e+001	-5.960521e+001	8.086653e+001	-2.000000e+002	0.000000e+000	-2.000000e+002	0.000000e+000
35199460.000	-2.063265e-003	-1.145082e+001	-5.957286e+001	8.149027e+001	-2.000000e+002	0.000000e+000	-2.000000e+002	0.000000e+000
35849450.000	-1.977810e-003	-1.165224e+001	-5.946042e+001	8.194763e+001	-2.000000e+002	0.000000e+000	-2.000000e+002	0.000000e+000
36499440.000	-2.645475e-003	-1.186020e+001	-5.949049e+001	8.361771e+001	-2.000000e+002	0.000000e+000	-2.000000e+002	0.000000e+000
37149430.000	-3.005428e-003	-1.206423e+001	-5.927443e+001	8.581555e+001	-2.000000e+002	0.000000e+000	-2.000000e+002	0.000000e+000
37799420.000	-4.047316e-003	-1.227140e+001	-5.865653e+001	8.714430e+001	-2.000000e+002	0.000000e+000	-2.000000e+002	0.000000e+000
38449410.000	-4.023456e-003	-1.247969e+001	-5.835392e+001	8.654439e+001	-2.000000e+002	0.000000e+000	-2.000000e+002	0.000000e+000
39099400.000	-3.805803e-003	-1.268088e+001	-5.799463e+001	8.535363e+001	-2.000000e+002	0.000000e+000	-2.000000e+002	0.000000e+000
39749390.000	-4.691341e-003	-1.289096e+001	-5.777222e+001	8.460461e+001	-2.000000e+002	0.000000e+000	-2.000000e+002	0.000000e+000
40399380.000	-4.580922e-003	-1.309983e+001	-5.748413e+001	8.411598e+001	-2.000000e+002	0.000000e+000	-2.000000e+002	0.000000e+000
41049370.000	-4.273495e-003	-1.330261e+001	-5.730007e+001	8.255421e+001	-2.000000e+002	0.000000e+000	-2.000000e+002	0.000000e+000
41699360.000	-3.550137e-003	-1.350840e+001	-5.724353e+001	8.160584e+001	-2.000000e+002	0.000000e+000	-2.000000e+002	0.000000e+000
42349350.000	-3.067861e-003	-1.371483e+001	-5.725954e+001	8.102996e+001	-2.000000e+002	0.000000e+000	-2.000000e+002	0.000000e+000
42999340.000	-3.779388e-003	-1.391548e+001	-5.716808e+001	8.077258e+001	-2.000000e+002	0.000000e+000	-2.000000e+002	0.000000e+000
43649330.000	-3.974684e-003	-1.412358e+001	-5.713693e+001	8.051868e+001	-2.000000e+002	0.000000e+000	-2.000000e+002	0.000000e+000
44299320.000	-3.522302e-003	-1.432940e+001	-5.708885e+001	8.010039e+001	-2.000000e+002	0.000000e+000	-2.000000e+002	0.000000e+000
44949310.000	-3.717992e-003	-1.453633e+001	-5.701809e+001	8.003215e+001	-2.000000e+002	0.000000e+000	-2.000000e+002	0.000000e+000
45599300.000	-4.254523e-003	-1.474689e+001	-5.698967e+001	8.014489e+001	-2.000000e+002	0.000000e+000	-2.000000e+002	0.000000e+000
46249290.000	-4.931449e-003	-1.495870e+001	-5.694385e+001	8.031322e+001	-2.000000e+002	0.000000e+000	-2.000000e+002	0.000000e+000
46899280.000	-5.677281e-003	-1.515970e+001	-5.696388e+001	8.070039e+001	-2.000000e+002	0.000000e+000	-2.000000e+002	0.000000e+000
47549270.000	-6.821129e-003	-1.536197e+001	-5.689954e+001	8.147879e+001	-2.000000e+002	0.000000e+000	-2.000000e+002	0.000000e+000
48199260.000	-8.083168e-003	-1.557241e+001	-5.682210e+001	8.231889e+001	-2.000000e+002	0.000000e+000	-2.000000e+002	0.000000e+000
48849250.000	-9.351922e-003	-1.577866e+001	-5.658786e+001	8.329933e+001	-2.000000e+002	0.000000e+000	-2.000000e+002	0.000000e+000
49499240.000	-9.288226e-003	-1.598150e+001	-5.643600e+001	8.427989e+001	-2.000000e+002	0.000000e+000	-2.000000e+002	0.000000e+000
50149230.000	-9.398341e-003	-1.618535e+001	-5.618979e+001	8.438902e+001	-2.000000e+002	0.000000e+000	-2.000000e+002	0.000000e+000
50799220.000	-9.706119e-003	-1.639220e+001	-5.596211e+001	8.431224e+001	-2.000000e+002	0.000000e+000	-2.000000e+002	0.000000e+000
51449210.000	-9.098949e-003	-1.660065e+001	-5.579058e+001	8.458587e+001	-2.000000e+002	0.000000e+000	-2.000000e+002	0.000000e+000
52099200.000	-9.407643e-003	-1.680361e+001	-5.566032e+001	8.405019e+001	-2.000000e+002	0.000000e+000	-2.000000e+002	0.000000e+000
52749190.000	-9.668177e-003	-1.700801e+001	-5.543215e+001	8.413782e+001	-2.000000e+002	0.000000e+000	-2.000000e+002	0.000000e+000
53399180.000	-9.864481e-003	-1.721256e+001	-5.530811e+001	8.422142e+001	-2.000000e+002	0.000000e+000	-2.000000e+002	0.000000e+000
54049170.000	-9.789600e-003	-1.741709e+001	-5.511491e+001	8.414858e+001	-2.000000e+002	0.000000e+000	-2.000000e+002	0.000000e+000
54699160.000	-1.068051e-002	-1.762463e+001	-5.487455e+001	8.406313e+001	-2.000000e+002	0.000000e+000	-2.000000e+002	0.000000e+000
55349150.000	-1.082997e-002	-1.783057e+001	-5.474839e+001	8.364712e+001	-2.000000e+002	0.000000e+000	-2.000000e+002	0.000000e+000
55999140.000	-1.083904e-002	-1.803770e+001	-5.457600e+001	8.260271e+001	-2.000000e+002	0.000000e+000	-2.000000e+002	0.000000e+000
56649130.000	-1.151605e-002	-1.824390e+001	-5.453275e+001	8.200753e+001	-2.000000e+002	0.000000e+000	-2.000000e+002	0.000000e+000
57299120.000	-1.215402e-002	-1.844776e+001	-5.445598e+001	8.181706e+001	-2.000000e+002	0.000000e+000	-2.000000e+002	0.000000e+000
57949110.000	-1.242889e-002	-1.865222e+001	-5.442336e+001	8.211152e+001	-2.000000e+002	0.000000e+000	-2.000000e+002	0.000000e+000
58599100.000	-1.281201e-002	-1.885329e+001	-5.436194e+001	8.257246e+001	-2.000000e+002	0.000000e+000	-2.000000e+002	0.000000e+000
59249090.000	-1.392412e-002	-1.906331e+001	-5.414988e+001	8.277097e+001	-2.000000e+002	0.000000e+000	-2.000000e+002	0.000000e+000
59899080.000	-1.368572e-002	-1.926182e+001	-5.400601e+001	8.293669e+001	-2.000000e+002	0.000000e+000	-2.000000e+002	0.000000e+000
60549070.000	-1.473110e-002	-1.946322e+001	-5.378632e+001	8.256373e+001	-2.000000e+002	0.000000e+000	-2.000000e+002	0.000000e+000
61199060.000	-1.575819e-002	-1.967100e+001	-5.380101e+001	8.212792e+001	-2.000000e+002	0.000000e+000	-2.000000e+002	0.000000e+000
61849050.000	-1.619286e-002	-1.987235e+001	-5.374163e+001	8.233732e+001	-2.000000e+002	0.000000e+000	-2.000000e+002	0.000000e+000
62499040.000	-1.684586e-002	-2.007342e+001	-5.360986e+001	8.315437e+001	-2.000000e+002	0.000000e+000	-2.000000e+002	0.000000e+000
63149030.000	-1.741532e-002	-2.027580e+001	-5.340659e+001	8.331657e+001	-2.000000e+002	0.000000e+000	-2.000000e+002	0.000000e+000
63799020.000	-1.837167e-002	-2.048133e+001	-5.326836e+001	8.317048e+001	-2.000000e+002	0.000000e+000	-2.000000e+002	0.000000e+000
64449010.000	-1.972432e-002	-2.068164e+001	-5.315334e+001	8.357023e+001	-2.000000e+002	0.000000e+000	-2.000000e+002	0.000000e+000
65099000.000	-1.991511e-002	-2.088451e+001	-5.300828e+001	8.383958e+001	-2.000000e+002	0.000000e+000	-2.000000e+002	0.000000e+000
65748990.000	-2.020354e-002	-2.109066e+001	-5.282574e+001	8.410103e+001	-2.000000e+002	0.000000e+000	-2.000000e+002	0.000000e+000
66398980.000	-2.073358e-002	-2.129417e+001	-5.263885e+001	8.442272e+001	-2.000000e+002	0.000000e+000	-2.000000e+002	0.000000e+000
67048970.000	-2.099050e-002	-2.149401e+001	-5.240833e+001	8.431117e+001	-2.000000e+002	0.000000e+000	-2.000000e+002	0.000000e+000
67698960.000	-2.176171e-002	-2.169855e+001	-5.220706e+001	8.395342e+001	-2.000000e+002	0.000000e+000	-2.000000e+002	0.000000e+000
68348950.000	-2.229682e-002	-2.190086e+001	-5.198778e+001	8.451768e+001	-2.000000e+002	0.000000e+000	-2.000000e+002	0.000000e+000
68998940.000	-2.335022e-002	-2.210168e+001	-5.170507e+001	8.456273e+001	-2.000000e+002	0.000000e+000	-2.000000e+002	0.000000e+000
69648930.000	-2.372905e-002	-2.230425e+001	-5.137558e+001	8.456548e+001	-2.000000e+002	0.000000e+000	-2.000000e+002	0.000000e+000
70298920.000	-2.212395e-002	-2.250439e+001	-5.098704e+001	8.393115e+001	-2.000000e+002	0.000000e+000	-2.000000e+002	0.000000e+000
70948910.000	-2.247564e-002	-2.270445e+001	-5.064603e+001	8.211733e+001	-2.000000e+002	0.000000e+000	-2.000000e+002	0.000000e+000
71598900.000	-2.189428e-002	-2.290539e+001	-5.038992e+001	7.998003e+001	-2.000000e+002	0.000000e+000	-2.000000e+002	0.000000e+000
72248890.000	-2.172700e-002	-2.310849e+001	-5.022724e+001	7.765573e+001	-2.000000e+002	0.000000e+000	-2.000000e+002	0.000000e+000
72898880.000	-2.108119e-002	-2.331219e+001	-5.021446e+001	7.546880e+001	-2.000000e+002	0.000000e+000	-2.000000e+002	0.000000e+000
73548870.000	-2.129656e-002	-2.351865e+001	-5.028699e+001	7.435152e+001	-2.000000e+002	0.000000e+000	-2.000000e+002	0.000000e+000
74198860.000	-2.136649e-002	-2.372260e+001	-5.028567e+001	7.295076e+001	-2.000000e+002	0.000000e+000	-2.000000e+002	0.000000e+000
74848850.000	-2.182329e-002	-2.393313e+001	-5.031657e+001	7.204389e+001	-2.000000e+002	0.000000e+000	-2.000000e+002	0.000000e+000
75498840.000	-2.149319e-002	-2.413863e+001	-5.032752e+001	7.104759e+001	-2.000000e+002	0.000000e+000	-2.000000e+002	0.000000e+000
76148830.000	-2.162134e-002	-2.434202e+001	-5.040358e+001	7.078762e+001	-2.000000e+002	0.000000e+000	-2.000000e+002	0.000000e+000
76798820.000	-2.089863e-002	-2.454749e+001	-5.042138e+001	7.003474e+001	-2.000000e+002	0.000000e+000	-2.000000e+002	0.000000e+000
77448810.000	-2.317751e-002	-2.475182e+001	-5.043008e+001	6.980096e+001	-2.000000e+002	0.000000e+000	-2.000000e+002	0.000000e+000
78098800.000	-2.381655e-002	-2.496047e+001	-5.045866e+001	6.918400e+001	-2.000000e+002	0.000000e+000	-2.000000e+002	0.000000e+000
78748790.000	-2.432462e-002	-2.516640e+001	-5.045394e+001	6.894303e+001	-2.000000e+002	0.000000e+000	-2.000000e+002	0.000000e+000
79398780.000	-2.394463e-002	-2.537071e+001	-5.042710e+001	6.872627e+001	-2.000000e+002	0.000000e+000	-2.000000e+002	0.000000e+000
80048770.000	-2.283765e-002	-2.557821e+001	-5.044201e+001	6.856686e+001	-2.000000e+002	0.000000e+000	-2.000000e+002	0.000000e+000
80698760.000	-2.356328e-002	-2.578661e+001	-5.045228e+001	6.837395e+001	-2.000000e+002	0.000000e+000	-2.000000e+002	0.000000e+000
81348750.000	-2.409876e-002	-2.599355e+001	-5.041560e+001	6.800275e+001	-2.000000e+002	0.000000e+000	-2.000000e+002	0.000000e+000
81998740.000	-2.410997e-002	-2.619852e+001	-5.039563e+001	6.806783e+001	-2.000000e+002	0.000000e+000	-2.000000e+002	0.000000e+000
82648730.000	-2.613827e-002	-2.640406e+001	-5.043402e+001	6.807664e+001	-2.000000e+002	0.000000e+000	-2.000000e+002	0.000000e+000
83298720.000	-2.680092e-002	-2.661244e+001	-5.036751e+001	6.782671e+001	-2.000000e+002	0.000000e+000	-2.000000e+002	0.000000e+000
83948710.000	-2.672883e-002	-2.682100e+001	-5.034820e+001	6.794666e+001	-2.000000e+002	0.000000e+000	-2.000000e+002	0.000000e+000
84598700.000	-2.719376e-002	-2.702902e+001	-5.031644e+001	6.799678e+001	-2.000000e+002	0.000000e+000	-2.000000e+002	0.000000e+000
85248690.000	-2.717650e-002	-2.723304e+001	-5.025919e+001	6.761750e+001	-2.000000e+002	0.000000e+000	-2.000000e+002	0.000000e+000
85898680.000	-2.796440e-002	-2.744204e+001	-5.025087e+001	6.787207e+001	-2.000000e+002	0.000000e+000	-2.000000e+002	0.000000e+000
86548670.000	-2.849870e-002	-2.764358e+001	-5.018700e+001	6.779030e+001	-2.000000e+002	0.000000e+000	-2.000000e+002	0.000000e+000
87198660.000	-2.893400e-002	-2.785192e+001	-5.019621e+001	6.749860e+001	-2.000000e+002	0.000000e+000	-2.000000e+002	0.000000e+000
87848650.000	-2.915818e-002	-2.805624e+001	-5.012946e+001	6.760023e+001	-2.000000e+002	0.000000e+000	-2.000000e+002	0.000000e+000
88498640.000	-2.969100e-002	-2.825570e+001	-5.010406e+001	6.729407e+001	-2.000000e+002	0.000000e+000	-2.000000e+002	0.000000e+000
89148630.000	-3.076412e-002	-2.845933e+001	-5.006659e+001	6.753250e+001	-2.000000e+002	0.000000e+000	-2.000000e+002	0.000000e+000
89798620.000	-3.083754e-002	-2.866185e+001	-5.002779e+001	6.758227e+001	-2.000000e+002	0.000000e+000	-2.000000e+002	0.000000e+000
90448610.000	-3.069530e-002	-2.887061e+001	-5.001643e+001	6.757221e+001	-2.000000e+002	0.000000e+000	-2.000000e+002	0.000000e+000
91098600.000	-3.188916e-002	-2.907989e+001	-4.999685e+001	6.771152e+001	-2.000000e+002	0.000000e+000	-2.000000e+002	0.000000e+000
91748590.000	-3.120061e-002	-2.929070e+001	-5.003820e+001	6.745283e+001	-2.000000e+002	0.000000e+000	-2.000000e+002	0.000000e+000
92398580.000	-3.152229e-002	-2.949386e+001	-4.992357e+001	6.817577e+001	-2.000000e+002	0.000000e+000	-2.000000e+002	0.000000e+000
93048570.000	-3.191889e-002	-2.969969e+001	-4.979349e+001	6.864604e+001	-2.000000e+002	0.000000e+000	-2.000000e+002	0.000000e+000
93698560.000	-3.261709e-002	-2.991163e+001	-4.975901e+001	6.855400e+001	-2.000000e+002	0.000000e+000	-2.000000e+002	0.000000e+000
94348550.000	-3.237594e-002	-3.011937e+001	-4.970196e+001	6.860416e+001	-2.000000e+002	0.000000e+000	-2.000000e+002	0.000000e+000
94998540.000	-3.379791e-002	-3.032539e+001	-4.952020e+001	6.895341e+001	-2.000000e+002	0.000000e+000	-2.000000e+002	0.000000e+000
95648530.000	-3.400473e-002	-3.052873e+001	-4.960532e+001	6.880414e+001	-2.000000e+002	0.000000e+000	-2.000000e+002	0.000000e+000
96298520.000	-3.415370e-002	-3.073231e+001	-4.954250e+001	6.874568e+001	-2.000000e+002	0.000000e+000	-2.000000e+002	0.000000e+000
96948510.000	-3.470205e-002	-3.093586e+001	-4.943709e+001	6.930313e+001	-2.000000e+002	0.000000e+000	-2.000000e+002	0.000000e+000
97598500.000	-3.595927e-002	-3.114163e+001	-4.938907e+001	6.940118e+001	-2.000000e+002	0.000000e+000	-2.000000e+002	0.000000e+000
98248490.000	-3.546509e-002	-3.134092e+001	-4.937096e+001	6.948748e+001	-2.000000e+002	0.000000e+000	-2.000000e+002	0.000000e+000
