!Keysight Technologies,E5063A,MY54503115,A.05.08
!Date: Mon Dec 04 18:03:53 2023
!Data & Calibration Information:
!Freq	S11:NONE(--)	S21:NONE(--)	S12:NONE(--)	S22:NONE(--)
# Hz S dB R 50
100000.000	4.494664e-002	-5.244484e-001	-8.051599e+001	4.286301e+001	-2.000000e+002	0.000000e+000	-2.000000e+002	0.000000e+000
749990.000	1.394712e-003	-5.872707e-001	-8.373358e+001	4.305280e+001	-2.000000e+002	0.000000e+000	-2.000000e+002	0.000000e+000
1399980.000	3.539437e-003	-7.572999e-001	-8.947639e+001	1.086359e+002	-2.000000e+002	0.000000e+000	-2.000000e+002	0.000000e+000
2049970.000	3.874592e-003	-9.612799e-001	-8.324733e+001	1.698467e+002	-2.000000e+002	0.000000e+000	-2.000000e+002	0.000000e+000
2699960.000	1.552998e-003	-1.164747e+000	-8.424683e+001	8.751733e+001	-2.000000e+002	0.000000e+000	-2.000000e+002	0.000000e+000
3349950.000	4.207251e-003	-1.370941e+000	-7.439321e+001	7.874546e+001	-2.000000e+002	0.000000e+000	-2.000000e+002	0.000000e+000
3999940.000	4.304726e-003	-1.568262e+000	-7.813141e+001	7.653794e+001	-2.000000e+002	0.000000e+000	-2.000000e+002	0.000000e+000
4649930.000	5.942063e-003	-1.783667e+000	-7.530895e+001	7.737622e+001	-2.000000e+002	0.000000e+000	-2.000000e+002	0.000000e+000
5299920.000	3.678196e-003	-1.983413e+000	-7.402350e+001	7.834053e+001	-2.000000e+002	0.000000e+000	-2.000000e+002	0.000000e+000
5949910.000	3.833551e-003	-2.190502e+000	-7.805365e+001	8.960291e+001	-2.000000e+002	0.000000e+000	-2.000000e+002	0.000000e+000
6599900.000	1.165989e-003	-2.397374e+000	-7.232528e+001	7.895515e+001	-2.000000e+002	0.000000e+000	-2.000000e+002	0.000000e+000
7249890.000	2.777445e-003	-2.602347e+000	-7.537020e+001	8.543539e+001	-2.000000e+002	0.000000e+000	-2.000000e+002	0.000000e+000
7899880.000	2.453823e-003	-2.811649e+000	-7.104017e+001	9.050544e+001	-2.000000e+002	0.000000e+000	-2.000000e+002	0.000000e+000
8549870.000	6.443089e-003	-3.022023e+000	-7.097817e+001	8.819268e+001	-2.000000e+002	0.000000e+000	-2.000000e+002	0.000000e+000
9199860.000	5.573285e-003	-3.230500e+000	-7.096078e+001	8.773689e+001	-2.000000e+002	0.000000e+000	-2.000000e+002	0.000000e+000
9849850.000	5.492945e-003	-3.437941e+000	-6.996320e+001	8.782886e+001	-2.000000e+002	0.000000e+000	-2.000000e+002	0.000000e+000
10499840.000	2.725245e-003	-3.634283e+000	-6.990698e+001	8.767594e+001	-2.000000e+002	0.000000e+000	-2.000000e+002	0.000000e+000
11149830.000	1.963263e-004	-3.831950e+000	-6.878942e+001	8.764979e+001	-2.000000e+002	0.000000e+000	-2.000000e+002	0.000000e+000
11799820.000	2.891948e-004	-4.034532e+000	-6.850298e+001	8.503320e+001	-2.000000e+002	0.000000e+000	-2.000000e+002	0.000000e+000
12449810.000	1.557443e-003	-4.244749e+000	-6.803013e+001	8.489460e+001	-2.000000e+002	0.000000e+000	-2.000000e+002	0.000000e+000
13099800.000	4.924218e-003	-4.450905e+000	-6.770635e+001	8.506131e+001	-2.000000e+002	0.000000e+000	-2.000000e+002	0.000000e+000
13749790.000	4.138552e-003	-4.650990e+000	-6.728478e+001	8.563143e+001	-2.000000e+002	0.000000e+000	-2.000000e+002	0.000000e+000
14399780.000	1.207712e-003	-4.862315e+000	-6.697620e+001	8.492793e+001	-2.000000e+002	0.000000e+000	-2.000000e+002	0.000000e+000
15049770.000	3.886514e-003	-5.074674e+000	-6.652014e+001	8.570393e+001	-2.000000e+002	0.000000e+000	-2.000000e+002	0.000000e+000
15699760.000	4.444812e-003	-5.262512e+000	-6.598127e+001	8.583960e+001	-2.000000e+002	0.000000e+000	-2.000000e+002	0.000000e+000
16349750.000	5.314377e-003	-5.462553e+000	-6.567709e+001	8.607326e+001	-2.000000e+002	0.000000e+000	-2.000000e+002	0.000000e+000
16999740.000	4.063035e-003	-5.682519e+000	-6.560103e+001	8.687661e+001	-2.000000e+002	0.000000e+000	-2.000000e+002	0.000000e+000
17649730.000	1.268656e-002	-5.918907e+000	-6.540312e+001	8.589283e+001	-2.000000e+002	0.000000e+000	-2.000000e+002	0.000000e+000
18299720.000	1.615581e-002	-6.141174e+000	-6.468047e+001	8.681420e+001	-2.000000e+002	0.000000e+000	-2.000000e+002	0.000000e+000
18949710.000	1.475891e-002	-6.352493e+000	-6.435615e+001	8.744632e+001	-2.000000e+002	0.000000e+000	-2.000000e+002	0.000000e+000
19599700.000	1.000563e-002	-6.542302e+000	-6.424434e+001	8.795615e+001	-2.000000e+002	0.000000e+000	-2.000000e+002	0.000000e+000
20249690.000	4.408467e-003	-6.734542e+000	-6.394558e+001	8.835417e+001	-2.000000e+002	0.000000e+000	-2.000000e+002	0.000000e+000
20899680.000	2.572720e-003	-6.975549e+000	-6.339524e+001	8.716285e+001	-2.000000e+002	0.000000e+000	-2.000000e+002	0.000000e+000
21549670.000	1.363241e-003	-7.193836e+000	-6.316802e+001	8.726982e+001	-2.000000e+002	0.000000e+000	-2.000000e+002	0.000000e+000
22199660.000	1.380164e-003	-7.391307e+000	-6.274571e+001	8.623283e+001	-2.000000e+002	0.000000e+000	-2.000000e+002	0.000000e+000
22849650.000	4.187070e-003	-7.566592e+000	-6.240109e+001	8.661359e+001	-2.000000e+002	0.000000e+000	-2.000000e+002	0.000000e+000
23499640.000	2.955371e-003	-7.766118e+000	-6.205576e+001	8.598158e+001	-2.000000e+002	0.000000e+000	-2.000000e+002	0.000000e+000
24149630.000	3.409317e-004	-7.976864e+000	-6.184140e+001	8.500080e+001	-2.000000e+002	0.000000e+000	-2.000000e+002	0.000000e+000
24799620.000	1.351358e-004	-8.181320e+000	-6.170147e+001	8.373199e+001	-2.000000e+002	0.000000e+000	-2.000000e+002	0.000000e+000
25449610.000	2.199681e-003	-8.386456e+000	-6.145991e+001	8.322937e+001	-2.000000e+002	0.000000e+000	-2.000000e+002	0.000000e+000
26099600.000	1.621267e-003	-8.584487e+000	-6.143252e+001	8.306464e+001	-2.000000e+002	0.000000e+000	-2.000000e+002	0.000000e+000
26749590.000	2.091429e-004	-8.791343e+000	-6.124973e+001	8.346991e+001	-2.000000e+002	0.000000e+000	-2.000000e+002	0.000000e+000
27399580.000	-3.535040e-004	-8.998869e+000	-6.107184e+001	8.221963e+001	-2.000000e+002	0.000000e+000	-2.000000e+002	0.000000e+000
28049570.000	4.479305e-004	-9.208509e+000	-6.091252e+001	8.260894e+001	-2.000000e+002	0.000000e+000	-2.000000e+002	0.000000e+000
28699560.000	-1.168753e-005	-9.405923e+000	-6.072785e+001	8.269630e+001	-2.000000e+002	0.000000e+000	-2.000000e+002	0.000000e+000
29349550.000	-2.027363e-004	-9.603443e+000	-6.042884e+001	8.254422e+001	-2.000000e+002	0.000000e+000	-2.000000e+002	0.000000e+000
29999540.000	-5.472427e-004	-9.808356e+000	-6.031856e+001	8.164599e+001	-2.000000e+002	0.000000e+000	-2.000000e+002	0.000000e+000
30649530.000	-2.697251e-004	-1.001450e+001	-6.017979e+001	8.267241e+001	-2.000000e+002	0.000000e+000	-2.000000e+002	0.000000e+000
31299520.000	-5.106867e-004	-1.022867e+001	-6.012057e+001	8.146997e+001	-2.000000e+002	0.000000e+000	-2.000000e+002	0.000000e+000
31949510.000	-3.910371e-004	-1.043475e+001	-5.990395e+001	8.141230e+001	-2.000000e+002	0.000000e+000	-2.000000e+002	0.000000e+000
32599500.000	-5.744836e-004	-1.063701e+001	-5.972430e+001	8.138403e+001	-2.000000e+002	0.000000e+000	-2.000000e+002	0.000000e+000
33249490.000	-1.068222e-003	-1.084273e+001	-5.970463e+001	8.093511e+001	-2.000000e+002	0.000000e+000	-2.000000e+002	0.000000e+000
33899480.000	-1.390084e-003	-1.105273e+001	-5.957156e+001	8.037489e+001	-2.000000e+002	0.000000e+000	-2.000000e+002	0.000000e+000
34549470.000	-1.189323e-003	-1.125185e+001	-5.955021e+001	8.049100e+001	-2.000000e+002	0.000000e+000	-2.000000e+002	0.000000e+000
35199460.000	-1.498524e-003	-1.145148e+001	-5.943517e+001	8.070846e+001	-2.000000e+002	0.000000e+000	-2.000000e+002	0.000000e+000
35849450.000	-1.219323e-003	-1.165421e+001	-5.945062e+001	8.189223e+001	-2.000000e+002	0.000000e+000	-2.000000e+002	0.000000e+000
36499440.000	-1.694028e-003	-1.185753e+001	-5.929036e+001	8.276393e+001	-2.000000e+002	0.000000e+000	-2.000000e+002	0.000000e+000
37149430.000	-2.272805e-003	-1.206516e+001	-5.888797e+001	8.336437e+001	-2.000000e+002	0.000000e+000	-2.000000e+002	0.000000e+000
37799420.000	-2.480522e-003	-1.226749e+001	-5.859908e+001	8.257020e+001	-2.000000e+002	0.000000e+000	-2.000000e+002	0.000000e+000
38449410.000	-2.890580e-003	-1.247600e+001	-5.846665e+001	8.215767e+001	-2.000000e+002	0.000000e+000	-2.000000e+002	0.000000e+000
39099400.000	-2.944040e-003	-1.268778e+001	-5.843390e+001	8.189182e+001	-2.000000e+002	0.000000e+000	-2.000000e+002	0.000000e+000
39749390.000	-3.666117e-003	-1.289695e+001	-5.833289e+001	8.241900e+001	-2.000000e+002	0.000000e+000	-2.000000e+002	0.000000e+000
40399380.000	-4.447821e-003	-1.310768e+001	-5.815573e+001	8.222716e+001	-2.000000e+002	0.000000e+000	-2.000000e+002	0.000000e+000
41049370.000	-3.735956e-003	-1.331135e+001	-5.805616e+001	8.261959e+001	-2.000000e+002	0.000000e+000	-2.000000e+002	0.000000e+000
41699360.000	-3.286839e-003	-1.351762e+001	-5.794219e+001	8.265680e+001	-2.000000e+002	0.000000e+000	-2.000000e+002	0.000000e+000
42349350.000	-3.469717e-003	-1.372175e+001	-5.790831e+001	8.304177e+001	-2.000000e+002	0.000000e+000	-2.000000e+002	0.000000e+000
42999340.000	-4.515863e-003	-1.392389e+001	-5.762413e+001	8.386279e+001	-2.000000e+002	0.000000e+000	-2.000000e+002	0.000000e+000
43649330.000	-4.137123e-003	-1.412550e+001	-5.743120e+001	8.428581e+001	-2.000000e+002	0.000000e+000	-2.000000e+002	0.000000e+000
44299320.000	-4.674946e-003	-1.433317e+001	-5.723141e+001	8.435453e+001	-2.000000e+002	0.000000e+000	-2.000000e+002	0.000000e+000
44949310.000	-4.291071e-003	-1.453860e+001	-5.692170e+001	8.297620e+001	-2.000000e+002	0.000000e+000	-2.000000e+002	0.000000e+000
45599300.000	-4.911252e-003	-1.474884e+001	-5.686837e+001	8.247654e+001	-2.000000e+002	0.000000e+000	-2.000000e+002	0.000000e+000
46249290.000	-5.110454e-003	-1.495466e+001	-5.678700e+001	8.359828e+001	-2.000000e+002	0.000000e+000	-2.000000e+002	0.000000e+000
46899280.000	-5.822206e-003	-1.516062e+001	-5.663245e+001	8.364676e+001	-2.000000e+002	0.000000e+000	-2.000000e+002	0.000000e+000
47549270.000	-7.605174e-003	-1.536608e+001	-5.645532e+001	8.291410e+001	-2.000000e+002	0.000000e+000	-2.000000e+002	0.000000e+000
48199260.000	-7.894346e-003	-1.556777e+001	-5.632162e+001	8.280251e+001	-2.000000e+002	0.000000e+000	-2.000000e+002	0.000000e+000
48849250.000	-8.933056e-003	-1.577395e+001	-5.627236e+001	8.294621e+001	-2.000000e+002	0.000000e+000	-2.000000e+002	0.000000e+000
49499240.000	-8.406510e-003	-1.598036e+001	-5.618507e+001	8.242923e+001	-2.000000e+002	0.000000e+000	-2.000000e+002	0.000000e+000
50149230.000	-8.289407e-003	-1.618725e+001	-5.610810e+001	8.265745e+001	-2.000000e+002	0.000000e+000	-2.000000e+002	0.000000e+000
50799220.000	-9.041988e-003	-1.639870e+001	-5.605356e+001	8.348855e+001	-2.000000e+002	0.000000e+000	-2.000000e+002	0.000000e+000
51449210.000	-8.694418e-003	-1.660116e+001	-5.594343e+001	8.431608e+001	-2.000000e+002	0.000000e+000	-2.000000e+002	0.000000e+000
52099200.000	-8.774710e-003	-1.680941e+001	-5.573215e+001	8.502318e+001	-2.000000e+002	0.000000e+000	-2.000000e+002	0.000000e+000
52749190.000	-9.124751e-003	-1.701118e+001	-5.547690e+001	8.511613e+001	-2.000000e+002	0.000000e+000	-2.000000e+002	0.000000e+000
53399180.000	-1.056263e-002	-1.721543e+001	-5.531468e+001	8.583695e+001	-2.000000e+002	0.000000e+000	-2.000000e+002	0.000000e+000
54049170.000	-1.026707e-002	-1.741866e+001	-5.502265e+001	8.579370e+001	-2.000000e+002	0.000000e+000	-2.000000e+002	0.000000e+000
54699160.000	-1.049253e-002	-1.762734e+001	-5.478745e+001	8.506240e+001	-2.000000e+002	0.000000e+000	-2.000000e+002	0.000000e+000
55349150.000	-1.071993e-002	-1.783320e+001	-5.462478e+001	8.433116e+001	-2.000000e+002	0.000000e+000	-2.000000e+002	0.000000e+000
55999140.000	-1.082012e-002	-1.803526e+001	-5.441679e+001	8.334833e+001	-2.000000e+002	0.000000e+000	-2.000000e+002	0.000000e+000
56649130.000	-1.134373e-002	-1.824407e+001	-5.442652e+001	8.289060e+001	-2.000000e+002	0.000000e+000	-2.000000e+002	0.000000e+000
57299120.000	-1.196079e-002	-1.845255e+001	-5.440952e+001	8.270768e+001	-2.000000e+002	0.000000e+000	-2.000000e+002	0.000000e+000
57949110.000	-1.257570e-002	-1.865437e+001	-5.432036e+001	8.269108e+001	-2.000000e+002	0.000000e+000	-2.000000e+002	0.000000e+000
58599100.000	-1.225292e-002	-1.885746e+001	-5.421426e+001	8.324810e+001	-2.000000e+002	0.000000e+000	-2.000000e+002	0.000000e+000
59249090.000	-1.392956e-002	-1.906140e+001	-5.407159e+001	8.382792e+001	-2.000000e+002	0.000000e+000	-2.000000e+002	0.000000e+000
59899080.000	-1.360573e-002	-1.926578e+001	-5.386519e+001	8.376843e+001	-2.000000e+002	0.000000e+000	-2.000000e+002	0.000000e+000
60549070.000	-1.445154e-002	-1.946628e+001	-5.371786e+001	8.298471e+001	-2.000000e+002	0.000000e+000	-2.000000e+002	0.000000e+000
61199060.000	-1.567634e-002	-1.967127e+001	-5.367890e+001	8.280504e+001	-2.000000e+002	0.000000e+000	-2.000000e+002	0.000000e+000
61849050.000	-1.556769e-002	-1.987446e+001	-5.359426e+001	8.244555e+001	-2.000000e+002	0.000000e+000	-2.000000e+002	0.000000e+000
62499040.000	-1.702665e-002	-2.007555e+001	-5.343132e+001	8.334997e+001	-2.000000e+002	0.000000e+000	-2.000000e+002	0.000000e+000
63149030.000	-1.742553e-002	-2.027803e+001	-5.328564e+001	8.341047e+001	-2.000000e+002	0.000000e+000	-2.000000e+002	0.000000e+000
63799020.000	-1.853778e-002	-2.047996e+001	-5.316732e+001	8.328031e+001	-2.000000e+002	0.000000e+000	-2.000000e+002	0.000000e+000
64449010.000	-1.927525e-002	-2.068495e+001	-5.300852e+001	8.314242e+001	-2.000000e+002	0.000000e+000	-2.000000e+002	0.000000e+000
65099000.000	-1.971558e-002	-2.088619e+001	-5.293026e+001	8.362304e+001	-2.000000e+002	0.000000e+000	-2.000000e+002	0.000000e+000
65748990.000	-1.970936e-002	-2.108976e+001	-5.277491e+001	8.389635e+001	-2.000000e+002	0.000000e+000	-2.000000e+002	0.000000e+000
66398980.000	-2.022735e-002	-2.129469e+001	-5.256395e+001	8.407778e+001	-2.000000e+002	0.000000e+000	-2.000000e+002	0.000000e+000
67048970.000	-2.077444e-002	-2.149808e+001	-5.241192e+001	8.427516e+001	-2.000000e+002	0.000000e+000	-2.000000e+002	0.000000e+000
67698960.000	-2.130146e-002	-2.170027e+001	-5.220492e+001	8.419828e+001	-2.000000e+002	0.000000e+000	-2.000000e+002	0.000000e+000
68348950.000	-2.207442e-002	-2.190001e+001	-5.206627e+001	8.423679e+001	-2.000000e+002	0.000000e+000	-2.000000e+002	0.000000e+000
68998940.000	-2.336988e-002	-2.210631e+001	-5.189627e+001	8.442117e+001	-2.000000e+002	0.000000e+000	-2.000000e+002	0.000000e+000
69648930.000	-2.316572e-002	-2.230716e+001	-5.158766e+001	8.526757e+001	-2.000000e+002	0.000000e+000	-2.000000e+002	0.000000e+000
70298920.000	-2.189102e-002	-2.250910e+001	-5.118426e+001	8.583959e+001	-2.000000e+002	0.000000e+000	-2.000000e+002	0.000000e+000
70948910.000	-2.266132e-002	-2.270950e+001	-5.075255e+001	8.476763e+001	-2.000000e+002	0.000000e+000	-2.000000e+002	0.000000e+000
71598900.000	-2.222732e-002	-2.290596e+001	-5.032049e+001	8.319860e+001	-2.000000e+002	0.000000e+000	-2.000000e+002	0.000000e+000
72248890.000	-2.239996e-002	-2.310477e+001	-5.005970e+001	8.060085e+001	-2.000000e+002	0.000000e+000	-2.000000e+002	0.000000e+000
72898880.000	-2.209187e-002	-2.331241e+001	-4.991562e+001	7.771037e+001	-2.000000e+002	0.000000e+000	-2.000000e+002	0.000000e+000
73548870.000	-2.172156e-002	-2.351475e+001	-4.994921e+001	7.573310e+001	-2.000000e+002	0.000000e+000	-2.000000e+002	0.000000e+000
74198860.000	-2.134009e-002	-2.371778e+001	-4.996931e+001	7.445342e+001	-2.000000e+002	0.000000e+000	-2.000000e+002	0.000000e+000
74848850.000	-2.204844e-002	-2.392659e+001	-5.000218e+001	7.323108e+001	-2.000000e+002	0.000000e+000	-2.000000e+002	0.000000e+000
75498840.000	-2.172073e-002	-2.413308e+001	-4.999909e+001	7.202350e+001	-2.000000e+002	0.000000e+000	-2.000000e+002	0.000000e+000
76148830.000	-2.110963e-002	-2.434370e+001	-5.006182e+001	7.101670e+001	-2.000000e+002	0.000000e+000	-2.000000e+002	0.000000e+000
76798820.000	-2.094991e-002	-2.454499e+001	-5.004384e+001	7.045134e+001	-2.000000e+002	0.000000e+000	-2.000000e+002	0.000000e+000
77448810.000	-2.342614e-002	-2.475201e+001	-5.011807e+001	6.997447e+001	-2.000000e+002	0.000000e+000	-2.000000e+002	0.000000e+000
78098800.000	-2.351638e-002	-2.495834e+001	-5.008675e+001	6.966290e+001	-2.000000e+002	0.000000e+000	-2.000000e+002	0.000000e+000
78748790.000	-2.369325e-002	-2.516195e+001	-5.013454e+001	6.927093e+001	-2.000000e+002	0.000000e+000	-2.000000e+002	0.000000e+000
79398780.000	-2.375479e-002	-2.536799e+001	-5.015296e+001	6.885403e+001	-2.000000e+002	0.000000e+000	-2.000000e+002	0.000000e+000
80048770.000	-2.279402e-002	-2.557485e+001	-5.010550e+001	6.844016e+001	-2.000000e+002	0.000000e+000	-2.000000e+002	0.000000e+000
80698760.000	-2.330985e-002	-2.578175e+001	-5.010284e+001	6.840094e+001	-2.000000e+002	0.000000e+000	-2.000000e+002	0.000000e+000
81348750.000	-2.352546e-002	-2.598924e+001	-5.009740e+001	6.821924e+001	-2.000000e+002	0.000000e+000	-2.000000e+002	0.000000e+000
81998740.000	-2.333763e-002	-2.619391e+001	-5.010557e+001	6.796178e+001	-2.000000e+002	0.000000e+000	-2.000000e+002	0.000000e+000
82648730.000	-2.559912e-002	-2.640154e+001	-5.007111e+001	6.753246e+001	-2.000000e+002	0.000000e+000	-2.000000e+002	0.000000e+000
83298720.000	-2.603849e-002	-2.661123e+001	-5.005526e+001	6.763748e+001	-2.000000e+002	0.000000e+000	-2.000000e+002	0.000000e+000
83948710.000	-2.590317e-002	-2.681543e+001	-5.006377e+001	6.748499e+001	-2.000000e+002	0.000000e+000	-2.000000e+002	0.000000e+000
84598700.000	-2.663273e-002	-2.702386e+001	-4.997574e+001	6.756728e+001	-2.000000e+002	0.000000e+000	-2.000000e+002	0.000000e+000
85248690.000	-2.687295e-002	-2.723136e+001	-4.995698e+001	6.735494e+001	-2.000000e+002	0.000000e+000	-2.000000e+002	0.000000e+000
85898680.000	-2.760281e-002	-2.743984e+001	-4.989987e+001	6.740953e+001	-2.000000e+002	0.000000e+000	-2.000000e+002	0.000000e+000
86548670.000	-2.786301e-002	-2.764278e+001	-4.988026e+001	6.712213e+001	-2.000000e+002	0.000000e+000	-2.000000e+002	0.000000e+000
87198660.000	-2.820329e-002	-2.784680e+001	-4.981472e+001	6.694681e+001	-2.000000e+002	0.000000e+000	-2.000000e+002	0.000000e+000
87848650.000	-2.848777e-002	-2.804732e+001	-4.982692e+001	6.666919e+001	-2.000000e+002	0.000000e+000	-2.000000e+002	0.000000e+000
88498640.000	-2.927105e-002	-2.825061e+001	-4.979545e+001	6.659612e+001	-2.000000e+002	0.000000e+000	-2.000000e+002	0.000000e+000
89148630.000	-3.020953e-002	-2.845580e+001	-4.980268e+001	6.681910e+001	-2.000000e+002	0.000000e+000	-2.000000e+002	0.000000e+000
89798620.000	-3.000047e-002	-2.866053e+001	-4.976385e+001	6.628443e+001	-2.000000e+002	0.000000e+000	-2.000000e+002	0.000000e+000
90448610.000	-3.055770e-002	-2.886655e+001	-4.972768e+001	6.655445e+001	-2.000000e+002	0.000000e+000	-2.000000e+002	0.000000e+000
91098600.000	-3.080767e-002	-2.907910e+001	-4.968347e+001	6.661267e+001	-2.000000e+002	0.000000e+000	-2.000000e+002	0.000000e+000
91748590.000	-3.094807e-002	-2.928758e+001	-4.970937e+001	6.678502e+001	-2.000000e+002	0.000000e+000	-2.000000e+002	0.000000e+000
92398580.000	-3.099742e-002	-2.949189e+001	-4.962491e+001	6.680972e+001	-2.000000e+002	0.000000e+000	-2.000000e+002	0.000000e+000
93048570.000	-3.082476e-002	-2.969753e+001	-4.962270e+001	6.730513e+001	-2.000000e+002	0.000000e+000	-2.000000e+002	0.000000e+000
93698560.000	-3.194886e-002	-2.991005e+001	-4.953096e+001	6.752664e+001	-2.000000e+002	0.000000e+000	-2.000000e+002	0.000000e+000
94348550.000	-3.183008e-002	-3.011659e+001	-4.938658e+001	6.703013e+001	-2.000000e+002	0.000000e+000	-2.000000e+002	0.000000e+000
94998540.000	-3.251944e-002	-3.032466e+001	-4.933084e+001	6.421057e+001	-2.000000e+002	0.000000e+000	-2.000000e+002	0.000000e+000
95648530.000	-3.259556e-002	-3.052281e+001	-4.932647e+001	6.700503e+001	-2.000000e+002	0.000000e+000	-2.000000e+002	0.000000e+000
96298520.000	-3.286024e-002	-3.072941e+001	-4.926461e+001	6.698985e+001	-2.000000e+002	0.000000e+000	-2.000000e+002	0.000000e+000
96948510.000	-3.403084e-002	-3.093211e+001	-4.919664e+001	6.711459e+001	-2.000000e+002	0.000000e+000	-2.000000e+002	0.000000e+000
97598500.000	-3.525788e-002	-3.113487e+001	-4.914373e+001	6.723386e+001	-2.000000e+002	0.000000e+000	-2.000000e+002	0.000000e+000
98248490.000	-3.391491e-002	-3.133919e+001	-4.906145e+001	6.707608e+001	-2.000000e+002	0.000000e+000	-2.000000e+002	0.000000e+000
