!Keysight Technologies,E5063A,MY54503115,A.05.08
!Date: Mon Dec 04 18:08:22 2023
!Data & Calibration Information:
!Freq	S11:NONE(--)	S21:NONE(--)	S12:NONE(--)	S22:NONE(--)
# Hz S dB R 50
100000.000	4.502985e-002	-5.317439e-001	-8.558341e+001	7.701506e+001	-2.000000e+002	0.000000e+000	-2.000000e+002	0.000000e+000
749990.000	1.863112e-003	-5.928107e-001	-9.648715e+001	-1.327723e+002	-2.000000e+002	0.000000e+000	-2.000000e+002	0.000000e+000
1399980.000	3.340096e-003	-7.661803e-001	-8.383677e+001	1.680282e+002	-2.000000e+002	0.000000e+000	-2.000000e+002	0.000000e+000
2049970.000	2.503086e-003	-9.659786e-001	-7.784272e+001	1.727065e+002	-2.000000e+002	0.000000e+000	-2.000000e+002	0.000000e+000
2699960.000	1.963273e-003	-1.163268e+000	-8.271546e+001	8.812061e+001	-2.000000e+002	0.000000e+000	-2.000000e+002	0.000000e+000
3349950.000	5.604949e-003	-1.366398e+000	-7.918581e+001	8.016780e+001	-2.000000e+002	0.000000e+000	-2.000000e+002	0.000000e+000
3999940.000	2.873355e-003	-1.571756e+000	-7.678842e+001	8.683659e+001	-2.000000e+002	0.000000e+000	-2.000000e+002	0.000000e+000
4649930.000	4.674006e-003	-1.780918e+000	-7.871959e+001	7.676818e+001	-2.000000e+002	0.000000e+000	-2.000000e+002	0.000000e+000
5299920.000	3.048260e-003	-1.984048e+000	-7.581281e+001	6.865984e+001	-2.000000e+002	0.000000e+000	-2.000000e+002	0.000000e+000
5949910.000	3.113879e-003	-2.189923e+000	-7.485049e+001	8.898929e+001	-2.000000e+002	0.000000e+000	-2.000000e+002	0.000000e+000
6599900.000	3.225847e-003	-2.406802e+000	-7.148443e+001	9.026859e+001	-2.000000e+002	0.000000e+000	-2.000000e+002	0.000000e+000
7249890.000	1.786974e-003	-2.600266e+000	-7.264358e+001	9.156290e+001	-2.000000e+002	0.000000e+000	-2.000000e+002	0.000000e+000
7899880.000	2.248269e-003	-2.816377e+000	-7.129948e+001	9.133742e+001	-2.000000e+002	0.000000e+000	-2.000000e+002	0.000000e+000
8549870.000	6.259308e-003	-3.027417e+000	-7.103913e+001	8.844581e+001	-2.000000e+002	0.000000e+000	-2.000000e+002	0.000000e+000
9199860.000	5.797693e-003	-3.229192e+000	-7.063332e+001	8.575291e+001	-2.000000e+002	0.000000e+000	-2.000000e+002	0.000000e+000
9849850.000	5.289009e-003	-3.438353e+000	-7.015658e+001	8.581319e+001	-2.000000e+002	0.000000e+000	-2.000000e+002	0.000000e+000
10499840.000	3.079359e-003	-3.637266e+000	-6.920901e+001	8.693244e+001	-2.000000e+002	0.000000e+000	-2.000000e+002	0.000000e+000
11149830.000	6.464615e-004	-3.833352e+000	-6.894146e+001	8.679677e+001	-2.000000e+002	0.000000e+000	-2.000000e+002	0.000000e+000
11799820.000	-6.507592e-005	-4.038091e+000	-6.806297e+001	8.644519e+001	-2.000000e+002	0.000000e+000	-2.000000e+002	0.000000e+000
12449810.000	1.087238e-003	-4.245306e+000	-6.794316e+001	8.636722e+001	-2.000000e+002	0.000000e+000	-2.000000e+002	0.000000e+000
13099800.000	4.740013e-003	-4.451927e+000	-6.731582e+001	8.796141e+001	-2.000000e+002	0.000000e+000	-2.000000e+002	0.000000e+000
13749790.000	3.977330e-003	-4.652513e+000	-6.693091e+001	8.607132e+001	-2.000000e+002	0.000000e+000	-2.000000e+002	0.000000e+000
14399780.000	2.167559e-003	-4.866533e+000	-6.679152e+001	8.694440e+001	-2.000000e+002	0.000000e+000	-2.000000e+002	0.000000e+000
15049770.000	3.686980e-003	-5.074964e+000	-6.621783e+001	8.400772e+001	-2.000000e+002	0.000000e+000	-2.000000e+002	0.000000e+000
15699760.000	5.229610e-003	-5.261148e+000	-6.572834e+001	8.530230e+001	-2.000000e+002	0.000000e+000	-2.000000e+002	0.000000e+000
16349750.000	6.258835e-003	-5.465287e+000	-6.565371e+001	8.559508e+001	-2.000000e+002	0.000000e+000	-2.000000e+002	0.000000e+000
16999740.000	4.457803e-003	-5.687369e+000	-6.559476e+001	8.732486e+001	-2.000000e+002	0.000000e+000	-2.000000e+002	0.000000e+000
17649730.000	1.322314e-002	-5.919085e+000	-6.485137e+001	8.554908e+001	-2.000000e+002	0.000000e+000	-2.000000e+002	0.000000e+000
18299720.000	1.647457e-002	-6.148097e+000	-6.466983e+001	8.514959e+001	-2.000000e+002	0.000000e+000	-2.000000e+002	0.000000e+000
18949710.000	1.510517e-002	-6.353889e+000	-6.446604e+001	8.475284e+001	-2.000000e+002	0.000000e+000	-2.000000e+002	0.000000e+000
19599700.000	9.642052e-003	-6.541754e+000	-6.430543e+001	8.549065e+001	-2.000000e+002	0.000000e+000	-2.000000e+002	0.000000e+000
20249690.000	4.921412e-003	-6.737943e+000	-6.384277e+001	8.530554e+001	-2.000000e+002	0.000000e+000	-2.000000e+002	0.000000e+000
20899680.000	2.519519e-003	-6.980950e+000	-6.355037e+001	8.663138e+001	-2.000000e+002	0.000000e+000	-2.000000e+002	0.000000e+000
21549670.000	1.936968e-003	-7.196049e+000	-6.331929e+001	8.717142e+001	-2.000000e+002	0.000000e+000	-2.000000e+002	0.000000e+000
22199660.000	1.701958e-003	-7.391994e+000	-6.280299e+001	8.691610e+001	-2.000000e+002	0.000000e+000	-2.000000e+002	0.000000e+000
22849650.000	4.102836e-003	-7.565402e+000	-6.236318e+001	8.592150e+001	-2.000000e+002	0.000000e+000	-2.000000e+002	0.000000e+000
23499640.000	2.278039e-003	-7.767598e+000	-6.222286e+001	8.578037e+001	-2.000000e+002	0.000000e+000	-2.000000e+002	0.000000e+000
24149630.000	5.139406e-005	-7.983051e+000	-6.200635e+001	8.549241e+001	-2.000000e+002	0.000000e+000	-2.000000e+002	0.000000e+000
24799620.000	9.667885e-005	-8.183028e+000	-6.177923e+001	8.364368e+001	-2.000000e+002	0.000000e+000	-2.000000e+002	0.000000e+000
25449610.000	2.430981e-003	-8.387649e+000	-6.147731e+001	8.392283e+001	-2.000000e+002	0.000000e+000	-2.000000e+002	0.000000e+000
26099600.000	1.126726e-003	-8.587811e+000	-6.134496e+001	8.395893e+001	-2.000000e+002	0.000000e+000	-2.000000e+002	0.000000e+000
26749590.000	2.240895e-004	-8.790310e+000	-6.113575e+001	8.325580e+001	-2.000000e+002	0.000000e+000	-2.000000e+002	0.000000e+000
27399580.000	1.821411e-005	-9.000946e+000	-6.093022e+001	8.340125e+001	-2.000000e+002	0.000000e+000	-2.000000e+002	0.000000e+000
28049570.000	8.228288e-004	-9.208680e+000	-6.069916e+001	8.226594e+001	-2.000000e+002	0.000000e+000	-2.000000e+002	0.000000e+000
28699560.000	5.328668e-005	-9.404552e+000	-6.049553e+001	8.274386e+001	-2.000000e+002	0.000000e+000	-2.000000e+002	0.000000e+000
29349550.000	-6.757240e-005	-9.606054e+000	-6.046805e+001	8.286089e+001	-2.000000e+002	0.000000e+000	-2.000000e+002	0.000000e+000
29999540.000	-7.500194e-004	-9.807294e+000	-6.034877e+001	8.257386e+001	-2.000000e+002	0.000000e+000	-2.000000e+002	0.000000e+000
30649530.000	-1.895528e-004	-1.001777e+001	-6.004352e+001	8.116959e+001	-2.000000e+002	0.000000e+000	-2.000000e+002	0.000000e+000
31299520.000	-3.787781e-004	-1.023200e+001	-5.988231e+001	8.221370e+001	-2.000000e+002	0.000000e+000	-2.000000e+002	0.000000e+000
31949510.000	6.032540e-005	-1.043761e+001	-5.974173e+001	8.110612e+001	-2.000000e+002	0.000000e+000	-2.000000e+002	0.000000e+000
32599500.000	-1.026151e-003	-1.064053e+001	-5.961252e+001	8.177492e+001	-2.000000e+002	0.000000e+000	-2.000000e+002	0.000000e+000
33249490.000	-2.931212e-004	-1.084810e+001	-5.943218e+001	8.091739e+001	-2.000000e+002	0.000000e+000	-2.000000e+002	0.000000e+000
33899480.000	-1.268626e-003	-1.105379e+001	-5.945054e+001	8.069627e+001	-2.000000e+002	0.000000e+000	-2.000000e+002	0.000000e+000
34549470.000	-1.165918e-003	-1.125052e+001	-5.927405e+001	8.008236e+001	-2.000000e+002	0.000000e+000	-2.000000e+002	0.000000e+000
35199460.000	-1.409839e-003	-1.145353e+001	-5.921617e+001	8.045746e+001	-2.000000e+002	0.000000e+000	-2.000000e+002	0.000000e+000
35849450.000	-1.257265e-003	-1.165436e+001	-5.915624e+001	8.070785e+001	-2.000000e+002	0.000000e+000	-2.000000e+002	0.000000e+000
36499440.000	-1.462225e-003	-1.185970e+001	-5.905030e+001	8.078861e+001	-2.000000e+002	0.000000e+000	-2.000000e+002	0.000000e+000
37149430.000	-2.017254e-003	-1.206866e+001	-5.896288e+001	8.135262e+001	-2.000000e+002	0.000000e+000	-2.000000e+002	0.000000e+000
37799420.000	-2.608764e-003	-1.227614e+001	-5.871998e+001	8.209827e+001	-2.000000e+002	0.000000e+000	-2.000000e+002	0.000000e+000
38449410.000	-2.438545e-003	-1.248372e+001	-5.870253e+001	8.227341e+001	-2.000000e+002	0.000000e+000	-2.000000e+002	0.000000e+000
39099400.000	-3.191179e-003	-1.269036e+001	-5.860123e+001	8.281686e+001	-2.000000e+002	0.000000e+000	-2.000000e+002	0.000000e+000
39749390.000	-3.614567e-003	-1.290226e+001	-5.841603e+001	8.267197e+001	-2.000000e+002	0.000000e+000	-2.000000e+002	0.000000e+000
40399380.000	-3.997434e-003	-1.311079e+001	-5.833739e+001	8.311583e+001	-2.000000e+002	0.000000e+000	-2.000000e+002	0.000000e+000
41049370.000	-3.732552e-003	-1.331815e+001	-5.814803e+001	8.412125e+001	-2.000000e+002	0.000000e+000	-2.000000e+002	0.000000e+000
41699360.000	-3.724140e-003	-1.352245e+001	-5.789114e+001	8.479461e+001	-2.000000e+002	0.000000e+000	-2.000000e+002	0.000000e+000
42349350.000	-2.919101e-003	-1.372443e+001	-5.768827e+001	8.501274e+001	-2.000000e+002	0.000000e+000	-2.000000e+002	0.000000e+000
42999340.000	-4.004339e-003	-1.392686e+001	-5.739323e+001	8.505509e+001	-2.000000e+002	0.000000e+000	-2.000000e+002	0.000000e+000
43649330.000	-3.832563e-003	-1.412695e+001	-5.720800e+001	8.391719e+001	-2.000000e+002	0.000000e+000	-2.000000e+002	0.000000e+000
44299320.000	-4.019380e-003	-1.433450e+001	-5.703406e+001	8.417954e+001	-2.000000e+002	0.000000e+000	-2.000000e+002	0.000000e+000
44949310.000	-3.905830e-003	-1.454180e+001	-5.691539e+001	8.357370e+001	-2.000000e+002	0.000000e+000	-2.000000e+002	0.000000e+000
45599300.000	-4.591296e-003	-1.475444e+001	-5.689700e+001	8.356553e+001	-2.000000e+002	0.000000e+000	-2.000000e+002	0.000000e+000
46249290.000	-4.980548e-003	-1.495837e+001	-5.670985e+001	8.339701e+001	-2.000000e+002	0.000000e+000	-2.000000e+002	0.000000e+000
46899280.000	-4.868698e-003	-1.516213e+001	-5.662597e+001	8.318560e+001	-2.000000e+002	0.000000e+000	-2.000000e+002	0.000000e+000
47549270.000	-6.979992e-003	-1.536738e+001	-5.646052e+001	8.277334e+001	-2.000000e+002	0.000000e+000	-2.000000e+002	0.000000e+000
48199260.000	-7.654131e-003	-1.557586e+001	-5.641804e+001	8.311898e+001	-2.000000e+002	0.000000e+000	-2.000000e+002	0.000000e+000
48849250.000	-8.433542e-003	-1.578097e+001	-5.636397e+001	8.309353e+001	-2.000000e+002	0.000000e+000	-2.000000e+002	0.000000e+000
49499240.000	-8.647505e-003	-1.598757e+001	-5.636233e+001	8.347411e+001	-2.000000e+002	0.000000e+000	-2.000000e+002	0.000000e+000
50149230.000	-8.750141e-003	-1.619239e+001	-5.635533e+001	8.451976e+001	-2.000000e+002	0.000000e+000	-2.000000e+002	0.000000e+000
50799220.000	-9.671223e-003	-1.640284e+001	-5.611784e+001	8.528047e+001	-2.000000e+002	0.000000e+000	-2.000000e+002	0.000000e+000
51449210.000	-8.917963e-003	-1.660724e+001	-5.597070e+001	8.642606e+001	-2.000000e+002	0.000000e+000	-2.000000e+002	0.000000e+000
52099200.000	-9.587629e-003	-1.681408e+001	-5.574880e+001	8.747439e+001	-2.000000e+002	0.000000e+000	-2.000000e+002	0.000000e+000
52749190.000	-9.887245e-003	-1.701414e+001	-5.541625e+001	8.771750e+001	-2.000000e+002	0.000000e+000	-2.000000e+002	0.000000e+000
53399180.000	-1.003974e-002	-1.721978e+001	-5.520172e+001	8.807310e+001	-2.000000e+002	0.000000e+000	-2.000000e+002	0.000000e+000
54049170.000	-1.067529e-002	-1.742620e+001	-5.489680e+001	8.766055e+001	-2.000000e+002	0.000000e+000	-2.000000e+002	0.000000e+000
54699160.000	-1.066255e-002	-1.763034e+001	-5.464924e+001	8.696320e+001	-2.000000e+002	0.000000e+000	-2.000000e+002	0.000000e+000
55349150.000	-1.104177e-002	-1.783637e+001	-5.445964e+001	8.568901e+001	-2.000000e+002	0.000000e+000	-2.000000e+002	0.000000e+000
55999140.000	-1.130451e-002	-1.804326e+001	-5.437998e+001	8.476363e+001	-2.000000e+002	0.000000e+000	-2.000000e+002	0.000000e+000
56649130.000	-1.187698e-002	-1.825071e+001	-5.440866e+001	8.441862e+001	-2.000000e+002	0.000000e+000	-2.000000e+002	0.000000e+000
57299120.000	-1.263668e-002	-1.845642e+001	-5.453042e+001	8.497829e+001	-2.000000e+002	0.000000e+000	-2.000000e+002	0.000000e+000
57949110.000	-1.303227e-002	-1.866340e+001	-5.450025e+001	8.595146e+001	-2.000000e+002	0.000000e+000	-2.000000e+002	0.000000e+000
58599100.000	-1.415683e-002	-1.886462e+001	-5.436721e+001	8.798711e+001	-2.000000e+002	0.000000e+000	-2.000000e+002	0.000000e+000
59249090.000	-1.540757e-002	-1.906711e+001	-5.397462e+001	8.974598e+001	-2.000000e+002	0.000000e+000	-2.000000e+002	0.000000e+000
59899080.000	-1.542445e-002	-1.926711e+001	-5.351397e+001	9.022339e+001	-2.000000e+002	0.000000e+000	-2.000000e+002	0.000000e+000
60549070.000	-1.617054e-002	-1.946596e+001	-5.309877e+001	8.851766e+001	-2.000000e+002	0.000000e+000	-2.000000e+002	0.000000e+000
61199060.000	-1.700736e-002	-1.966940e+001	-5.299965e+001	8.747476e+001	-2.000000e+002	0.000000e+000	-2.000000e+002	0.000000e+000
61849050.000	-1.727023e-002	-1.987199e+001	-5.290994e+001	8.768335e+001	-2.000000e+002	0.000000e+000	-2.000000e+002	0.000000e+000
62499040.000	-1.916752e-002	-2.007403e+001	-5.270147e+001	8.873387e+001	-2.000000e+002	0.000000e+000	-2.000000e+002	0.000000e+000
63149030.000	-1.941247e-002	-2.027419e+001	-5.234816e+001	8.884368e+001	-2.000000e+002	0.000000e+000	-2.000000e+002	0.000000e+000
63799020.000	-2.046321e-002	-2.047356e+001	-5.190434e+001	8.803368e+001	-2.000000e+002	0.000000e+000	-2.000000e+002	0.000000e+000
64449010.000	-2.077751e-002	-2.067160e+001	-5.162015e+001	8.702766e+001	-2.000000e+002	0.000000e+000	-2.000000e+002	0.000000e+000
65099000.000	-2.108072e-002	-2.087339e+001	-5.135509e+001	8.568552e+001	-2.000000e+002	0.000000e+000	-2.000000e+002	0.000000e+000
65748990.000	-2.063965e-002	-2.107409e+001	-5.113027e+001	8.448601e+001	-2.000000e+002	0.000000e+000	-2.000000e+002	0.000000e+000
66398980.000	-2.076195e-002	-2.127800e+001	-5.094553e+001	8.273871e+001	-2.000000e+002	0.000000e+000	-2.000000e+002	0.000000e+000
67048970.000	-1.999689e-002	-2.147822e+001	-5.082773e+001	8.097031e+001	-2.000000e+002	0.000000e+000	-2.000000e+002	0.000000e+000
67698960.000	-2.095826e-002	-2.168209e+001	-5.076888e+001	7.988162e+001	-2.000000e+002	0.000000e+000	-2.000000e+002	0.000000e+000
68348950.000	-2.122746e-002	-2.188291e+001	-5.074342e+001	7.855692e+001	-2.000000e+002	0.000000e+000	-2.000000e+002	0.000000e+000
68998940.000	-2.114528e-002	-2.208896e+001	-5.068372e+001	7.795650e+001	-2.000000e+002	0.000000e+000	-2.000000e+002	0.000000e+000
69648930.000	-2.075162e-002	-2.229125e+001	-5.059398e+001	7.708087e+001	-2.000000e+002	0.000000e+000	-2.000000e+002	0.000000e+000
70298920.000	-1.958548e-002	-2.249850e+001	-5.051605e+001	7.652689e+001	-2.000000e+002	0.000000e+000	-2.000000e+002	0.000000e+000
70948910.000	-1.989820e-002	-2.270563e+001	-5.039743e+001	7.552167e+001	-2.000000e+002	0.000000e+000	-2.000000e+002	0.000000e+000
71598900.000	-1.918380e-002	-2.290944e+001	-5.032490e+001	7.466642e+001	-2.000000e+002	0.000000e+000	-2.000000e+002	0.000000e+000
72248890.000	-1.969289e-002	-2.311320e+001	-5.025943e+001	7.334354e+001	-2.000000e+002	0.000000e+000	-2.000000e+002	0.000000e+000
72898880.000	-1.973306e-002	-2.331848e+001	-5.021872e+001	7.225441e+001	-2.000000e+002	0.000000e+000	-2.000000e+002	0.000000e+000
73548870.000	-2.003241e-002	-2.352591e+001	-5.025992e+001	7.130972e+001	-2.000000e+002	0.000000e+000	-2.000000e+002	0.000000e+000
74198860.000	-1.938978e-002	-2.372992e+001	-5.022503e+001	7.033181e+001	-2.000000e+002	0.000000e+000	-2.000000e+002	0.000000e+000
74848850.000	-2.098337e-002	-2.393993e+001	-5.026509e+001	6.992030e+001	-2.000000e+002	0.000000e+000	-2.000000e+002	0.000000e+000
75498840.000	-2.014862e-002	-2.414228e+001	-5.025100e+001	6.943459e+001	-2.000000e+002	0.000000e+000	-2.000000e+002	0.000000e+000
76148830.000	-2.050408e-002	-2.434987e+001	-5.027929e+001	6.899581e+001	-2.000000e+002	0.000000e+000	-2.000000e+002	0.000000e+000
76798820.000	-2.047735e-002	-2.455247e+001	-5.028345e+001	6.858153e+001	-2.000000e+002	0.000000e+000	-2.000000e+002	0.000000e+000
77448810.000	-2.268408e-002	-2.476036e+001	-5.030100e+001	6.848006e+001	-2.000000e+002	0.000000e+000	-2.000000e+002	0.000000e+000
78098800.000	-2.314310e-002	-2.496522e+001	-5.026945e+001	6.812044e+001	-2.000000e+002	0.000000e+000	-2.000000e+002	0.000000e+000
78748790.000	-2.302790e-002	-2.516994e+001	-5.027345e+001	6.777436e+001	-2.000000e+002	0.000000e+000	-2.000000e+002	0.000000e+000
79398780.000	-2.286110e-002	-2.537434e+001	-5.027688e+001	6.794119e+001	-2.000000e+002	0.000000e+000	-2.000000e+002	0.000000e+000
80048770.000	-2.253760e-002	-2.558287e+001	-5.025504e+001	6.770237e+001	-2.000000e+002	0.000000e+000	-2.000000e+002	0.000000e+000
80698760.000	-2.274436e-002	-2.578860e+001	-5.021701e+001	6.764242e+001	-2.000000e+002	0.000000e+000	-2.000000e+002	0.000000e+000
81348750.000	-2.334990e-002	-2.599250e+001	-5.020597e+001	6.748795e+001	-2.000000e+002	0.000000e+000	-2.000000e+002	0.000000e+000
81998740.000	-2.327235e-002	-2.619922e+001	-5.018322e+001	6.733274e+001	-2.000000e+002	0.000000e+000	-2.000000e+002	0.000000e+000
82648730.000	-2.523098e-002	-2.640704e+001	-5.013782e+001	6.725517e+001	-2.000000e+002	0.000000e+000	-2.000000e+002	0.000000e+000
83298720.000	-2.556833e-002	-2.661716e+001	-5.009402e+001	6.731918e+001	-2.000000e+002	0.000000e+000	-2.000000e+002	0.000000e+000
83948710.000	-2.593240e-002	-2.682050e+001	-5.008037e+001	6.721411e+001	-2.000000e+002	0.000000e+000	-2.000000e+002	0.000000e+000
84598700.000	-2.597913e-002	-2.702930e+001	-5.003867e+001	6.736846e+001	-2.000000e+002	0.000000e+000	-2.000000e+002	0.000000e+000
85248690.000	-2.636478e-002	-2.723499e+001	-4.996775e+001	6.726879e+001	-2.000000e+002	0.000000e+000	-2.000000e+002	0.000000e+000
85898680.000	-2.694078e-002	-2.743889e+001	-4.992699e+001	6.725983e+001	-2.000000e+002	0.000000e+000	-2.000000e+002	0.000000e+000
86548670.000	-2.743489e-002	-2.764757e+001	-4.980886e+001	6.708371e+001	-2.000000e+002	0.000000e+000	-2.000000e+002	0.000000e+000
87198660.000	-2.793425e-002	-2.785106e+001	-4.980888e+001	6.702594e+001	-2.000000e+002	0.000000e+000	-2.000000e+002	0.000000e+000
87848650.000	-2.843464e-002	-2.805037e+001	-4.973550e+001	6.665518e+001	-2.000000e+002	0.000000e+000	-2.000000e+002	0.000000e+000
88498640.000	-2.909022e-002	-2.825364e+001	-4.973385e+001	6.667410e+001	-2.000000e+002	0.000000e+000	-2.000000e+002	0.000000e+000
89148630.000	-2.954173e-002	-2.846000e+001	-4.970770e+001	6.658985e+001	-2.000000e+002	0.000000e+000	-2.000000e+002	0.000000e+000
89798620.000	-3.031354e-002	-2.866683e+001	-4.964749e+001	6.657313e+001	-2.000000e+002	0.000000e+000	-2.000000e+002	0.000000e+000
90448610.000	-2.995019e-002	-2.886908e+001	-4.956600e+001	6.624338e+001	-2.000000e+002	0.000000e+000	-2.000000e+002	0.000000e+000
91098600.000	-3.106750e-002	-2.908172e+001	-4.957295e+001	6.643841e+001	-2.000000e+002	0.000000e+000	-2.000000e+002	0.000000e+000
91748590.000	-3.071307e-002	-2.928753e+001	-4.954729e+001	6.664306e+001	-2.000000e+002	0.000000e+000	-2.000000e+002	0.000000e+000
92398580.000	-3.044909e-002	-2.949293e+001	-4.947115e+001	6.690968e+001	-2.000000e+002	0.000000e+000	-2.000000e+002	0.000000e+000
93048570.000	-3.052356e-002	-2.970001e+001	-4.938372e+001	6.717461e+001	-2.000000e+002	0.000000e+000	-2.000000e+002	0.000000e+000
93698560.000	-3.126517e-002	-2.991197e+001	-4.928047e+001	6.666456e+001	-2.000000e+002	0.000000e+000	-2.000000e+002	0.000000e+000
94348550.000	-3.159403e-002	-3.011785e+001	-4.928630e+001	6.658577e+001	-2.000000e+002	0.000000e+000	-2.000000e+002	0.000000e+000
94998540.000	-3.302176e-002	-3.031764e+001	-4.910972e+001	6.640276e+001	-2.000000e+002	0.000000e+000	-2.000000e+002	0.000000e+000
95648530.000	-3.276603e-002	-3.052920e+001	-4.916439e+001	6.732517e+001	-2.000000e+002	0.000000e+000	-2.000000e+002	0.000000e+000
96298520.000	-3.289936e-002	-3.073270e+001	-4.908479e+001	6.680662e+001	-2.000000e+002	0.000000e+000	-2.000000e+002	0.000000e+000
96948510.000	-3.376630e-002	-3.093431e+001	-4.902653e+001	6.661317e+001	-2.000000e+002	0.000000e+000	-2.000000e+002	0.000000e+000
97598500.000	-3.458700e-002	-3.114095e+001	-4.891425e+001	6.657015e+001	-2.000000e+002	0.000000e+000	-2.000000e+002	0.000000e+000
98248490.000	-3.390166e-002	-3.133867e+001	-4.888703e+001	6.634693e+001	-2.000000e+002	0.000000e+000	-2.000000e+002	0.000000e+000
