!Keysight Technologies,E5063A,MY54503115,A.05.08
!Date: Wed Nov 22 13:44:13 2023
!Data & Calibration Information:
!Freq	S11:NONE(--)	S21:NONE(--)	S12:NONE(--)	S22:NONE(--)
# Hz S dB R 50
100000.000	4.393989e-002	-4.940105e-001	-8.896024e+001	-3.671784e+001	-2.000000e+002	0.000000e+000	-2.000000e+002	0.000000e+000
749990.000	2.468538e-003	-5.611656e-001	-8.319024e+001	-9.894106e+001	-2.000000e+002	0.000000e+000	-2.000000e+002	0.000000e+000
1399980.000	3.334948e-003	-7.350433e-001	-9.046350e+001	-1.233698e+002	-2.000000e+002	0.000000e+000	-2.000000e+002	0.000000e+000
2049970.000	2.358756e-003	-9.356361e-001	-8.718497e+001	1.342723e+002	-2.000000e+002	0.000000e+000	-2.000000e+002	0.000000e+000
2699960.000	2.706171e-003	-1.142428e+000	-8.122945e+001	1.349098e+002	-2.000000e+002	0.000000e+000	-2.000000e+002	0.000000e+000
3349950.000	3.619146e-003	-1.349010e+000	-7.695155e+001	1.008842e+002	-2.000000e+002	0.000000e+000	-2.000000e+002	0.000000e+000
3999940.000	3.753017e-003	-1.546732e+000	-7.868432e+001	9.946115e+001	-2.000000e+002	0.000000e+000	-2.000000e+002	0.000000e+000
4649930.000	4.945716e-003	-1.764858e+000	-8.060364e+001	7.705196e+001	-2.000000e+002	0.000000e+000	-2.000000e+002	0.000000e+000
5299920.000	2.973279e-003	-1.967504e+000	-7.814442e+001	8.770249e+001	-2.000000e+002	0.000000e+000	-2.000000e+002	0.000000e+000
5949910.000	3.622135e-003	-2.179646e+000	-7.770731e+001	8.170732e+001	-2.000000e+002	0.000000e+000	-2.000000e+002	0.000000e+000
6599900.000	2.890127e-003	-2.384702e+000	-7.560156e+001	8.382309e+001	-2.000000e+002	0.000000e+000	-2.000000e+002	0.000000e+000
7249890.000	3.224031e-003	-2.595589e+000	-7.472441e+001	8.536701e+001	-2.000000e+002	0.000000e+000	-2.000000e+002	0.000000e+000
7899880.000	2.280716e-003	-2.807595e+000	-7.443053e+001	8.718558e+001	-2.000000e+002	0.000000e+000	-2.000000e+002	0.000000e+000
8549870.000	5.169044e-003	-3.018604e+000	-7.344119e+001	8.748671e+001	-2.000000e+002	0.000000e+000	-2.000000e+002	0.000000e+000
9199860.000	4.469386e-003	-3.226275e+000	-7.256888e+001	8.590909e+001	-2.000000e+002	0.000000e+000	-2.000000e+002	0.000000e+000
9849850.000	4.327333e-003	-3.434927e+000	-7.212154e+001	8.715435e+001	-2.000000e+002	0.000000e+000	-2.000000e+002	0.000000e+000
10499840.000	2.590614e-003	-3.635733e+000	-7.144065e+001	8.753758e+001	-2.000000e+002	0.000000e+000	-2.000000e+002	0.000000e+000
11149830.000	1.116361e-003	-3.837686e+000	-7.121228e+001	8.491842e+001	-2.000000e+002	0.000000e+000	-2.000000e+002	0.000000e+000
11799820.000	6.266324e-004	-4.041985e+000	-7.057548e+001	8.623660e+001	-2.000000e+002	0.000000e+000	-2.000000e+002	0.000000e+000
12449810.000	1.959031e-003	-4.254625e+000	-7.030296e+001	8.777829e+001	-2.000000e+002	0.000000e+000	-2.000000e+002	0.000000e+000
13099800.000	3.778296e-003	-4.466139e+000	-6.983319e+001	8.651995e+001	-2.000000e+002	0.000000e+000	-2.000000e+002	0.000000e+000
13749790.000	3.211924e-003	-4.667492e+000	-6.939739e+001	8.674960e+001	-2.000000e+002	0.000000e+000	-2.000000e+002	0.000000e+000
14399780.000	2.135385e-003	-4.885323e+000	-6.909990e+001	8.637172e+001	-2.000000e+002	0.000000e+000	-2.000000e+002	0.000000e+000
15049770.000	3.073423e-003	-5.098438e+000	-6.880126e+001	8.645328e+001	-2.000000e+002	0.000000e+000	-2.000000e+002	0.000000e+000
15699760.000	4.214782e-003	-5.293417e+000	-6.861516e+001	8.689759e+001	-2.000000e+002	0.000000e+000	-2.000000e+002	0.000000e+000
16349750.000	4.676990e-003	-5.499331e+000	-6.848339e+001	8.747849e+001	-2.000000e+002	0.000000e+000	-2.000000e+002	0.000000e+000
16999740.000	3.134268e-003	-5.720639e+000	-6.883490e+001	8.764413e+001	-2.000000e+002	0.000000e+000	-2.000000e+002	0.000000e+000
17649730.000	1.017781e-002	-5.954862e+000	-6.787872e+001	9.038283e+001	-2.000000e+002	0.000000e+000	-2.000000e+002	0.000000e+000
18299720.000	1.331376e-002	-6.180681e+000	-6.733686e+001	9.117702e+001	-2.000000e+002	0.000000e+000	-2.000000e+002	0.000000e+000
18949710.000	1.165811e-002	-6.387495e+000	-6.694229e+001	8.957862e+001	-2.000000e+002	0.000000e+000	-2.000000e+002	0.000000e+000
19599700.000	6.394501e-003	-6.571907e+000	-6.694223e+001	9.081603e+001	-2.000000e+002	0.000000e+000	-2.000000e+002	0.000000e+000
20249690.000	2.002269e-003	-6.768753e+000	-6.653023e+001	9.305667e+001	-2.000000e+002	0.000000e+000	-2.000000e+002	0.000000e+000
20899680.000	-2.828983e-004	-7.006737e+000	-6.595827e+001	9.394872e+001	-2.000000e+002	0.000000e+000	-2.000000e+002	0.000000e+000
21549670.000	-1.206415e-003	-7.223028e+000	-6.537447e+001	9.359037e+001	-2.000000e+002	0.000000e+000	-2.000000e+002	0.000000e+000
22199660.000	-2.623413e-004	-7.418901e+000	-6.491261e+001	9.340109e+001	-2.000000e+002	0.000000e+000	-2.000000e+002	0.000000e+000
22849650.000	2.434841e-003	-7.597464e+000	-6.434292e+001	9.231399e+001	-2.000000e+002	0.000000e+000	-2.000000e+002	0.000000e+000
23499640.000	1.330415e-003	-7.800481e+000	-6.400961e+001	9.087852e+001	-2.000000e+002	0.000000e+000	-2.000000e+002	0.000000e+000
24149630.000	-6.819977e-004	-8.012358e+000	-6.377547e+001	8.907418e+001	-2.000000e+002	0.000000e+000	-2.000000e+002	0.000000e+000
24799620.000	-7.842407e-004	-8.220902e+000	-6.355802e+001	8.683286e+001	-2.000000e+002	0.000000e+000	-2.000000e+002	0.000000e+000
25449610.000	1.677764e-003	-8.428830e+000	-6.353124e+001	8.631339e+001	-2.000000e+002	0.000000e+000	-2.000000e+002	0.000000e+000
26099600.000	9.705007e-004	-8.628185e+000	-6.342644e+001	8.499033e+001	-2.000000e+002	0.000000e+000	-2.000000e+002	0.000000e+000
26749590.000	3.395414e-004	-8.840151e+000	-6.335543e+001	8.581575e+001	-2.000000e+002	0.000000e+000	-2.000000e+002	0.000000e+000
27399580.000	1.780007e-006	-9.050873e+000	-6.326571e+001	8.481810e+001	-2.000000e+002	0.000000e+000	-2.000000e+002	0.000000e+000
28049570.000	7.046751e-004	-9.265435e+000	-6.305472e+001	8.499204e+001	-2.000000e+002	0.000000e+000	-2.000000e+002	0.000000e+000
28699560.000	3.001937e-004	-9.464618e+000	-6.302068e+001	8.464887e+001	-2.000000e+002	0.000000e+000	-2.000000e+002	0.000000e+000
29349550.000	8.483186e-006	-9.666984e+000	-6.321846e+001	8.518807e+001	-2.000000e+002	0.000000e+000	-2.000000e+002	0.000000e+000
29999540.000	-5.646548e-004	-9.873630e+000	-6.359932e+001	8.677633e+001	-2.000000e+002	0.000000e+000	-2.000000e+002	0.000000e+000
30649530.000	-3.166594e-004	-1.008851e+001	-6.282032e+001	8.444335e+001	-2.000000e+002	0.000000e+000	-2.000000e+002	0.000000e+000
31299520.000	-3.737394e-004	-1.030302e+001	-6.299857e+001	8.477603e+001	-2.000000e+002	0.000000e+000	-2.000000e+002	0.000000e+000
31949510.000	-5.914858e-004	-1.051024e+001	-6.301092e+001	8.633506e+001	-2.000000e+002	0.000000e+000	-2.000000e+002	0.000000e+000
32599500.000	-1.174154e-003	-1.071991e+001	-6.294591e+001	8.779409e+001	-2.000000e+002	0.000000e+000	-2.000000e+002	0.000000e+000
33249490.000	-1.778914e-003	-1.092843e+001	-6.296033e+001	9.033338e+001	-2.000000e+002	0.000000e+000	-2.000000e+002	0.000000e+000
33899480.000	-2.222289e-003	-1.113853e+001	-6.261980e+001	9.374717e+001	-2.000000e+002	0.000000e+000	-2.000000e+002	0.000000e+000
34549470.000	-2.735825e-003	-1.133762e+001	-6.207901e+001	9.660401e+001	-2.000000e+002	0.000000e+000	-2.000000e+002	0.000000e+000
35199460.000	-2.880601e-003	-1.154008e+001	-6.136444e+001	9.745133e+001	-2.000000e+002	0.000000e+000	-2.000000e+002	0.000000e+000
35849450.000	-3.111468e-003	-1.174249e+001	-6.098197e+001	9.630801e+001	-2.000000e+002	0.000000e+000	-2.000000e+002	0.000000e+000
36499440.000	-2.960780e-003	-1.194956e+001	-6.051689e+001	9.496914e+001	-2.000000e+002	0.000000e+000	-2.000000e+002	0.000000e+000
37149430.000	-3.499978e-003	-1.215751e+001	-6.033840e+001	9.399294e+001	-2.000000e+002	0.000000e+000	-2.000000e+002	0.000000e+000
37799420.000	-3.863839e-003	-1.236739e+001	-6.012677e+001	9.271644e+001	-2.000000e+002	0.000000e+000	-2.000000e+002	0.000000e+000
38449410.000	-3.794663e-003	-1.257643e+001	-5.999861e+001	9.282548e+001	-2.000000e+002	0.000000e+000	-2.000000e+002	0.000000e+000
39099400.000	-4.550458e-003	-1.278700e+001	-5.983748e+001	9.309899e+001	-2.000000e+002	0.000000e+000	-2.000000e+002	0.000000e+000
39749390.000	-5.159264e-003	-1.300051e+001	-5.957878e+001	9.310180e+001	-2.000000e+002	0.000000e+000	-2.000000e+002	0.000000e+000
40399380.000	-5.428966e-003	-1.321122e+001	-5.926492e+001	9.318832e+001	-2.000000e+002	0.000000e+000	-2.000000e+002	0.000000e+000
41049370.000	-5.089197e-003	-1.341506e+001	-5.892165e+001	9.315968e+001	-2.000000e+002	0.000000e+000	-2.000000e+002	0.000000e+000
41699360.000	-4.662131e-003	-1.362071e+001	-5.857632e+001	9.197145e+001	-2.000000e+002	0.000000e+000	-2.000000e+002	0.000000e+000
42349350.000	-4.239351e-003	-1.382725e+001	-5.836487e+001	9.050543e+001	-2.000000e+002	0.000000e+000	-2.000000e+002	0.000000e+000
42999340.000	-4.747693e-003	-1.403197e+001	-5.824306e+001	8.943352e+001	-2.000000e+002	0.000000e+000	-2.000000e+002	0.000000e+000
43649330.000	-4.678536e-003	-1.423933e+001	-5.805116e+001	8.771605e+001	-2.000000e+002	0.000000e+000	-2.000000e+002	0.000000e+000
44299320.000	-4.737908e-003	-1.444949e+001	-5.804635e+001	8.728823e+001	-2.000000e+002	0.000000e+000	-2.000000e+002	0.000000e+000
44949310.000	-4.673642e-003	-1.465949e+001	-5.802886e+001	8.630608e+001	-2.000000e+002	0.000000e+000	-2.000000e+002	0.000000e+000
45599300.000	-4.998424e-003	-1.487144e+001	-5.798181e+001	8.606970e+001	-2.000000e+002	0.000000e+000	-2.000000e+002	0.000000e+000
46249290.000	-5.660077e-003	-1.508144e+001	-5.791461e+001	8.589868e+001	-2.000000e+002	0.000000e+000	-2.000000e+002	0.000000e+000
46899280.000	-5.857895e-003	-1.528618e+001	-5.781520e+001	8.500555e+001	-2.000000e+002	0.000000e+000	-2.000000e+002	0.000000e+000
47549270.000	-6.991695e-003	-1.549491e+001	-5.776937e+001	8.493798e+001	-2.000000e+002	0.000000e+000	-2.000000e+002	0.000000e+000
48199260.000	-7.979576e-003	-1.570462e+001	-5.774256e+001	8.464184e+001	-2.000000e+002	0.000000e+000	-2.000000e+002	0.000000e+000
48849250.000	-8.886756e-003	-1.591555e+001	-5.772942e+001	8.421292e+001	-2.000000e+002	0.000000e+000	-2.000000e+002	0.000000e+000
49499240.000	-9.342220e-003	-1.612072e+001	-5.771504e+001	8.406557e+001	-2.000000e+002	0.000000e+000	-2.000000e+002	0.000000e+000
50149230.000	-9.364526e-003	-1.633416e+001	-5.772616e+001	8.439393e+001	-2.000000e+002	0.000000e+000	-2.000000e+002	0.000000e+000
50799220.000	-9.597145e-003	-1.654441e+001	-5.772217e+001	8.535317e+001	-2.000000e+002	0.000000e+000	-2.000000e+002	0.000000e+000
51449210.000	-9.288997e-003	-1.675372e+001	-5.762911e+001	8.590795e+001	-2.000000e+002	0.000000e+000	-2.000000e+002	0.000000e+000
52099200.000	-9.681444e-003	-1.696115e+001	-5.756747e+001	8.670139e+001	-2.000000e+002	0.000000e+000	-2.000000e+002	0.000000e+000
52749190.000	-9.856365e-003	-1.716915e+001	-5.746902e+001	8.721696e+001	-2.000000e+002	0.000000e+000	-2.000000e+002	0.000000e+000
53399180.000	-1.031502e-002	-1.737571e+001	-5.734579e+001	8.752525e+001	-2.000000e+002	0.000000e+000	-2.000000e+002	0.000000e+000
54049170.000	-1.087742e-002	-1.758538e+001	-5.716963e+001	8.783328e+001	-2.000000e+002	0.000000e+000	-2.000000e+002	0.000000e+000
54699160.000	-1.081306e-002	-1.779504e+001	-5.706068e+001	8.748957e+001	-2.000000e+002	0.000000e+000	-2.000000e+002	0.000000e+000
55349150.000	-1.137089e-002	-1.800633e+001	-5.695934e+001	8.785598e+001	-2.000000e+002	0.000000e+000	-2.000000e+002	0.000000e+000
55999140.000	-1.164809e-002	-1.821758e+001	-5.697831e+001	8.863539e+001	-2.000000e+002	0.000000e+000	-2.000000e+002	0.000000e+000
56649130.000	-1.253947e-002	-1.842543e+001	-5.679990e+001	8.939210e+001	-2.000000e+002	0.000000e+000	-2.000000e+002	0.000000e+000
57299120.000	-1.333528e-002	-1.863049e+001	-5.658160e+001	8.874228e+001	-2.000000e+002	0.000000e+000	-2.000000e+002	0.000000e+000
57949110.000	-1.330590e-002	-1.883726e+001	-5.666936e+001	8.805530e+001	-2.000000e+002	0.000000e+000	-2.000000e+002	0.000000e+000
58599100.000	-1.404384e-002	-1.904813e+001	-5.678508e+001	8.934485e+001	-2.000000e+002	0.000000e+000	-2.000000e+002	0.000000e+000
59249090.000	-1.513727e-002	-1.925498e+001	-5.676362e+001	9.122575e+001	-2.000000e+002	0.000000e+000	-2.000000e+002	0.000000e+000
59899080.000	-1.561633e-002	-1.946224e+001	-5.663371e+001	9.338290e+001	-2.000000e+002	0.000000e+000	-2.000000e+002	0.000000e+000
60549070.000	-1.746237e-002	-1.966911e+001	-5.642229e+001	9.567850e+001	-2.000000e+002	0.000000e+000	-2.000000e+002	0.000000e+000
61199060.000	-1.833941e-002	-1.987357e+001	-5.607092e+001	9.765487e+001	-2.000000e+002	0.000000e+000	-2.000000e+002	0.000000e+000
61849050.000	-1.989478e-002	-2.007861e+001	-5.559416e+001	9.958624e+001	-2.000000e+002	0.000000e+000	-2.000000e+002	0.000000e+000
62499040.000	-2.120685e-002	-2.027888e+001	-5.504071e+001	1.002236e+002	-2.000000e+002	0.000000e+000	-2.000000e+002	0.000000e+000
63149030.000	-2.167646e-002	-2.048070e+001	-5.451053e+001	1.000380e+002	-2.000000e+002	0.000000e+000	-2.000000e+002	0.000000e+000
63799020.000	-2.299440e-002	-2.068206e+001	-5.406080e+001	9.868301e+001	-2.000000e+002	0.000000e+000	-2.000000e+002	0.000000e+000
64449010.000	-2.366485e-002	-2.088538e+001	-5.371600e+001	9.768492e+001	-2.000000e+002	0.000000e+000	-2.000000e+002	0.000000e+000
65099000.000	-2.398187e-002	-2.108869e+001	-5.339435e+001	9.683490e+001	-2.000000e+002	0.000000e+000	-2.000000e+002	0.000000e+000
65748990.000	-2.434702e-002	-2.129180e+001	-5.310036e+001	9.578578e+001	-2.000000e+002	0.000000e+000	-2.000000e+002	0.000000e+000
66398980.000	-2.441293e-002	-2.149717e+001	-5.281758e+001	9.428408e+001	-2.000000e+002	0.000000e+000	-2.000000e+002	0.000000e+000
67048970.000	-2.473015e-002	-2.169980e+001	-5.257169e+001	9.272584e+001	-2.000000e+002	0.000000e+000	-2.000000e+002	0.000000e+000
67698960.000	-2.472213e-002	-2.190150e+001	-5.239295e+001	9.146777e+001	-2.000000e+002	0.000000e+000	-2.000000e+002	0.000000e+000
68348950.000	-2.509451e-002	-2.210578e+001	-5.217706e+001	8.997424e+001	-2.000000e+002	0.000000e+000	-2.000000e+002	0.000000e+000
68998940.000	-2.580538e-002	-2.231090e+001	-5.201186e+001	8.879824e+001	-2.000000e+002	0.000000e+000	-2.000000e+002	0.000000e+000
69648930.000	-2.547919e-002	-2.251455e+001	-5.180016e+001	8.733744e+001	-2.000000e+002	0.000000e+000	-2.000000e+002	0.000000e+000
70298920.000	-2.427323e-002	-2.271983e+001	-5.160390e+001	8.565839e+001	-2.000000e+002	0.000000e+000	-2.000000e+002	0.000000e+000
70948910.000	-2.492420e-002	-2.292657e+001	-5.148538e+001	8.369208e+001	-2.000000e+002	0.000000e+000	-2.000000e+002	0.000000e+000
71598900.000	-2.406304e-002	-2.313423e+001	-5.144899e+001	8.149891e+001	-2.000000e+002	0.000000e+000	-2.000000e+002	0.000000e+000
72248890.000	-2.381221e-002	-2.334107e+001	-5.145532e+001	7.959528e+001	-2.000000e+002	0.000000e+000	-2.000000e+002	0.000000e+000
72898880.000	-2.367133e-002	-2.354959e+001	-5.154620e+001	7.788840e+001	-2.000000e+002	0.000000e+000	-2.000000e+002	0.000000e+000
73548870.000	-2.392893e-002	-2.375877e+001	-5.159419e+001	7.715473e+001	-2.000000e+002	0.000000e+000	-2.000000e+002	0.000000e+000
74198860.000	-2.421281e-002	-2.396707e+001	-5.167053e+001	7.584760e+001	-2.000000e+002	0.000000e+000	-2.000000e+002	0.000000e+000
74848850.000	-2.445211e-002	-2.417769e+001	-5.172258e+001	7.488971e+001	-2.000000e+002	0.000000e+000	-2.000000e+002	0.000000e+000
75498840.000	-2.405548e-002	-2.438672e+001	-5.182814e+001	7.449203e+001	-2.000000e+002	0.000000e+000	-2.000000e+002	0.000000e+000
76148830.000	-2.423115e-002	-2.459715e+001	-5.193390e+001	7.375520e+001	-2.000000e+002	0.000000e+000	-2.000000e+002	0.000000e+000
76798820.000	-2.403144e-002	-2.480610e+001	-5.198662e+001	7.345544e+001	-2.000000e+002	0.000000e+000	-2.000000e+002	0.000000e+000
77448810.000	-2.577622e-002	-2.501455e+001	-5.210619e+001	7.333671e+001	-2.000000e+002	0.000000e+000	-2.000000e+002	0.000000e+000
78098800.000	-2.646259e-002	-2.522623e+001	-5.212323e+001	7.332661e+001	-2.000000e+002	0.000000e+000	-2.000000e+002	0.000000e+000
78748790.000	-2.671209e-002	-2.543293e+001	-5.218314e+001	7.331409e+001	-2.000000e+002	0.000000e+000	-2.000000e+002	0.000000e+000
79398780.000	-2.639339e-002	-2.564118e+001	-5.222398e+001	7.321790e+001	-2.000000e+002	0.000000e+000	-2.000000e+002	0.000000e+000
80048770.000	-2.664220e-002	-2.585358e+001	-5.224833e+001	7.330700e+001	-2.000000e+002	0.000000e+000	-2.000000e+002	0.000000e+000
80698760.000	-2.723095e-002	-2.606221e+001	-5.227471e+001	7.337042e+001	-2.000000e+002	0.000000e+000	-2.000000e+002	0.000000e+000
81348750.000	-2.773426e-002	-2.627247e+001	-5.228308e+001	7.374880e+001	-2.000000e+002	0.000000e+000	-2.000000e+002	0.000000e+000
81998740.000	-2.803947e-002	-2.648262e+001	-5.231801e+001	7.359400e+001	-2.000000e+002	0.000000e+000	-2.000000e+002	0.000000e+000
82648730.000	-2.883897e-002	-2.669251e+001	-5.233692e+001	7.387537e+001	-2.000000e+002	0.000000e+000	-2.000000e+002	0.000000e+000
83298720.000	-2.977828e-002	-2.690391e+001	-5.237865e+001	7.408910e+001	-2.000000e+002	0.000000e+000	-2.000000e+002	0.000000e+000
83948710.000	-2.999807e-002	-2.711510e+001	-5.240256e+001	7.450708e+001	-2.000000e+002	0.000000e+000	-2.000000e+002	0.000000e+000
84598700.000	-3.072044e-002	-2.732623e+001	-5.243864e+001	7.503337e+001	-2.000000e+002	0.000000e+000	-2.000000e+002	0.000000e+000
85248690.000	-3.103257e-002	-2.753675e+001	-5.236122e+001	7.512147e+001	-2.000000e+002	0.000000e+000	-2.000000e+002	0.000000e+000
85898680.000	-3.184917e-002	-2.774642e+001	-5.242680e+001	7.612504e+001	-2.000000e+002	0.000000e+000	-2.000000e+002	0.000000e+000
86548670.000	-3.270401e-002	-2.795625e+001	-5.236487e+001	7.660368e+001	-2.000000e+002	0.000000e+000	-2.000000e+002	0.000000e+000
87198660.000	-3.281801e-002	-2.816172e+001	-5.233425e+001	7.733171e+001	-2.000000e+002	0.000000e+000	-2.000000e+002	0.000000e+000
87848650.000	-3.359535e-002	-2.837056e+001	-5.231702e+001	7.766184e+001	-2.000000e+002	0.000000e+000	-2.000000e+002	0.000000e+000
88498640.000	-3.423722e-002	-2.857709e+001	-5.224676e+001	7.822448e+001	-2.000000e+002	0.000000e+000	-2.000000e+002	0.000000e+000
89148630.000	-3.558884e-002	-2.878518e+001	-5.224089e+001	7.882839e+001	-2.000000e+002	0.000000e+000	-2.000000e+002	0.000000e+000
89798620.000	-3.588942e-002	-2.899251e+001	-5.215985e+001	7.951934e+001	-2.000000e+002	0.000000e+000	-2.000000e+002	0.000000e+000
90448610.000	-3.620101e-002	-2.920199e+001	-5.215006e+001	7.981077e+001	-2.000000e+002	0.000000e+000	-2.000000e+002	0.000000e+000
91098600.000	-3.729120e-002	-2.941372e+001	-5.208948e+001	8.090416e+001	-2.000000e+002	0.000000e+000	-2.000000e+002	0.000000e+000
91748590.000	-3.755769e-002	-2.962593e+001	-5.208819e+001	8.308638e+001	-2.000000e+002	0.000000e+000	-2.000000e+002	0.000000e+000
92398580.000	-3.794754e-002	-2.983642e+001	-5.185893e+001	8.334888e+001	-2.000000e+002	0.000000e+000	-2.000000e+002	0.000000e+000
93048570.000	-3.842822e-002	-3.004809e+001	-5.156041e+001	8.336558e+001	-2.000000e+002	0.000000e+000	-2.000000e+002	0.000000e+000
93698560.000	-3.955958e-002	-3.025625e+001	-5.148393e+001	8.472863e+001	-2.000000e+002	0.000000e+000	-2.000000e+002	0.000000e+000
94348550.000	-4.007670e-002	-3.046530e+001	-5.125949e+001	8.491331e+001	-2.000000e+002	0.000000e+000	-2.000000e+002	0.000000e+000
94998540.000	-4.028207e-002	-3.068152e+001	-5.159218e+001	8.401221e+001	-2.000000e+002	0.000000e+000	-2.000000e+002	0.000000e+000
95648530.000	-4.143845e-002	-3.087848e+001	-5.090920e+001	8.499741e+001	-2.000000e+002	0.000000e+000	-2.000000e+002	0.000000e+000
96298520.000	-4.202431e-002	-3.108267e+001	-5.076905e+001	8.503755e+001	-2.000000e+002	0.000000e+000	-2.000000e+002	0.000000e+000
96948510.000	-4.277394e-002	-3.129007e+001	-5.064924e+001	8.475302e+001	-2.000000e+002	0.000000e+000	-2.000000e+002	0.000000e+000
97598500.000	-4.357322e-002	-3.149905e+001	-5.053409e+001	8.492285e+001	-2.000000e+002	0.000000e+000	-2.000000e+002	0.000000e+000
98248490.000	-4.382039e-002	-3.170466e+001	-5.047966e+001	8.518245e+001	-2.000000e+002	0.000000e+000	-2.000000e+002	0.000000e+000
