!Keysight Technologies,E5063A,MY54503115,A.05.08
!Date: Wed Nov 22 14:09:47 2023
!Data & Calibration Information:
!Freq	S11:NONE(--)	S21:NONE(--)	S12:NONE(--)	S22:NONE(--)
# Hz S dB R 50
100000.000	4.698421e-002	-6.009029e-001	-8.334008e+001	7.685498e+001	-2.000000e+002	0.000000e+000	-2.000000e+002	0.000000e+000
749990.000	-2.542800e-003	-5.776800e-001	-8.581369e+001	-1.798170e+002	-2.000000e+002	0.000000e+000	-2.000000e+002	0.000000e+000
1399980.000	-2.653491e-003	-7.433042e-001	-9.131467e+001	1.454748e+002	-2.000000e+002	0.000000e+000	-2.000000e+002	0.000000e+000
2049970.000	-3.734815e-003	-9.398724e-001	-8.349771e+001	1.324195e+002	-2.000000e+002	0.000000e+000	-2.000000e+002	0.000000e+000
2699960.000	-3.452955e-003	-1.137542e+000	-8.623612e+001	8.204225e+001	-2.000000e+002	0.000000e+000	-2.000000e+002	0.000000e+000
3349950.000	-2.061046e-003	-1.351797e+000	-7.994419e+001	1.127162e+002	-2.000000e+002	0.000000e+000	-2.000000e+002	0.000000e+000
3999940.000	-2.489255e-003	-1.547749e+000	-7.995116e+001	7.750617e+001	-2.000000e+002	0.000000e+000	-2.000000e+002	0.000000e+000
4649930.000	-2.069432e-003	-1.766254e+000	-7.874870e+001	8.943235e+001	-2.000000e+002	0.000000e+000	-2.000000e+002	0.000000e+000
5299920.000	-3.039017e-003	-1.962728e+000	-7.771708e+001	8.502962e+001	-2.000000e+002	0.000000e+000	-2.000000e+002	0.000000e+000
5949910.000	-2.962642e-003	-2.173584e+000	-7.423567e+001	8.982979e+001	-2.000000e+002	0.000000e+000	-2.000000e+002	0.000000e+000
6599900.000	-3.188190e-003	-2.380644e+000	-7.520811e+001	8.981991e+001	-2.000000e+002	0.000000e+000	-2.000000e+002	0.000000e+000
7249890.000	-2.828156e-003	-2.588072e+000	-7.777662e+001	8.115373e+001	-2.000000e+002	0.000000e+000	-2.000000e+002	0.000000e+000
7899880.000	-2.942745e-003	-2.794386e+000	-7.460710e+001	8.549328e+001	-2.000000e+002	0.000000e+000	-2.000000e+002	0.000000e+000
8549870.000	-6.456419e-004	-3.016247e+000	-7.397361e+001	8.887141e+001	-2.000000e+002	0.000000e+000	-2.000000e+002	0.000000e+000
9199860.000	-1.854630e-003	-3.221641e+000	-7.311746e+001	8.517505e+001	-2.000000e+002	0.000000e+000	-2.000000e+002	0.000000e+000
9849850.000	-1.870369e-003	-3.430849e+000	-7.240680e+001	8.869690e+001	-2.000000e+002	0.000000e+000	-2.000000e+002	0.000000e+000
10499840.000	-2.712652e-003	-3.627275e+000	-7.178643e+001	8.779086e+001	-2.000000e+002	0.000000e+000	-2.000000e+002	0.000000e+000
11149830.000	-4.640445e-003	-3.827425e+000	-7.129968e+001	8.626515e+001	-2.000000e+002	0.000000e+000	-2.000000e+002	0.000000e+000
11799820.000	-5.069793e-003	-4.029952e+000	-7.116712e+001	8.614211e+001	-2.000000e+002	0.000000e+000	-2.000000e+002	0.000000e+000
12449810.000	-4.072307e-003	-4.245625e+000	-7.042431e+001	8.697162e+001	-2.000000e+002	0.000000e+000	-2.000000e+002	0.000000e+000
13099800.000	-2.255420e-003	-4.461607e+000	-6.998021e+001	8.711569e+001	-2.000000e+002	0.000000e+000	-2.000000e+002	0.000000e+000
13749790.000	-2.893097e-003	-4.663449e+000	-6.985119e+001	8.720714e+001	-2.000000e+002	0.000000e+000	-2.000000e+002	0.000000e+000
14399780.000	-3.925800e-003	-4.878164e+000	-6.943159e+001	8.597697e+001	-2.000000e+002	0.000000e+000	-2.000000e+002	0.000000e+000
15049770.000	-4.552418e-003	-5.097939e+000	-6.924462e+001	8.657053e+001	-2.000000e+002	0.000000e+000	-2.000000e+002	0.000000e+000
15699760.000	-2.977571e-003	-5.284606e+000	-6.863115e+001	8.522216e+001	-2.000000e+002	0.000000e+000	-2.000000e+002	0.000000e+000
16349750.000	-3.154804e-003	-5.484858e+000	-6.830068e+001	8.523774e+001	-2.000000e+002	0.000000e+000	-2.000000e+002	0.000000e+000
16999740.000	-5.835070e-003	-5.702602e+000	-6.794629e+001	8.563129e+001	-2.000000e+002	0.000000e+000	-2.000000e+002	0.000000e+000
17649730.000	1.352587e-003	-5.931259e+000	-6.762308e+001	8.503920e+001	-2.000000e+002	0.000000e+000	-2.000000e+002	0.000000e+000
18299720.000	4.083235e-003	-6.152010e+000	-6.733951e+001	8.549687e+001	-2.000000e+002	0.000000e+000	-2.000000e+002	0.000000e+000
18949710.000	2.778575e-003	-6.349663e+000	-6.732000e+001	8.467803e+001	-2.000000e+002	0.000000e+000	-2.000000e+002	0.000000e+000
19599700.000	-2.581975e-003	-6.528979e+000	-6.685336e+001	8.521300e+001	-2.000000e+002	0.000000e+000	-2.000000e+002	0.000000e+000
20249690.000	-6.204656e-003	-6.715528e+000	-6.667910e+001	8.593716e+001	-2.000000e+002	0.000000e+000	-2.000000e+002	0.000000e+000
20899680.000	-7.717919e-003	-6.950294e+000	-6.651840e+001	8.453885e+001	-2.000000e+002	0.000000e+000	-2.000000e+002	0.000000e+000
21549670.000	-7.876014e-003	-7.166640e+000	-6.643037e+001	8.546034e+001	-2.000000e+002	0.000000e+000	-2.000000e+002	0.000000e+000
22199660.000	-6.213378e-003	-7.360049e+000	-6.613547e+001	8.540175e+001	-2.000000e+002	0.000000e+000	-2.000000e+002	0.000000e+000
22849650.000	-2.784106e-003	-7.538636e+000	-6.622369e+001	8.539941e+001	-2.000000e+002	0.000000e+000	-2.000000e+002	0.000000e+000
23499640.000	-3.601072e-003	-7.745557e+000	-6.575539e+001	8.783405e+001	-2.000000e+002	0.000000e+000	-2.000000e+002	0.000000e+000
24149630.000	-5.334702e-003	-7.954839e+000	-6.541666e+001	8.907443e+001	-2.000000e+002	0.000000e+000	-2.000000e+002	0.000000e+000
24799620.000	-4.683528e-003	-8.164215e+000	-6.485979e+001	8.867103e+001	-2.000000e+002	0.000000e+000	-2.000000e+002	0.000000e+000
25449610.000	-2.012920e-003	-8.374898e+000	-6.460045e+001	8.774969e+001	-2.000000e+002	0.000000e+000	-2.000000e+002	0.000000e+000
26099600.000	-2.838722e-003	-8.577917e+000	-6.427902e+001	8.771495e+001	-2.000000e+002	0.000000e+000	-2.000000e+002	0.000000e+000
26749590.000	-3.592704e-003	-8.786173e+000	-6.401801e+001	8.796600e+001	-2.000000e+002	0.000000e+000	-2.000000e+002	0.000000e+000
27399580.000	-3.461750e-003	-8.997358e+000	-6.389097e+001	8.755106e+001	-2.000000e+002	0.000000e+000	-2.000000e+002	0.000000e+000
28049570.000	-3.163260e-003	-9.211691e+000	-6.370742e+001	8.645176e+001	-2.000000e+002	0.000000e+000	-2.000000e+002	0.000000e+000
28699560.000	-3.480697e-003	-9.411669e+000	-6.340148e+001	8.607103e+001	-2.000000e+002	0.000000e+000	-2.000000e+002	0.000000e+000
29349550.000	-3.881090e-003	-9.612908e+000	-6.318509e+001	8.652553e+001	-2.000000e+002	0.000000e+000	-2.000000e+002	0.000000e+000
29999540.000	-4.201079e-003	-9.818912e+000	-6.320239e+001	8.449467e+001	-2.000000e+002	0.000000e+000	-2.000000e+002	0.000000e+000
30649530.000	-3.953376e-003	-1.003301e+001	-6.280307e+001	8.633925e+001	-2.000000e+002	0.000000e+000	-2.000000e+002	0.000000e+000
31299520.000	-3.962651e-003	-1.024913e+001	-6.264811e+001	8.548722e+001	-2.000000e+002	0.000000e+000	-2.000000e+002	0.000000e+000
31949510.000	-4.009562e-003	-1.045269e+001	-6.254736e+001	8.533646e+001	-2.000000e+002	0.000000e+000	-2.000000e+002	0.000000e+000
32599500.000	-4.843684e-003	-1.066123e+001	-6.222688e+001	8.557758e+001	-2.000000e+002	0.000000e+000	-2.000000e+002	0.000000e+000
33249490.000	-4.937789e-003	-1.086998e+001	-6.208169e+001	8.573680e+001	-2.000000e+002	0.000000e+000	-2.000000e+002	0.000000e+000
33899480.000	-5.081841e-003	-1.107686e+001	-6.192403e+001	8.564083e+001	-2.000000e+002	0.000000e+000	-2.000000e+002	0.000000e+000
34549470.000	-5.341979e-003	-1.127810e+001	-6.176103e+001	8.570574e+001	-2.000000e+002	0.000000e+000	-2.000000e+002	0.000000e+000
35199460.000	-5.424239e-003	-1.147982e+001	-6.157356e+001	8.513427e+001	-2.000000e+002	0.000000e+000	-2.000000e+002	0.000000e+000
35849450.000	-5.336173e-003	-1.168168e+001	-6.127614e+001	8.502871e+001	-2.000000e+002	0.000000e+000	-2.000000e+002	0.000000e+000
36499440.000	-5.408760e-003	-1.189066e+001	-6.107081e+001	8.547821e+001	-2.000000e+002	0.000000e+000	-2.000000e+002	0.000000e+000
37149430.000	-5.791565e-003	-1.210047e+001	-6.073364e+001	8.476699e+001	-2.000000e+002	0.000000e+000	-2.000000e+002	0.000000e+000
37799420.000	-6.446981e-003	-1.230392e+001	-6.063500e+001	8.409603e+001	-2.000000e+002	0.000000e+000	-2.000000e+002	0.000000e+000
38449410.000	-6.481724e-003	-1.251504e+001	-6.057251e+001	8.341639e+001	-2.000000e+002	0.000000e+000	-2.000000e+002	0.000000e+000
39099400.000	-6.516692e-003	-1.272609e+001	-6.042936e+001	8.290999e+001	-2.000000e+002	0.000000e+000	-2.000000e+002	0.000000e+000
39749390.000	-7.254359e-003	-1.293882e+001	-6.042627e+001	8.196355e+001	-2.000000e+002	0.000000e+000	-2.000000e+002	0.000000e+000
40399380.000	-7.290742e-003	-1.315103e+001	-6.031618e+001	8.180591e+001	-2.000000e+002	0.000000e+000	-2.000000e+002	0.000000e+000
41049370.000	-7.530587e-003	-1.335661e+001	-6.029539e+001	8.154620e+001	-2.000000e+002	0.000000e+000	-2.000000e+002	0.000000e+000
41699360.000	-6.265947e-003	-1.356104e+001	-6.020905e+001	8.089463e+001	-2.000000e+002	0.000000e+000	-2.000000e+002	0.000000e+000
42349350.000	-6.155934e-003	-1.376738e+001	-6.014534e+001	8.109771e+001	-2.000000e+002	0.000000e+000	-2.000000e+002	0.000000e+000
42999340.000	-6.663796e-003	-1.397254e+001	-6.013186e+001	8.215363e+001	-2.000000e+002	0.000000e+000	-2.000000e+002	0.000000e+000
43649330.000	-6.962143e-003	-1.417913e+001	-6.008169e+001	8.183953e+001	-2.000000e+002	0.000000e+000	-2.000000e+002	0.000000e+000
44299320.000	-7.238897e-003	-1.438937e+001	-5.999566e+001	8.214478e+001	-2.000000e+002	0.000000e+000	-2.000000e+002	0.000000e+000
44949310.000	-7.371510e-003	-1.460171e+001	-5.996736e+001	8.261391e+001	-2.000000e+002	0.000000e+000	-2.000000e+002	0.000000e+000
45599300.000	-7.988422e-003	-1.481083e+001	-5.993367e+001	8.333531e+001	-2.000000e+002	0.000000e+000	-2.000000e+002	0.000000e+000
46249290.000	-8.169541e-003	-1.501572e+001	-5.986624e+001	8.451069e+001	-2.000000e+002	0.000000e+000	-2.000000e+002	0.000000e+000
46899280.000	-9.330339e-003	-1.522318e+001	-5.973729e+001	8.553642e+001	-2.000000e+002	0.000000e+000	-2.000000e+002	0.000000e+000
47549270.000	-1.028278e-002	-1.542951e+001	-5.951924e+001	8.731358e+001	-2.000000e+002	0.000000e+000	-2.000000e+002	0.000000e+000
48199260.000	-1.117471e-002	-1.563785e+001	-5.920627e+001	8.896737e+001	-2.000000e+002	0.000000e+000	-2.000000e+002	0.000000e+000
48849250.000	-1.266411e-002	-1.584543e+001	-5.878407e+001	8.861704e+001	-2.000000e+002	0.000000e+000	-2.000000e+002	0.000000e+000
49499240.000	-1.221107e-002	-1.605157e+001	-5.845703e+001	8.832619e+001	-2.000000e+002	0.000000e+000	-2.000000e+002	0.000000e+000
50149230.000	-1.246602e-002	-1.625794e+001	-5.820713e+001	8.751468e+001	-2.000000e+002	0.000000e+000	-2.000000e+002	0.000000e+000
50799220.000	-1.322876e-002	-1.646838e+001	-5.804492e+001	8.646228e+001	-2.000000e+002	0.000000e+000	-2.000000e+002	0.000000e+000
51449210.000	-1.220071e-002	-1.667549e+001	-5.794150e+001	8.565200e+001	-2.000000e+002	0.000000e+000	-2.000000e+002	0.000000e+000
52099200.000	-1.215579e-002	-1.688391e+001	-5.777580e+001	8.537434e+001	-2.000000e+002	0.000000e+000	-2.000000e+002	0.000000e+000
52749190.000	-1.271571e-002	-1.708891e+001	-5.769619e+001	8.459873e+001	-2.000000e+002	0.000000e+000	-2.000000e+002	0.000000e+000
53399180.000	-1.267171e-002	-1.729449e+001	-5.760698e+001	8.410981e+001	-2.000000e+002	0.000000e+000	-2.000000e+002	0.000000e+000
54049170.000	-1.289501e-002	-1.750459e+001	-5.753951e+001	8.442170e+001	-2.000000e+002	0.000000e+000	-2.000000e+002	0.000000e+000
54699160.000	-1.331828e-002	-1.771339e+001	-5.758181e+001	8.471050e+001	-2.000000e+002	0.000000e+000	-2.000000e+002	0.000000e+000
55349150.000	-1.341886e-002	-1.792336e+001	-5.751863e+001	8.538601e+001	-2.000000e+002	0.000000e+000	-2.000000e+002	0.000000e+000
55999140.000	-1.422448e-002	-1.813140e+001	-5.728807e+001	8.645674e+001	-2.000000e+002	0.000000e+000	-2.000000e+002	0.000000e+000
56649130.000	-1.491045e-002	-1.833571e+001	-5.686299e+001	8.585298e+001	-2.000000e+002	0.000000e+000	-2.000000e+002	0.000000e+000
57299120.000	-1.527450e-002	-1.854311e+001	-5.691772e+001	8.409831e+001	-2.000000e+002	0.000000e+000	-2.000000e+002	0.000000e+000
57949110.000	-1.563062e-002	-1.875304e+001	-5.700495e+001	8.507510e+001	-2.000000e+002	0.000000e+000	-2.000000e+002	0.000000e+000
58599100.000	-1.617696e-002	-1.895373e+001	-5.684756e+001	8.675328e+001	-2.000000e+002	0.000000e+000	-2.000000e+002	0.000000e+000
59249090.000	-1.700584e-002	-1.916089e+001	-5.660751e+001	8.735478e+001	-2.000000e+002	0.000000e+000	-2.000000e+002	0.000000e+000
59899080.000	-1.723457e-002	-1.936617e+001	-5.637628e+001	8.768046e+001	-2.000000e+002	0.000000e+000	-2.000000e+002	0.000000e+000
60549070.000	-1.880524e-002	-1.957072e+001	-5.610019e+001	8.803638e+001	-2.000000e+002	0.000000e+000	-2.000000e+002	0.000000e+000
61199060.000	-1.942183e-002	-1.977569e+001	-5.580106e+001	8.774872e+001	-2.000000e+002	0.000000e+000	-2.000000e+002	0.000000e+000
61849050.000	-1.990319e-002	-1.997790e+001	-5.551517e+001	8.686661e+001	-2.000000e+002	0.000000e+000	-2.000000e+002	0.000000e+000
62499040.000	-2.056371e-002	-2.018050e+001	-5.535282e+001	8.609352e+001	-2.000000e+002	0.000000e+000	-2.000000e+002	0.000000e+000
63149030.000	-2.072825e-002	-2.038466e+001	-5.529185e+001	8.563989e+001	-2.000000e+002	0.000000e+000	-2.000000e+002	0.000000e+000
63799020.000	-2.222400e-002	-2.059115e+001	-5.510671e+001	8.534514e+001	-2.000000e+002	0.000000e+000	-2.000000e+002	0.000000e+000
64449010.000	-2.256647e-002	-2.079521e+001	-5.490773e+001	8.517196e+001	-2.000000e+002	0.000000e+000	-2.000000e+002	0.000000e+000
65099000.000	-2.296562e-002	-2.099739e+001	-5.472747e+001	8.480776e+001	-2.000000e+002	0.000000e+000	-2.000000e+002	0.000000e+000
65748990.000	-2.342913e-002	-2.120105e+001	-5.451207e+001	8.427072e+001	-2.000000e+002	0.000000e+000	-2.000000e+002	0.000000e+000
66398980.000	-2.366563e-002	-2.140568e+001	-5.437880e+001	8.364262e+001	-2.000000e+002	0.000000e+000	-2.000000e+002	0.000000e+000
67048970.000	-2.356915e-002	-2.161366e+001	-5.417993e+001	8.269827e+001	-2.000000e+002	0.000000e+000	-2.000000e+002	0.000000e+000
67698960.000	-2.424250e-002	-2.181729e+001	-5.408992e+001	8.201022e+001	-2.000000e+002	0.000000e+000	-2.000000e+002	0.000000e+000
68348950.000	-2.440584e-002	-2.201962e+001	-5.391602e+001	8.118755e+001	-2.000000e+002	0.000000e+000	-2.000000e+002	0.000000e+000
68998940.000	-2.528201e-002	-2.222512e+001	-5.382789e+001	8.028376e+001	-2.000000e+002	0.000000e+000	-2.000000e+002	0.000000e+000
69648930.000	-2.469169e-002	-2.243006e+001	-5.372188e+001	7.938181e+001	-2.000000e+002	0.000000e+000	-2.000000e+002	0.000000e+000
70298920.000	-2.466104e-002	-2.264411e+001	-5.368182e+001	7.846295e+001	-2.000000e+002	0.000000e+000	-2.000000e+002	0.000000e+000
70948910.000	-2.521317e-002	-2.285441e+001	-5.361080e+001	7.786079e+001	-2.000000e+002	0.000000e+000	-2.000000e+002	0.000000e+000
71598900.000	-2.518165e-002	-2.305756e+001	-5.354212e+001	7.723287e+001	-2.000000e+002	0.000000e+000	-2.000000e+002	0.000000e+000
72248890.000	-2.578801e-002	-2.326556e+001	-5.352381e+001	7.690677e+001	-2.000000e+002	0.000000e+000	-2.000000e+002	0.000000e+000
72898880.000	-2.586955e-002	-2.347216e+001	-5.347531e+001	7.620125e+001	-2.000000e+002	0.000000e+000	-2.000000e+002	0.000000e+000
73548870.000	-2.663769e-002	-2.367896e+001	-5.342823e+001	7.582623e+001	-2.000000e+002	0.000000e+000	-2.000000e+002	0.000000e+000
74198860.000	-2.643743e-002	-2.388457e+001	-5.339399e+001	7.574034e+001	-2.000000e+002	0.000000e+000	-2.000000e+002	0.000000e+000
74848850.000	-2.738562e-002	-2.409043e+001	-5.332393e+001	7.543660e+001	-2.000000e+002	0.000000e+000	-2.000000e+002	0.000000e+000
75498840.000	-2.716252e-002	-2.430064e+001	-5.326779e+001	7.502089e+001	-2.000000e+002	0.000000e+000	-2.000000e+002	0.000000e+000
76148830.000	-2.752795e-002	-2.450568e+001	-5.315371e+001	7.476160e+001	-2.000000e+002	0.000000e+000	-2.000000e+002	0.000000e+000
76798820.000	-2.722709e-002	-2.470945e+001	-5.305483e+001	7.444157e+001	-2.000000e+002	0.000000e+000	-2.000000e+002	0.000000e+000
77448810.000	-2.866736e-002	-2.490904e+001	-5.294961e+001	7.395196e+001	-2.000000e+002	0.000000e+000	-2.000000e+002	0.000000e+000
78098800.000	-2.900235e-002	-2.511574e+001	-5.291870e+001	7.326182e+001	-2.000000e+002	0.000000e+000	-2.000000e+002	0.000000e+000
78748790.000	-2.903658e-002	-2.532283e+001	-5.286623e+001	7.255462e+001	-2.000000e+002	0.000000e+000	-2.000000e+002	0.000000e+000
79398780.000	-2.907278e-002	-2.552708e+001	-5.288544e+001	7.224745e+001	-2.000000e+002	0.000000e+000	-2.000000e+002	0.000000e+000
80048770.000	-2.939605e-002	-2.574290e+001	-5.286552e+001	7.168620e+001	-2.000000e+002	0.000000e+000	-2.000000e+002	0.000000e+000
80698760.000	-2.980188e-002	-2.595185e+001	-5.286726e+001	7.120610e+001	-2.000000e+002	0.000000e+000	-2.000000e+002	0.000000e+000
81348750.000	-2.998690e-002	-2.615926e+001	-5.283644e+001	7.113610e+001	-2.000000e+002	0.000000e+000	-2.000000e+002	0.000000e+000
81998740.000	-3.006132e-002	-2.636608e+001	-5.282282e+001	7.107983e+001	-2.000000e+002	0.000000e+000	-2.000000e+002	0.000000e+000
82648730.000	-3.069702e-002	-2.657007e+001	-5.280577e+001	7.080817e+001	-2.000000e+002	0.000000e+000	-2.000000e+002	0.000000e+000
83298720.000	-3.163588e-002	-2.677914e+001	-5.281400e+001	7.093839e+001	-2.000000e+002	0.000000e+000	-2.000000e+002	0.000000e+000
83948710.000	-3.172333e-002	-2.698895e+001	-5.278432e+001	7.089384e+001	-2.000000e+002	0.000000e+000	-2.000000e+002	0.000000e+000
84598700.000	-3.153569e-002	-2.719536e+001	-5.273073e+001	7.098686e+001	-2.000000e+002	0.000000e+000	-2.000000e+002	0.000000e+000
85248690.000	-3.243042e-002	-2.740517e+001	-5.268776e+001	7.110272e+001	-2.000000e+002	0.000000e+000	-2.000000e+002	0.000000e+000
85898680.000	-3.338718e-002	-2.761060e+001	-5.266918e+001	7.113073e+001	-2.000000e+002	0.000000e+000	-2.000000e+002	0.000000e+000
86548670.000	-3.373589e-002	-2.781745e+001	-5.259717e+001	7.138305e+001	-2.000000e+002	0.000000e+000	-2.000000e+002	0.000000e+000
87198660.000	-3.365223e-002	-2.802271e+001	-5.256363e+001	7.115210e+001	-2.000000e+002	0.000000e+000	-2.000000e+002	0.000000e+000
87848650.000	-3.477206e-002	-2.822610e+001	-5.244996e+001	7.138019e+001	-2.000000e+002	0.000000e+000	-2.000000e+002	0.000000e+000
88498640.000	-3.492192e-002	-2.843265e+001	-5.243403e+001	7.139001e+001	-2.000000e+002	0.000000e+000	-2.000000e+002	0.000000e+000
89148630.000	-3.598946e-002	-2.864010e+001	-5.239026e+001	7.133917e+001	-2.000000e+002	0.000000e+000	-2.000000e+002	0.000000e+000
89798620.000	-3.639951e-002	-2.884610e+001	-5.232406e+001	7.137189e+001	-2.000000e+002	0.000000e+000	-2.000000e+002	0.000000e+000
90448610.000	-3.627984e-002	-2.905393e+001	-5.226818e+001	7.140848e+001	-2.000000e+002	0.000000e+000	-2.000000e+002	0.000000e+000
91098600.000	-3.699012e-002	-2.926595e+001	-5.221498e+001	7.150640e+001	-2.000000e+002	0.000000e+000	-2.000000e+002	0.000000e+000
91748590.000	-3.657007e-002	-2.947543e+001	-5.217822e+001	7.225416e+001	-2.000000e+002	0.000000e+000	-2.000000e+002	0.000000e+000
92398580.000	-3.707421e-002	-2.968202e+001	-5.203444e+001	7.238673e+001	-2.000000e+002	0.000000e+000	-2.000000e+002	0.000000e+000
93048570.000	-3.724212e-002	-2.988695e+001	-5.184797e+001	7.305309e+001	-2.000000e+002	0.000000e+000	-2.000000e+002	0.000000e+000
93698560.000	-3.803253e-002	-3.009986e+001	-5.178855e+001	7.207288e+001	-2.000000e+002	0.000000e+000	-2.000000e+002	0.000000e+000
94348550.000	-3.832427e-002	-3.030371e+001	-5.170145e+001	7.154020e+001	-2.000000e+002	0.000000e+000	-2.000000e+002	0.000000e+000
94998540.000	-3.874730e-002	-3.051112e+001	-5.157434e+001	7.100168e+001	-2.000000e+002	0.000000e+000	-2.000000e+002	0.000000e+000
95648530.000	-3.943887e-002	-3.071791e+001	-5.152865e+001	7.147233e+001	-2.000000e+002	0.000000e+000	-2.000000e+002	0.000000e+000
96298520.000	-3.930947e-002	-3.092417e+001	-5.149704e+001	7.102125e+001	-2.000000e+002	0.000000e+000	-2.000000e+002	0.000000e+000
96948510.000	-4.029415e-002	-3.112856e+001	-5.144102e+001	7.071612e+001	-2.000000e+002	0.000000e+000	-2.000000e+002	0.000000e+000
97598500.000	-4.109781e-002	-3.133397e+001	-5.135633e+001	7.076964e+001	-2.000000e+002	0.000000e+000	-2.000000e+002	0.000000e+000
98248490.000	-4.021956e-002	-3.153917e+001	-5.130747e+001	7.056795e+001	-2.000000e+002	0.000000e+000	-2.000000e+002	0.000000e+000
