!Keysight Technologies,E5063A,MY54503115,A.05.08
!Date: Wed Nov 22 14:12:53 2023
!Data & Calibration Information:
!Freq	S11:NONE(--)	S21:NONE(--)	S12:NONE(--)	S22:NONE(--)
# Hz S dB R 50
100000.000	4.761900e-002	-6.045591e-001	-8.749071e+001	1.633651e+002	-2.000000e+002	0.000000e+000	-2.000000e+002	0.000000e+000
749990.000	-4.215001e-003	-5.771572e-001	-8.900742e+001	-1.343433e+002	-2.000000e+002	0.000000e+000	-2.000000e+002	0.000000e+000
1399980.000	-2.552274e-003	-7.477806e-001	-8.892770e+001	-1.336305e+002	-2.000000e+002	0.000000e+000	-2.000000e+002	0.000000e+000
2049970.000	-3.718532e-003	-9.430698e-001	-8.089805e+001	1.244386e+002	-2.000000e+002	0.000000e+000	-2.000000e+002	0.000000e+000
2699960.000	-4.168441e-003	-1.139416e+000	-8.397450e+001	8.889305e+001	-2.000000e+002	0.000000e+000	-2.000000e+002	0.000000e+000
3349950.000	-1.409965e-003	-1.353757e+000	-7.955230e+001	9.807263e+001	-2.000000e+002	0.000000e+000	-2.000000e+002	0.000000e+000
3999940.000	-1.858740e-003	-1.552872e+000	-7.864151e+001	9.204222e+001	-2.000000e+002	0.000000e+000	-2.000000e+002	0.000000e+000
4649930.000	-2.547993e-003	-1.770359e+000	-7.757325e+001	9.758839e+001	-2.000000e+002	0.000000e+000	-2.000000e+002	0.000000e+000
5299920.000	-3.025286e-003	-1.961980e+000	-8.188608e+001	1.057000e+002	-2.000000e+002	0.000000e+000	-2.000000e+002	0.000000e+000
5949910.000	-3.549415e-003	-2.174322e+000	-7.843602e+001	9.682689e+001	-2.000000e+002	0.000000e+000	-2.000000e+002	0.000000e+000
6599900.000	-3.009210e-003	-2.378201e+000	-7.617384e+001	9.290022e+001	-2.000000e+002	0.000000e+000	-2.000000e+002	0.000000e+000
7249890.000	-2.785275e-003	-2.586945e+000	-7.619107e+001	8.325505e+001	-2.000000e+002	0.000000e+000	-2.000000e+002	0.000000e+000
7899880.000	-3.544521e-003	-2.795281e+000	-7.591550e+001	9.795703e+001	-2.000000e+002	0.000000e+000	-2.000000e+002	0.000000e+000
8549870.000	-1.216362e-003	-3.015953e+000	-7.369856e+001	8.796030e+001	-2.000000e+002	0.000000e+000	-2.000000e+002	0.000000e+000
9199860.000	-2.477665e-003	-3.224037e+000	-7.308526e+001	8.943792e+001	-2.000000e+002	0.000000e+000	-2.000000e+002	0.000000e+000
9849850.000	-2.023884e-003	-3.433081e+000	-7.266962e+001	8.769470e+001	-2.000000e+002	0.000000e+000	-2.000000e+002	0.000000e+000
10499840.000	-3.251494e-003	-3.629515e+000	-7.177284e+001	8.750359e+001	-2.000000e+002	0.000000e+000	-2.000000e+002	0.000000e+000
11149830.000	-5.089000e-003	-3.825458e+000	-7.150771e+001	8.963901e+001	-2.000000e+002	0.000000e+000	-2.000000e+002	0.000000e+000
11799820.000	-5.270715e-003	-4.030127e+000	-7.095095e+001	8.714114e+001	-2.000000e+002	0.000000e+000	-2.000000e+002	0.000000e+000
12449810.000	-4.295486e-003	-4.249028e+000	-7.072639e+001	8.734521e+001	-2.000000e+002	0.000000e+000	-2.000000e+002	0.000000e+000
13099800.000	-2.478120e-003	-4.463678e+000	-7.004553e+001	8.701466e+001	-2.000000e+002	0.000000e+000	-2.000000e+002	0.000000e+000
13749790.000	-3.581200e-003	-4.667506e+000	-6.979708e+001	8.708920e+001	-2.000000e+002	0.000000e+000	-2.000000e+002	0.000000e+000
14399780.000	-4.595304e-003	-4.881218e+000	-6.925218e+001	8.770057e+001	-2.000000e+002	0.000000e+000	-2.000000e+002	0.000000e+000
15049770.000	-4.992610e-003	-5.099135e+000	-6.897500e+001	8.782601e+001	-2.000000e+002	0.000000e+000	-2.000000e+002	0.000000e+000
15699760.000	-3.401175e-003	-5.286456e+000	-6.864857e+001	8.731556e+001	-2.000000e+002	0.000000e+000	-2.000000e+002	0.000000e+000
16349750.000	-3.843635e-003	-5.485344e+000	-6.832571e+001	8.732337e+001	-2.000000e+002	0.000000e+000	-2.000000e+002	0.000000e+000
16999740.000	-6.360834e-003	-5.702211e+000	-6.822170e+001	8.531622e+001	-2.000000e+002	0.000000e+000	-2.000000e+002	0.000000e+000
17649730.000	9.476652e-004	-5.929078e+000	-6.748410e+001	8.857159e+001	-2.000000e+002	0.000000e+000	-2.000000e+002	0.000000e+000
18299720.000	3.357721e-003	-6.148203e+000	-6.717160e+001	8.872750e+001	-2.000000e+002	0.000000e+000	-2.000000e+002	0.000000e+000
18949710.000	1.958448e-003	-6.347733e+000	-6.683437e+001	8.847420e+001	-2.000000e+002	0.000000e+000	-2.000000e+002	0.000000e+000
19599700.000	-2.939743e-003	-6.525603e+000	-6.645707e+001	8.808965e+001	-2.000000e+002	0.000000e+000	-2.000000e+002	0.000000e+000
20249690.000	-6.805032e-003	-6.712463e+000	-6.603789e+001	8.769921e+001	-2.000000e+002	0.000000e+000	-2.000000e+002	0.000000e+000
20899680.000	-8.619003e-003	-6.947569e+000	-6.576428e+001	8.772763e+001	-2.000000e+002	0.000000e+000	-2.000000e+002	0.000000e+000
21549670.000	-8.147288e-003	-7.164043e+000	-6.545469e+001	8.699859e+001	-2.000000e+002	0.000000e+000	-2.000000e+002	0.000000e+000
22199660.000	-6.577588e-003	-7.356241e+000	-6.510050e+001	8.536615e+001	-2.000000e+002	0.000000e+000	-2.000000e+002	0.000000e+000
22849650.000	-3.178077e-003	-7.534569e+000	-6.489046e+001	8.636924e+001	-2.000000e+002	0.000000e+000	-2.000000e+002	0.000000e+000
23499640.000	-3.852361e-003	-7.741123e+000	-6.468790e+001	8.577133e+001	-2.000000e+002	0.000000e+000	-2.000000e+002	0.000000e+000
24149630.000	-5.388584e-003	-7.955097e+000	-6.452787e+001	8.479014e+001	-2.000000e+002	0.000000e+000	-2.000000e+002	0.000000e+000
24799620.000	-4.472495e-003	-8.162669e+000	-6.434355e+001	8.384068e+001	-2.000000e+002	0.000000e+000	-2.000000e+002	0.000000e+000
25449610.000	-2.026480e-003	-8.369516e+000	-6.403792e+001	8.371027e+001	-2.000000e+002	0.000000e+000	-2.000000e+002	0.000000e+000
26099600.000	-2.660348e-003	-8.577543e+000	-6.393908e+001	8.317260e+001	-2.000000e+002	0.000000e+000	-2.000000e+002	0.000000e+000
26749590.000	-3.701654e-003	-8.785914e+000	-6.378814e+001	8.433969e+001	-2.000000e+002	0.000000e+000	-2.000000e+002	0.000000e+000
27399580.000	-3.403798e-003	-8.997117e+000	-6.344800e+001	8.359284e+001	-2.000000e+002	0.000000e+000	-2.000000e+002	0.000000e+000
28049570.000	-3.071904e-003	-9.209135e+000	-6.336945e+001	8.287820e+001	-2.000000e+002	0.000000e+000	-2.000000e+002	0.000000e+000
28699560.000	-3.410972e-003	-9.409217e+000	-6.318166e+001	8.392170e+001	-2.000000e+002	0.000000e+000	-2.000000e+002	0.000000e+000
29349550.000	-3.604857e-003	-9.612378e+000	-6.288798e+001	8.225309e+001	-2.000000e+002	0.000000e+000	-2.000000e+002	0.000000e+000
29999540.000	-4.174005e-003	-9.817410e+000	-6.315425e+001	7.965754e+001	-2.000000e+002	0.000000e+000	-2.000000e+002	0.000000e+000
30649530.000	-4.119492e-003	-1.003360e+001	-6.275351e+001	8.267114e+001	-2.000000e+002	0.000000e+000	-2.000000e+002	0.000000e+000
31299520.000	-3.816946e-003	-1.024665e+001	-6.261640e+001	8.325529e+001	-2.000000e+002	0.000000e+000	-2.000000e+002	0.000000e+000
31949510.000	-3.845125e-003	-1.045069e+001	-6.243306e+001	8.250557e+001	-2.000000e+002	0.000000e+000	-2.000000e+002	0.000000e+000
32599500.000	-4.959817e-003	-1.066180e+001	-6.231207e+001	8.278381e+001	-2.000000e+002	0.000000e+000	-2.000000e+002	0.000000e+000
33249490.000	-5.141391e-003	-1.087040e+001	-6.216323e+001	8.227443e+001	-2.000000e+002	0.000000e+000	-2.000000e+002	0.000000e+000
33899480.000	-5.488346e-003	-1.107845e+001	-6.206000e+001	8.312807e+001	-2.000000e+002	0.000000e+000	-2.000000e+002	0.000000e+000
34549470.000	-5.774151e-003	-1.127703e+001	-6.188049e+001	8.258353e+001	-2.000000e+002	0.000000e+000	-2.000000e+002	0.000000e+000
35199460.000	-5.586326e-003	-1.147953e+001	-6.178488e+001	8.307311e+001	-2.000000e+002	0.000000e+000	-2.000000e+002	0.000000e+000
35849450.000	-5.766673e-003	-1.168352e+001	-6.165190e+001	8.220692e+001	-2.000000e+002	0.000000e+000	-2.000000e+002	0.000000e+000
36499440.000	-5.857181e-003	-1.189025e+001	-6.162836e+001	8.314777e+001	-2.000000e+002	0.000000e+000	-2.000000e+002	0.000000e+000
37149430.000	-5.560546e-003	-1.209771e+001	-6.147939e+001	8.432249e+001	-2.000000e+002	0.000000e+000	-2.000000e+002	0.000000e+000
37799420.000	-6.620789e-003	-1.230710e+001	-6.130534e+001	8.461761e+001	-2.000000e+002	0.000000e+000	-2.000000e+002	0.000000e+000
38449410.000	-6.581229e-003	-1.251555e+001	-6.105806e+001	8.546736e+001	-2.000000e+002	0.000000e+000	-2.000000e+002	0.000000e+000
39099400.000	-7.503416e-003	-1.272614e+001	-6.086495e+001	8.625134e+001	-2.000000e+002	0.000000e+000	-2.000000e+002	0.000000e+000
39749390.000	-7.930328e-003	-1.293918e+001	-6.054862e+001	8.627631e+001	-2.000000e+002	0.000000e+000	-2.000000e+002	0.000000e+000
40399380.000	-8.233369e-003	-1.314837e+001	-6.030181e+001	8.659891e+001	-2.000000e+002	0.000000e+000	-2.000000e+002	0.000000e+000
41049370.000	-7.881668e-003	-1.335406e+001	-6.004721e+001	8.580844e+001	-2.000000e+002	0.000000e+000	-2.000000e+002	0.000000e+000
41699360.000	-7.188758e-003	-1.355955e+001	-5.979195e+001	8.535576e+001	-2.000000e+002	0.000000e+000	-2.000000e+002	0.000000e+000
42349350.000	-6.694577e-003	-1.376392e+001	-5.966261e+001	8.434696e+001	-2.000000e+002	0.000000e+000	-2.000000e+002	0.000000e+000
42999340.000	-7.452421e-003	-1.396959e+001	-5.948720e+001	8.418689e+001	-2.000000e+002	0.000000e+000	-2.000000e+002	0.000000e+000
43649330.000	-7.208624e-003	-1.417400e+001	-5.941949e+001	8.365531e+001	-2.000000e+002	0.000000e+000	-2.000000e+002	0.000000e+000
44299320.000	-7.341903e-003	-1.438254e+001	-5.935186e+001	8.358412e+001	-2.000000e+002	0.000000e+000	-2.000000e+002	0.000000e+000
44949310.000	-7.834849e-003	-1.459202e+001	-5.924622e+001	8.385910e+001	-2.000000e+002	0.000000e+000	-2.000000e+002	0.000000e+000
45599300.000	-8.395536e-003	-1.480335e+001	-5.920746e+001	8.349831e+001	-2.000000e+002	0.000000e+000	-2.000000e+002	0.000000e+000
46249290.000	-8.761835e-003	-1.501299e+001	-5.908441e+001	8.422787e+001	-2.000000e+002	0.000000e+000	-2.000000e+002	0.000000e+000
46899280.000	-9.339246e-003	-1.521784e+001	-5.893696e+001	8.486618e+001	-2.000000e+002	0.000000e+000	-2.000000e+002	0.000000e+000
47549270.000	-1.043328e-002	-1.542265e+001	-5.866473e+001	8.504799e+001	-2.000000e+002	0.000000e+000	-2.000000e+002	0.000000e+000
48199260.000	-1.126109e-002	-1.563161e+001	-5.850015e+001	8.491335e+001	-2.000000e+002	0.000000e+000	-2.000000e+002	0.000000e+000
48849250.000	-1.257936e-002	-1.583947e+001	-5.829122e+001	8.454473e+001	-2.000000e+002	0.000000e+000	-2.000000e+002	0.000000e+000
49499240.000	-1.205299e-002	-1.604360e+001	-5.816524e+001	8.383071e+001	-2.000000e+002	0.000000e+000	-2.000000e+002	0.000000e+000
50149230.000	-1.226994e-002	-1.625471e+001	-5.799070e+001	8.356724e+001	-2.000000e+002	0.000000e+000	-2.000000e+002	0.000000e+000
50799220.000	-1.244907e-002	-1.646320e+001	-5.790354e+001	8.315552e+001	-2.000000e+002	0.000000e+000	-2.000000e+002	0.000000e+000
51449210.000	-1.217686e-002	-1.666976e+001	-5.787012e+001	8.327192e+001	-2.000000e+002	0.000000e+000	-2.000000e+002	0.000000e+000
52099200.000	-1.247475e-002	-1.687819e+001	-5.776905e+001	8.288928e+001	-2.000000e+002	0.000000e+000	-2.000000e+002	0.000000e+000
52749190.000	-1.222567e-002	-1.708368e+001	-5.760395e+001	8.284859e+001	-2.000000e+002	0.000000e+000	-2.000000e+002	0.000000e+000
53399180.000	-1.269441e-002	-1.729180e+001	-5.754612e+001	8.262909e+001	-2.000000e+002	0.000000e+000	-2.000000e+002	0.000000e+000
54049170.000	-1.315435e-002	-1.749847e+001	-5.744109e+001	8.251704e+001	-2.000000e+002	0.000000e+000	-2.000000e+002	0.000000e+000
54699160.000	-1.343240e-002	-1.770898e+001	-5.745973e+001	8.250559e+001	-2.000000e+002	0.000000e+000	-2.000000e+002	0.000000e+000
55349150.000	-1.341460e-002	-1.791862e+001	-5.739856e+001	8.275065e+001	-2.000000e+002	0.000000e+000	-2.000000e+002	0.000000e+000
55999140.000	-1.371264e-002	-1.812504e+001	-5.735972e+001	8.369185e+001	-2.000000e+002	0.000000e+000	-2.000000e+002	0.000000e+000
56649130.000	-1.508758e-002	-1.833508e+001	-5.720040e+001	8.509481e+001	-2.000000e+002	0.000000e+000	-2.000000e+002	0.000000e+000
57299120.000	-1.567995e-002	-1.853938e+001	-5.675207e+001	8.427779e+001	-2.000000e+002	0.000000e+000	-2.000000e+002	0.000000e+000
57949110.000	-1.600895e-002	-1.874550e+001	-5.669994e+001	8.298024e+001	-2.000000e+002	0.000000e+000	-2.000000e+002	0.000000e+000
58599100.000	-1.623879e-002	-1.895120e+001	-5.680434e+001	8.363951e+001	-2.000000e+002	0.000000e+000	-2.000000e+002	0.000000e+000
59249090.000	-1.702422e-002	-1.915703e+001	-5.675156e+001	8.511022e+001	-2.000000e+002	0.000000e+000	-2.000000e+002	0.000000e+000
59899080.000	-1.745898e-002	-1.936564e+001	-5.659354e+001	8.648748e+001	-2.000000e+002	0.000000e+000	-2.000000e+002	0.000000e+000
60549070.000	-1.878325e-002	-1.956927e+001	-5.637397e+001	8.723133e+001	-2.000000e+002	0.000000e+000	-2.000000e+002	0.000000e+000
61199060.000	-1.977581e-002	-1.977041e+001	-5.600176e+001	8.794899e+001	-2.000000e+002	0.000000e+000	-2.000000e+002	0.000000e+000
61849050.000	-2.011425e-002	-1.997412e+001	-5.555584e+001	8.840668e+001	-2.000000e+002	0.000000e+000	-2.000000e+002	0.000000e+000
62499040.000	-2.114609e-002	-2.017355e+001	-5.525734e+001	8.743143e+001	-2.000000e+002	0.000000e+000	-2.000000e+002	0.000000e+000
63149030.000	-2.168496e-002	-2.037847e+001	-5.504418e+001	8.652150e+001	-2.000000e+002	0.000000e+000	-2.000000e+002	0.000000e+000
63799020.000	-2.225326e-002	-2.058366e+001	-5.486473e+001	8.556663e+001	-2.000000e+002	0.000000e+000	-2.000000e+002	0.000000e+000
64449010.000	-2.270566e-002	-2.078861e+001	-5.466286e+001	8.537392e+001	-2.000000e+002	0.000000e+000	-2.000000e+002	0.000000e+000
65099000.000	-2.319602e-002	-2.099288e+001	-5.446056e+001	8.510012e+001	-2.000000e+002	0.000000e+000	-2.000000e+002	0.000000e+000
65748990.000	-2.351609e-002	-2.119648e+001	-5.421006e+001	8.387469e+001	-2.000000e+002	0.000000e+000	-2.000000e+002	0.000000e+000
66398980.000	-2.377658e-002	-2.140003e+001	-5.402586e+001	8.281978e+001	-2.000000e+002	0.000000e+000	-2.000000e+002	0.000000e+000
67048970.000	-2.374220e-002	-2.160629e+001	-5.390885e+001	8.180535e+001	-2.000000e+002	0.000000e+000	-2.000000e+002	0.000000e+000
67698960.000	-2.434458e-002	-2.180891e+001	-5.380729e+001	8.058727e+001	-2.000000e+002	0.000000e+000	-2.000000e+002	0.000000e+000
68348950.000	-2.467211e-002	-2.201270e+001	-5.369877e+001	7.974413e+001	-2.000000e+002	0.000000e+000	-2.000000e+002	0.000000e+000
68998940.000	-2.504521e-002	-2.221769e+001	-5.359519e+001	7.894523e+001	-2.000000e+002	0.000000e+000	-2.000000e+002	0.000000e+000
69648930.000	-2.440630e-002	-2.242315e+001	-5.350765e+001	7.804493e+001	-2.000000e+002	0.000000e+000	-2.000000e+002	0.000000e+000
70298920.000	-2.443264e-002	-2.263763e+001	-5.348422e+001	7.739946e+001	-2.000000e+002	0.000000e+000	-2.000000e+002	0.000000e+000
70948910.000	-2.527598e-002	-2.284729e+001	-5.342499e+001	7.644500e+001	-2.000000e+002	0.000000e+000	-2.000000e+002	0.000000e+000
71598900.000	-2.515248e-002	-2.305028e+001	-5.340404e+001	7.598367e+001	-2.000000e+002	0.000000e+000	-2.000000e+002	0.000000e+000
72248890.000	-2.576102e-002	-2.325805e+001	-5.336267e+001	7.557400e+001	-2.000000e+002	0.000000e+000	-2.000000e+002	0.000000e+000
72898880.000	-2.575099e-002	-2.346358e+001	-5.331574e+001	7.520911e+001	-2.000000e+002	0.000000e+000	-2.000000e+002	0.000000e+000
73548870.000	-2.604765e-002	-2.367075e+001	-5.325938e+001	7.482784e+001	-2.000000e+002	0.000000e+000	-2.000000e+002	0.000000e+000
74198860.000	-2.650979e-002	-2.387868e+001	-5.319071e+001	7.456471e+001	-2.000000e+002	0.000000e+000	-2.000000e+002	0.000000e+000
74848850.000	-2.703530e-002	-2.408776e+001	-5.313060e+001	7.427633e+001	-2.000000e+002	0.000000e+000	-2.000000e+002	0.000000e+000
75498840.000	-2.724025e-002	-2.429209e+001	-5.304002e+001	7.398173e+001	-2.000000e+002	0.000000e+000	-2.000000e+002	0.000000e+000
76148830.000	-2.746125e-002	-2.449749e+001	-5.303492e+001	7.385987e+001	-2.000000e+002	0.000000e+000	-2.000000e+002	0.000000e+000
76798820.000	-2.728412e-002	-2.470291e+001	-5.293623e+001	7.331481e+001	-2.000000e+002	0.000000e+000	-2.000000e+002	0.000000e+000
77448810.000	-2.837226e-002	-2.490215e+001	-5.288275e+001	7.329577e+001	-2.000000e+002	0.000000e+000	-2.000000e+002	0.000000e+000
78098800.000	-2.917644e-002	-2.511035e+001	-5.277835e+001	7.288269e+001	-2.000000e+002	0.000000e+000	-2.000000e+002	0.000000e+000
78748790.000	-2.921287e-002	-2.531505e+001	-5.271903e+001	7.236114e+001	-2.000000e+002	0.000000e+000	-2.000000e+002	0.000000e+000
79398780.000	-2.913416e-002	-2.551997e+001	-5.268199e+001	7.191363e+001	-2.000000e+002	0.000000e+000	-2.000000e+002	0.000000e+000
80048770.000	-2.936593e-002	-2.573593e+001	-5.263668e+001	7.151367e+001	-2.000000e+002	0.000000e+000	-2.000000e+002	0.000000e+000
80698760.000	-2.974595e-002	-2.594354e+001	-5.259854e+001	7.125741e+001	-2.000000e+002	0.000000e+000	-2.000000e+002	0.000000e+000
81348750.000	-2.977480e-002	-2.614990e+001	-5.256184e+001	7.104434e+001	-2.000000e+002	0.000000e+000	-2.000000e+002	0.000000e+000
81998740.000	-3.015864e-002	-2.635610e+001	-5.249576e+001	7.070558e+001	-2.000000e+002	0.000000e+000	-2.000000e+002	0.000000e+000
82648730.000	-3.089395e-002	-2.655958e+001	-5.247602e+001	7.058704e+001	-2.000000e+002	0.000000e+000	-2.000000e+002	0.000000e+000
83298720.000	-3.141213e-002	-2.676822e+001	-5.241006e+001	7.037787e+001	-2.000000e+002	0.000000e+000	-2.000000e+002	0.000000e+000
83948710.000	-3.152141e-002	-2.697412e+001	-5.237137e+001	7.016705e+001	-2.000000e+002	0.000000e+000	-2.000000e+002	0.000000e+000
84598700.000	-3.153302e-002	-2.718433e+001	-5.229932e+001	7.006609e+001	-2.000000e+002	0.000000e+000	-2.000000e+002	0.000000e+000
85248690.000	-3.238788e-002	-2.739130e+001	-5.231285e+001	7.017252e+001	-2.000000e+002	0.000000e+000	-2.000000e+002	0.000000e+000
85898680.000	-3.272636e-002	-2.759967e+001	-5.218673e+001	6.962271e+001	-2.000000e+002	0.000000e+000	-2.000000e+002	0.000000e+000
86548670.000	-3.342697e-002	-2.780432e+001	-5.210726e+001	6.964440e+001	-2.000000e+002	0.000000e+000	-2.000000e+002	0.000000e+000
87198660.000	-3.354467e-002	-2.800852e+001	-5.207022e+001	6.907094e+001	-2.000000e+002	0.000000e+000	-2.000000e+002	0.000000e+000
87848650.000	-3.420722e-002	-2.821284e+001	-5.204336e+001	6.877314e+001	-2.000000e+002	0.000000e+000	-2.000000e+002	0.000000e+000
88498640.000	-3.436066e-002	-2.841806e+001	-5.196132e+001	6.852090e+001	-2.000000e+002	0.000000e+000	-2.000000e+002	0.000000e+000
89148630.000	-3.542176e-002	-2.862480e+001	-5.196485e+001	6.839220e+001	-2.000000e+002	0.000000e+000	-2.000000e+002	0.000000e+000
89798620.000	-3.540831e-002	-2.883464e+001	-5.195688e+001	6.810457e+001	-2.000000e+002	0.000000e+000	-2.000000e+002	0.000000e+000
90448610.000	-3.522476e-002	-2.903983e+001	-5.192260e+001	6.813160e+001	-2.000000e+002	0.000000e+000	-2.000000e+002	0.000000e+000
91098600.000	-3.616757e-002	-2.925485e+001	-5.189635e+001	6.802952e+001	-2.000000e+002	0.000000e+000	-2.000000e+002	0.000000e+000
91748590.000	-3.611399e-002	-2.946118e+001	-5.180199e+001	6.835776e+001	-2.000000e+002	0.000000e+000	-2.000000e+002	0.000000e+000
92398580.000	-3.622752e-002	-2.967077e+001	-5.180950e+001	6.841181e+001	-2.000000e+002	0.000000e+000	-2.000000e+002	0.000000e+000
93048570.000	-3.611169e-002	-2.987776e+001	-5.179076e+001	6.887241e+001	-2.000000e+002	0.000000e+000	-2.000000e+002	0.000000e+000
93698560.000	-3.698524e-002	-3.008809e+001	-5.164506e+001	6.838745e+001	-2.000000e+002	0.000000e+000	-2.000000e+002	0.000000e+000
94348550.000	-3.718082e-002	-3.029570e+001	-5.156118e+001	6.856345e+001	-2.000000e+002	0.000000e+000	-2.000000e+002	0.000000e+000
94998540.000	-3.837994e-002	-3.050612e+001	-5.177052e+001	6.871080e+001	-2.000000e+002	0.000000e+000	-2.000000e+002	0.000000e+000
95648530.000	-3.840701e-002	-3.070842e+001	-5.145832e+001	6.815672e+001	-2.000000e+002	0.000000e+000	-2.000000e+002	0.000000e+000
96298520.000	-3.833205e-002	-3.091392e+001	-5.137223e+001	6.794635e+001	-2.000000e+002	0.000000e+000	-2.000000e+002	0.000000e+000
96948510.000	-3.929021e-002	-3.111924e+001	-5.134984e+001	6.781381e+001	-2.000000e+002	0.000000e+000	-2.000000e+002	0.000000e+000
97598500.000	-3.972628e-002	-3.132532e+001	-5.131725e+001	6.766635e+001	-2.000000e+002	0.000000e+000	-2.000000e+002	0.000000e+000
98248490.000	-3.966543e-002	-3.153073e+001	-5.128154e+001	6.776287e+001	-2.000000e+002	0.000000e+000	-2.000000e+002	0.000000e+000
