!Keysight Technologies,E5063A,MY54503115,A.05.08
!Date: Wed Nov 22 14:16:50 2023
!Data & Calibration Information:
!Freq	S11:NONE(--)	S21:NONE(--)	S12:NONE(--)	S22:NONE(--)
# Hz S dB R 50
100000.000	4.717896e-002	-6.155167e-001	-8.334051e+001	4.712035e+001	-2.000000e+002	0.000000e+000	-2.000000e+002	0.000000e+000
749990.000	-2.532067e-003	-5.843371e-001	-8.544270e+001	-9.222492e+001	-2.000000e+002	0.000000e+000	-2.000000e+002	0.000000e+000
1399980.000	-2.842847e-003	-7.501313e-001	-9.425440e+001	-1.399177e+002	-2.000000e+002	0.000000e+000	-2.000000e+002	0.000000e+000
2049970.000	-3.928887e-003	-9.413756e-001	-8.471394e+001	1.456068e+002	-2.000000e+002	0.000000e+000	-2.000000e+002	0.000000e+000
2699960.000	-4.220130e-003	-1.143979e+000	-9.041104e+001	9.825536e+001	-2.000000e+002	0.000000e+000	-2.000000e+002	0.000000e+000
3349950.000	-2.414349e-003	-1.354447e+000	-7.880576e+001	7.439570e+001	-2.000000e+002	0.000000e+000	-2.000000e+002	0.000000e+000
3999940.000	-3.307003e-003	-1.555274e+000	-8.333829e+001	5.498183e+001	-2.000000e+002	0.000000e+000	-2.000000e+002	0.000000e+000
4649930.000	-2.400364e-003	-1.767874e+000	-7.853289e+001	9.766422e+001	-2.000000e+002	0.000000e+000	-2.000000e+002	0.000000e+000
5299920.000	-2.946381e-003	-1.967470e+000	-7.755852e+001	9.700956e+001	-2.000000e+002	0.000000e+000	-2.000000e+002	0.000000e+000
5949910.000	-3.381941e-003	-2.181045e+000	-7.473775e+001	9.310765e+001	-2.000000e+002	0.000000e+000	-2.000000e+002	0.000000e+000
6599900.000	-4.082335e-003	-2.385001e+000	-7.476929e+001	9.653414e+001	-2.000000e+002	0.000000e+000	-2.000000e+002	0.000000e+000
7249890.000	-3.646628e-003	-2.591775e+000	-7.490349e+001	8.410449e+001	-2.000000e+002	0.000000e+000	-2.000000e+002	0.000000e+000
7899880.000	-3.231101e-003	-2.798673e+000	-7.371263e+001	8.854789e+001	-2.000000e+002	0.000000e+000	-2.000000e+002	0.000000e+000
8549870.000	-1.561275e-003	-3.018036e+000	-7.350583e+001	8.729281e+001	-2.000000e+002	0.000000e+000	-2.000000e+002	0.000000e+000
9199860.000	-2.395587e-003	-3.227212e+000	-7.256421e+001	8.506636e+001	-2.000000e+002	0.000000e+000	-2.000000e+002	0.000000e+000
9849850.000	-2.336168e-003	-3.433063e+000	-7.204600e+001	8.699940e+001	-2.000000e+002	0.000000e+000	-2.000000e+002	0.000000e+000
10499840.000	-3.136574e-003	-3.631004e+000	-7.191790e+001	8.687937e+001	-2.000000e+002	0.000000e+000	-2.000000e+002	0.000000e+000
11149830.000	-5.393524e-003	-3.830081e+000	-7.111155e+001	8.604664e+001	-2.000000e+002	0.000000e+000	-2.000000e+002	0.000000e+000
11799820.000	-5.733755e-003	-4.034952e+000	-7.083046e+001	8.671596e+001	-2.000000e+002	0.000000e+000	-2.000000e+002	0.000000e+000
12449810.000	-4.241417e-003	-4.248612e+000	-7.008856e+001	8.700793e+001	-2.000000e+002	0.000000e+000	-2.000000e+002	0.000000e+000
13099800.000	-3.014124e-003	-4.465484e+000	-6.978034e+001	8.723249e+001	-2.000000e+002	0.000000e+000	-2.000000e+002	0.000000e+000
13749790.000	-3.744004e-003	-4.669687e+000	-6.958177e+001	8.691611e+001	-2.000000e+002	0.000000e+000	-2.000000e+002	0.000000e+000
14399780.000	-4.912203e-003	-4.882128e+000	-6.901666e+001	8.650517e+001	-2.000000e+002	0.000000e+000	-2.000000e+002	0.000000e+000
15049770.000	-5.468475e-003	-5.101023e+000	-6.862660e+001	8.651987e+001	-2.000000e+002	0.000000e+000	-2.000000e+002	0.000000e+000
15699760.000	-3.821888e-003	-5.285775e+000	-6.847102e+001	8.521787e+001	-2.000000e+002	0.000000e+000	-2.000000e+002	0.000000e+000
16349750.000	-4.204003e-003	-5.486504e+000	-6.781396e+001	8.592704e+001	-2.000000e+002	0.000000e+000	-2.000000e+002	0.000000e+000
16999740.000	-6.389406e-003	-5.703447e+000	-6.762613e+001	8.416985e+001	-2.000000e+002	0.000000e+000	-2.000000e+002	0.000000e+000
17649730.000	5.206296e-004	-5.934856e+000	-6.738562e+001	8.454801e+001	-2.000000e+002	0.000000e+000	-2.000000e+002	0.000000e+000
18299720.000	3.307811e-003	-6.152998e+000	-6.709981e+001	8.425723e+001	-2.000000e+002	0.000000e+000	-2.000000e+002	0.000000e+000
18949710.000	1.788768e-003	-6.351035e+000	-6.673902e+001	8.447049e+001	-2.000000e+002	0.000000e+000	-2.000000e+002	0.000000e+000
19599700.000	-3.409483e-003	-6.526616e+000	-6.652133e+001	8.527097e+001	-2.000000e+002	0.000000e+000	-2.000000e+002	0.000000e+000
20249690.000	-7.050381e-003	-6.715963e+000	-6.643234e+001	8.364175e+001	-2.000000e+002	0.000000e+000	-2.000000e+002	0.000000e+000
20899680.000	-8.187931e-003	-6.951818e+000	-6.614362e+001	8.549512e+001	-2.000000e+002	0.000000e+000	-2.000000e+002	0.000000e+000
21549670.000	-8.374774e-003	-7.167793e+000	-6.606568e+001	8.610182e+001	-2.000000e+002	0.000000e+000	-2.000000e+002	0.000000e+000
22199660.000	-7.236017e-003	-7.359061e+000	-6.582249e+001	8.661066e+001	-2.000000e+002	0.000000e+000	-2.000000e+002	0.000000e+000
22849650.000	-3.500275e-003	-7.538694e+000	-6.528071e+001	8.740519e+001	-2.000000e+002	0.000000e+000	-2.000000e+002	0.000000e+000
23499640.000	-4.225998e-003	-7.745346e+000	-6.496549e+001	8.787543e+001	-2.000000e+002	0.000000e+000	-2.000000e+002	0.000000e+000
24149630.000	-5.767662e-003	-7.955114e+000	-6.453886e+001	8.748683e+001	-2.000000e+002	0.000000e+000	-2.000000e+002	0.000000e+000
24799620.000	-5.310614e-003	-8.163841e+000	-6.423198e+001	8.784797e+001	-2.000000e+002	0.000000e+000	-2.000000e+002	0.000000e+000
25449610.000	-2.336283e-003	-8.372239e+000	-6.396442e+001	8.628457e+001	-2.000000e+002	0.000000e+000	-2.000000e+002	0.000000e+000
26099600.000	-2.830713e-003	-8.576689e+000	-6.373731e+001	8.525388e+001	-2.000000e+002	0.000000e+000	-2.000000e+002	0.000000e+000
26749590.000	-3.934174e-003	-8.785226e+000	-6.372034e+001	8.506043e+001	-2.000000e+002	0.000000e+000	-2.000000e+002	0.000000e+000
27399580.000	-3.832764e-003	-8.999810e+000	-6.338365e+001	8.469576e+001	-2.000000e+002	0.000000e+000	-2.000000e+002	0.000000e+000
28049570.000	-3.190293e-003	-9.211661e+000	-6.321690e+001	8.413926e+001	-2.000000e+002	0.000000e+000	-2.000000e+002	0.000000e+000
28699560.000	-3.772791e-003	-9.409868e+000	-6.306881e+001	8.491241e+001	-2.000000e+002	0.000000e+000	-2.000000e+002	0.000000e+000
29349550.000	-4.163813e-003	-9.612585e+000	-6.288872e+001	8.380250e+001	-2.000000e+002	0.000000e+000	-2.000000e+002	0.000000e+000
29999540.000	-4.483210e-003	-9.817027e+000	-6.297303e+001	8.401852e+001	-2.000000e+002	0.000000e+000	-2.000000e+002	0.000000e+000
30649530.000	-4.519619e-003	-1.003181e+001	-6.253971e+001	8.458753e+001	-2.000000e+002	0.000000e+000	-2.000000e+002	0.000000e+000
31299520.000	-4.194295e-003	-1.025099e+001	-6.237860e+001	8.382916e+001	-2.000000e+002	0.000000e+000	-2.000000e+002	0.000000e+000
31949510.000	-4.192890e-003	-1.045275e+001	-6.215209e+001	8.378329e+001	-2.000000e+002	0.000000e+000	-2.000000e+002	0.000000e+000
32599500.000	-5.201134e-003	-1.066126e+001	-6.199571e+001	8.434780e+001	-2.000000e+002	0.000000e+000	-2.000000e+002	0.000000e+000
33249490.000	-5.260820e-003	-1.086808e+001	-6.190360e+001	8.440884e+001	-2.000000e+002	0.000000e+000	-2.000000e+002	0.000000e+000
33899480.000	-5.345114e-003	-1.107919e+001	-6.160198e+001	8.463900e+001	-2.000000e+002	0.000000e+000	-2.000000e+002	0.000000e+000
34549470.000	-5.696647e-003	-1.127708e+001	-6.150258e+001	8.426472e+001	-2.000000e+002	0.000000e+000	-2.000000e+002	0.000000e+000
35199460.000	-5.886449e-003	-1.147833e+001	-6.125961e+001	8.366208e+001	-2.000000e+002	0.000000e+000	-2.000000e+002	0.000000e+000
35849450.000	-5.875514e-003	-1.168161e+001	-6.109119e+001	8.407072e+001	-2.000000e+002	0.000000e+000	-2.000000e+002	0.000000e+000
36499440.000	-6.030347e-003	-1.188895e+001	-6.097141e+001	8.441682e+001	-2.000000e+002	0.000000e+000	-2.000000e+002	0.000000e+000
37149430.000	-6.373109e-003	-1.209946e+001	-6.066264e+001	8.459629e+001	-2.000000e+002	0.000000e+000	-2.000000e+002	0.000000e+000
37799420.000	-6.488354e-003	-1.230488e+001	-6.050271e+001	8.397843e+001	-2.000000e+002	0.000000e+000	-2.000000e+002	0.000000e+000
38449410.000	-6.987740e-003	-1.251456e+001	-6.028494e+001	8.334493e+001	-2.000000e+002	0.000000e+000	-2.000000e+002	0.000000e+000
39099400.000	-6.757383e-003	-1.272436e+001	-6.017837e+001	8.285703e+001	-2.000000e+002	0.000000e+000	-2.000000e+002	0.000000e+000
39749390.000	-7.634723e-003	-1.293845e+001	-6.007565e+001	8.250366e+001	-2.000000e+002	0.000000e+000	-2.000000e+002	0.000000e+000
40399380.000	-7.816129e-003	-1.314868e+001	-5.999216e+001	8.183850e+001	-2.000000e+002	0.000000e+000	-2.000000e+002	0.000000e+000
41049370.000	-7.683344e-003	-1.335632e+001	-5.984755e+001	8.193489e+001	-2.000000e+002	0.000000e+000	-2.000000e+002	0.000000e+000
41699360.000	-6.944253e-003	-1.356048e+001	-5.983515e+001	8.198342e+001	-2.000000e+002	0.000000e+000	-2.000000e+002	0.000000e+000
42349350.000	-6.244169e-003	-1.376347e+001	-5.972149e+001	8.185717e+001	-2.000000e+002	0.000000e+000	-2.000000e+002	0.000000e+000
42999340.000	-7.485440e-003	-1.396968e+001	-5.960411e+001	8.138416e+001	-2.000000e+002	0.000000e+000	-2.000000e+002	0.000000e+000
43649330.000	-7.121091e-003	-1.417413e+001	-5.948126e+001	8.146175e+001	-2.000000e+002	0.000000e+000	-2.000000e+002	0.000000e+000
44299320.000	-7.380891e-003	-1.438596e+001	-5.942280e+001	8.178808e+001	-2.000000e+002	0.000000e+000	-2.000000e+002	0.000000e+000
44949310.000	-7.748084e-003	-1.459634e+001	-5.932012e+001	8.176165e+001	-2.000000e+002	0.000000e+000	-2.000000e+002	0.000000e+000
45599300.000	-8.342440e-003	-1.480617e+001	-5.925225e+001	8.288481e+001	-2.000000e+002	0.000000e+000	-2.000000e+002	0.000000e+000
46249290.000	-8.518620e-003	-1.501419e+001	-5.914049e+001	8.386059e+001	-2.000000e+002	0.000000e+000	-2.000000e+002	0.000000e+000
46899280.000	-9.454636e-003	-1.521888e+001	-5.895149e+001	8.436828e+001	-2.000000e+002	0.000000e+000	-2.000000e+002	0.000000e+000
47549270.000	-1.072491e-002	-1.542470e+001	-5.872348e+001	8.527421e+001	-2.000000e+002	0.000000e+000	-2.000000e+002	0.000000e+000
48199260.000	-1.135873e-002	-1.563297e+001	-5.841878e+001	8.552668e+001	-2.000000e+002	0.000000e+000	-2.000000e+002	0.000000e+000
48849250.000	-1.243673e-002	-1.584144e+001	-5.816948e+001	8.516126e+001	-2.000000e+002	0.000000e+000	-2.000000e+002	0.000000e+000
49499240.000	-1.265068e-002	-1.604520e+001	-5.795362e+001	8.433392e+001	-2.000000e+002	0.000000e+000	-2.000000e+002	0.000000e+000
50149230.000	-1.229092e-002	-1.625450e+001	-5.780596e+001	8.346748e+001	-2.000000e+002	0.000000e+000	-2.000000e+002	0.000000e+000
50799220.000	-1.272937e-002	-1.646320e+001	-5.766009e+001	8.316001e+001	-2.000000e+002	0.000000e+000	-2.000000e+002	0.000000e+000
51449210.000	-1.207439e-002	-1.667158e+001	-5.751332e+001	8.264401e+001	-2.000000e+002	0.000000e+000	-2.000000e+002	0.000000e+000
52099200.000	-1.255660e-002	-1.687709e+001	-5.743082e+001	8.219485e+001	-2.000000e+002	0.000000e+000	-2.000000e+002	0.000000e+000
52749190.000	-1.246575e-002	-1.708454e+001	-5.731583e+001	8.188528e+001	-2.000000e+002	0.000000e+000	-2.000000e+002	0.000000e+000
53399180.000	-1.273345e-002	-1.729015e+001	-5.724914e+001	8.154667e+001	-2.000000e+002	0.000000e+000	-2.000000e+002	0.000000e+000
54049170.000	-1.295385e-002	-1.749899e+001	-5.715213e+001	8.123935e+001	-2.000000e+002	0.000000e+000	-2.000000e+002	0.000000e+000
54699160.000	-1.284968e-002	-1.770923e+001	-5.713055e+001	8.136958e+001	-2.000000e+002	0.000000e+000	-2.000000e+002	0.000000e+000
55349150.000	-1.355085e-002	-1.791917e+001	-5.708016e+001	8.166927e+001	-2.000000e+002	0.000000e+000	-2.000000e+002	0.000000e+000
55999140.000	-1.409688e-002	-1.812647e+001	-5.697998e+001	8.214053e+001	-2.000000e+002	0.000000e+000	-2.000000e+002	0.000000e+000
56649130.000	-1.474034e-002	-1.833298e+001	-5.678743e+001	8.238836e+001	-2.000000e+002	0.000000e+000	-2.000000e+002	0.000000e+000
57299120.000	-1.534036e-002	-1.853938e+001	-5.662768e+001	8.154649e+001	-2.000000e+002	0.000000e+000	-2.000000e+002	0.000000e+000
57949110.000	-1.582427e-002	-1.874693e+001	-5.668032e+001	8.113613e+001	-2.000000e+002	0.000000e+000	-2.000000e+002	0.000000e+000
58599100.000	-1.602719e-002	-1.895211e+001	-5.663083e+001	8.191055e+001	-2.000000e+002	0.000000e+000	-2.000000e+002	0.000000e+000
59249090.000	-1.662085e-002	-1.915858e+001	-5.648457e+001	8.258571e+001	-2.000000e+002	0.000000e+000	-2.000000e+002	0.000000e+000
59899080.000	-1.705073e-002	-1.936280e+001	-5.637366e+001	8.301171e+001	-2.000000e+002	0.000000e+000	-2.000000e+002	0.000000e+000
60549070.000	-1.826006e-002	-1.956697e+001	-5.621660e+001	8.345746e+001	-2.000000e+002	0.000000e+000	-2.000000e+002	0.000000e+000
61199060.000	-1.930167e-002	-1.977324e+001	-5.594431e+001	8.408535e+001	-2.000000e+002	0.000000e+000	-2.000000e+002	0.000000e+000
61849050.000	-1.949743e-002	-1.997595e+001	-5.574841e+001	8.404165e+001	-2.000000e+002	0.000000e+000	-2.000000e+002	0.000000e+000
62499040.000	-2.032595e-002	-2.018011e+001	-5.556404e+001	8.410354e+001	-2.000000e+002	0.000000e+000	-2.000000e+002	0.000000e+000
63149030.000	-2.077548e-002	-2.038324e+001	-5.538312e+001	8.367095e+001	-2.000000e+002	0.000000e+000	-2.000000e+002	0.000000e+000
63799020.000	-2.159071e-002	-2.058664e+001	-5.527873e+001	8.348870e+001	-2.000000e+002	0.000000e+000	-2.000000e+002	0.000000e+000
64449010.000	-2.250246e-002	-2.079458e+001	-5.508718e+001	8.366318e+001	-2.000000e+002	0.000000e+000	-2.000000e+002	0.000000e+000
65099000.000	-2.312308e-002	-2.099616e+001	-5.484552e+001	8.418238e+001	-2.000000e+002	0.000000e+000	-2.000000e+002	0.000000e+000
65748990.000	-2.307000e-002	-2.120072e+001	-5.459085e+001	8.346818e+001	-2.000000e+002	0.000000e+000	-2.000000e+002	0.000000e+000
66398980.000	-2.358917e-002	-2.140632e+001	-5.435114e+001	8.333972e+001	-2.000000e+002	0.000000e+000	-2.000000e+002	0.000000e+000
67048970.000	-2.399879e-002	-2.161053e+001	-5.417525e+001	8.273661e+001	-2.000000e+002	0.000000e+000	-2.000000e+002	0.000000e+000
67698960.000	-2.435720e-002	-2.181229e+001	-5.395179e+001	8.209728e+001	-2.000000e+002	0.000000e+000	-2.000000e+002	0.000000e+000
68348950.000	-2.481204e-002	-2.201559e+001	-5.378512e+001	8.123569e+001	-2.000000e+002	0.000000e+000	-2.000000e+002	0.000000e+000
68998940.000	-2.573313e-002	-2.222237e+001	-5.363657e+001	7.994525e+001	-2.000000e+002	0.000000e+000	-2.000000e+002	0.000000e+000
69648930.000	-2.517486e-002	-2.242483e+001	-5.353421e+001	7.913467e+001	-2.000000e+002	0.000000e+000	-2.000000e+002	0.000000e+000
70298920.000	-2.483138e-002	-2.263837e+001	-5.343205e+001	7.806389e+001	-2.000000e+002	0.000000e+000	-2.000000e+002	0.000000e+000
70948910.000	-2.561058e-002	-2.284856e+001	-5.332185e+001	7.749924e+001	-2.000000e+002	0.000000e+000	-2.000000e+002	0.000000e+000
71598900.000	-2.544481e-002	-2.305201e+001	-5.328340e+001	7.667256e+001	-2.000000e+002	0.000000e+000	-2.000000e+002	0.000000e+000
72248890.000	-2.561708e-002	-2.325957e+001	-5.322337e+001	7.606215e+001	-2.000000e+002	0.000000e+000	-2.000000e+002	0.000000e+000
72898880.000	-2.618422e-002	-2.346548e+001	-5.312498e+001	7.554025e+001	-2.000000e+002	0.000000e+000	-2.000000e+002	0.000000e+000
73548870.000	-2.641526e-002	-2.367072e+001	-5.306741e+001	7.505684e+001	-2.000000e+002	0.000000e+000	-2.000000e+002	0.000000e+000
74198860.000	-2.658519e-002	-2.387895e+001	-5.302124e+001	7.451015e+001	-2.000000e+002	0.000000e+000	-2.000000e+002	0.000000e+000
74848850.000	-2.737820e-002	-2.408461e+001	-5.295924e+001	7.400193e+001	-2.000000e+002	0.000000e+000	-2.000000e+002	0.000000e+000
75498840.000	-2.703932e-002	-2.429169e+001	-5.291868e+001	7.350529e+001	-2.000000e+002	0.000000e+000	-2.000000e+002	0.000000e+000
76148830.000	-2.747800e-002	-2.449900e+001	-5.284335e+001	7.286957e+001	-2.000000e+002	0.000000e+000	-2.000000e+002	0.000000e+000
76798820.000	-2.729138e-002	-2.470298e+001	-5.278113e+001	7.259961e+001	-2.000000e+002	0.000000e+000	-2.000000e+002	0.000000e+000
77448810.000	-2.845369e-002	-2.490020e+001	-5.273392e+001	7.230691e+001	-2.000000e+002	0.000000e+000	-2.000000e+002	0.000000e+000
78098800.000	-2.917033e-002	-2.510869e+001	-5.264686e+001	7.176340e+001	-2.000000e+002	0.000000e+000	-2.000000e+002	0.000000e+000
78748790.000	-2.912501e-002	-2.531262e+001	-5.263016e+001	7.109361e+001	-2.000000e+002	0.000000e+000	-2.000000e+002	0.000000e+000
79398780.000	-2.864070e-002	-2.551920e+001	-5.260463e+001	7.072689e+001	-2.000000e+002	0.000000e+000	-2.000000e+002	0.000000e+000
80048770.000	-2.942646e-002	-2.573334e+001	-5.256691e+001	7.024788e+001	-2.000000e+002	0.000000e+000	-2.000000e+002	0.000000e+000
80698760.000	-2.956054e-002	-2.594375e+001	-5.252105e+001	7.016490e+001	-2.000000e+002	0.000000e+000	-2.000000e+002	0.000000e+000
81348750.000	-2.967797e-002	-2.614980e+001	-5.251836e+001	6.961196e+001	-2.000000e+002	0.000000e+000	-2.000000e+002	0.000000e+000
81998740.000	-3.013378e-002	-2.635769e+001	-5.252622e+001	6.945132e+001	-2.000000e+002	0.000000e+000	-2.000000e+002	0.000000e+000
82648730.000	-3.057602e-002	-2.655956e+001	-5.247534e+001	6.941547e+001	-2.000000e+002	0.000000e+000	-2.000000e+002	0.000000e+000
83298720.000	-3.118765e-002	-2.676893e+001	-5.244970e+001	6.959084e+001	-2.000000e+002	0.000000e+000	-2.000000e+002	0.000000e+000
83948710.000	-3.154998e-002	-2.697577e+001	-5.239618e+001	6.934391e+001	-2.000000e+002	0.000000e+000	-2.000000e+002	0.000000e+000
84598700.000	-3.148069e-002	-2.718634e+001	-5.233243e+001	6.953932e+001	-2.000000e+002	0.000000e+000	-2.000000e+002	0.000000e+000
85248690.000	-3.204115e-002	-2.739303e+001	-5.227192e+001	6.920423e+001	-2.000000e+002	0.000000e+000	-2.000000e+002	0.000000e+000
85898680.000	-3.270430e-002	-2.760125e+001	-5.222242e+001	6.944022e+001	-2.000000e+002	0.000000e+000	-2.000000e+002	0.000000e+000
86548670.000	-3.316064e-002	-2.780563e+001	-5.217370e+001	6.922634e+001	-2.000000e+002	0.000000e+000	-2.000000e+002	0.000000e+000
87198660.000	-3.316767e-002	-2.801031e+001	-5.207487e+001	6.892372e+001	-2.000000e+002	0.000000e+000	-2.000000e+002	0.000000e+000
87848650.000	-3.450994e-002	-2.821437e+001	-5.200419e+001	6.909010e+001	-2.000000e+002	0.000000e+000	-2.000000e+002	0.000000e+000
88498640.000	-3.439256e-002	-2.841762e+001	-5.193945e+001	6.858007e+001	-2.000000e+002	0.000000e+000	-2.000000e+002	0.000000e+000
89148630.000	-3.562543e-002	-2.862539e+001	-5.188681e+001	6.842966e+001	-2.000000e+002	0.000000e+000	-2.000000e+002	0.000000e+000
89798620.000	-3.561721e-002	-2.883307e+001	-5.185073e+001	6.795096e+001	-2.000000e+002	0.000000e+000	-2.000000e+002	0.000000e+000
90448610.000	-3.542146e-002	-2.904216e+001	-5.182963e+001	6.806114e+001	-2.000000e+002	0.000000e+000	-2.000000e+002	0.000000e+000
91098600.000	-3.648794e-002	-2.925518e+001	-5.179099e+001	6.792194e+001	-2.000000e+002	0.000000e+000	-2.000000e+002	0.000000e+000
91748590.000	-3.603029e-002	-2.946092e+001	-5.174368e+001	6.792401e+001	-2.000000e+002	0.000000e+000	-2.000000e+002	0.000000e+000
92398580.000	-3.644615e-002	-2.966962e+001	-5.170954e+001	6.812636e+001	-2.000000e+002	0.000000e+000	-2.000000e+002	0.000000e+000
93048570.000	-3.623208e-002	-2.987592e+001	-5.150432e+001	6.858743e+001	-2.000000e+002	0.000000e+000	-2.000000e+002	0.000000e+000
93698560.000	-3.709165e-002	-3.008669e+001	-5.154021e+001	6.823188e+001	-2.000000e+002	0.000000e+000	-2.000000e+002	0.000000e+000
94348550.000	-3.702948e-002	-3.029320e+001	-5.147928e+001	6.801309e+001	-2.000000e+002	0.000000e+000	-2.000000e+002	0.000000e+000
94998540.000	-3.761644e-002	-3.050678e+001	-5.147471e+001	6.759017e+001	-2.000000e+002	0.000000e+000	-2.000000e+002	0.000000e+000
95648530.000	-3.822965e-002	-3.070524e+001	-5.134151e+001	6.796818e+001	-2.000000e+002	0.000000e+000	-2.000000e+002	0.000000e+000
96298520.000	-3.861594e-002	-3.091324e+001	-5.127272e+001	6.731475e+001	-2.000000e+002	0.000000e+000	-2.000000e+002	0.000000e+000
96948510.000	-3.952312e-002	-3.111827e+001	-5.124170e+001	6.732881e+001	-2.000000e+002	0.000000e+000	-2.000000e+002	0.000000e+000
97598500.000	-3.987271e-002	-3.132375e+001	-5.114028e+001	6.738972e+001	-2.000000e+002	0.000000e+000	-2.000000e+002	0.000000e+000
98248490.000	-3.933802e-002	-3.152937e+001	-5.113632e+001	6.730806e+001	-2.000000e+002	0.000000e+000	-2.000000e+002	0.000000e+000
