!Keysight Technologies,E5063A,MY54503115,A.05.08
!Date: Wed Nov 22 14:27:38 2023
!Data & Calibration Information:
!Freq	S11:NONE(--)	S21:NONE(--)	S12:NONE(--)	S22:NONE(--)
# Hz S dB R 50
100000.000	4.882917e-002	-6.189768e-001	-8.716207e+001	-1.214543e-001	-2.000000e+002	0.000000e+000	-2.000000e+002	0.000000e+000
749990.000	-2.616887e-003	-5.801349e-001	-8.837543e+001	1.653754e+002	-2.000000e+002	0.000000e+000	-2.000000e+002	0.000000e+000
1399980.000	-2.285784e-003	-7.555532e-001	-9.013773e+001	-1.715723e+002	-2.000000e+002	0.000000e+000	-2.000000e+002	0.000000e+000
2049970.000	-2.769582e-003	-9.475478e-001	-7.929227e+001	1.406266e+002	-2.000000e+002	0.000000e+000	-2.000000e+002	0.000000e+000
2699960.000	-3.054176e-003	-1.148115e+000	-8.073565e+001	1.320075e+002	-2.000000e+002	0.000000e+000	-2.000000e+002	0.000000e+000
3349950.000	-1.641491e-003	-1.357546e+000	-8.306301e+001	7.992496e+001	-2.000000e+002	0.000000e+000	-2.000000e+002	0.000000e+000
3999940.000	-2.085998e-003	-1.556769e+000	-8.333620e+001	9.122548e+001	-2.000000e+002	0.000000e+000	-2.000000e+002	0.000000e+000
4649930.000	-1.350189e-003	-1.771421e+000	-7.961881e+001	8.596618e+001	-2.000000e+002	0.000000e+000	-2.000000e+002	0.000000e+000
5299920.000	-2.488706e-003	-1.970453e+000	-7.773918e+001	9.579774e+001	-2.000000e+002	0.000000e+000	-2.000000e+002	0.000000e+000
5949910.000	-2.561994e-003	-2.182686e+000	-7.684612e+001	9.278994e+001	-2.000000e+002	0.000000e+000	-2.000000e+002	0.000000e+000
6599900.000	-2.421667e-003	-2.384841e+000	-7.493385e+001	8.598560e+001	-2.000000e+002	0.000000e+000	-2.000000e+002	0.000000e+000
7249890.000	-2.359286e-003	-2.594332e+000	-7.498757e+001	9.014518e+001	-2.000000e+002	0.000000e+000	-2.000000e+002	0.000000e+000
7899880.000	-3.933991e-003	-2.804733e+000	-7.520952e+001	8.673266e+001	-2.000000e+002	0.000000e+000	-2.000000e+002	0.000000e+000
8549870.000	-4.879620e-004	-3.022843e+000	-7.338460e+001	8.685234e+001	-2.000000e+002	0.000000e+000	-2.000000e+002	0.000000e+000
9199860.000	-1.528552e-003	-3.229641e+000	-7.273077e+001	8.921815e+001	-2.000000e+002	0.000000e+000	-2.000000e+002	0.000000e+000
9849850.000	-1.590886e-003	-3.435702e+000	-7.214430e+001	8.694383e+001	-2.000000e+002	0.000000e+000	-2.000000e+002	0.000000e+000
10499840.000	-2.568248e-003	-3.634964e+000	-7.172848e+001	8.668999e+001	-2.000000e+002	0.000000e+000	-2.000000e+002	0.000000e+000
11149830.000	-4.577474e-003	-3.830595e+000	-7.108131e+001	8.772255e+001	-2.000000e+002	0.000000e+000	-2.000000e+002	0.000000e+000
11799820.000	-4.851782e-003	-4.037183e+000	-7.044255e+001	8.628932e+001	-2.000000e+002	0.000000e+000	-2.000000e+002	0.000000e+000
12449810.000	-3.281200e-003	-4.251379e+000	-7.020122e+001	8.825446e+001	-2.000000e+002	0.000000e+000	-2.000000e+002	0.000000e+000
13099800.000	-1.985013e-003	-4.470036e+000	-6.980473e+001	8.617396e+001	-2.000000e+002	0.000000e+000	-2.000000e+002	0.000000e+000
13749790.000	-3.134026e-003	-4.672336e+000	-6.934214e+001	8.625222e+001	-2.000000e+002	0.000000e+000	-2.000000e+002	0.000000e+000
14399780.000	-4.364094e-003	-4.884806e+000	-6.888657e+001	8.599989e+001	-2.000000e+002	0.000000e+000	-2.000000e+002	0.000000e+000
15049770.000	-4.981112e-003	-5.102626e+000	-6.854064e+001	8.609980e+001	-2.000000e+002	0.000000e+000	-2.000000e+002	0.000000e+000
15699760.000	-3.269933e-003	-5.290288e+000	-6.824549e+001	8.599930e+001	-2.000000e+002	0.000000e+000	-2.000000e+002	0.000000e+000
16349750.000	-3.456601e-003	-5.490386e+000	-6.786911e+001	8.543292e+001	-2.000000e+002	0.000000e+000	-2.000000e+002	0.000000e+000
16999740.000	-5.881578e-003	-5.708400e+000	-6.740336e+001	8.497905e+001	-2.000000e+002	0.000000e+000	-2.000000e+002	0.000000e+000
17649730.000	1.120003e-003	-5.938071e+000	-6.714859e+001	8.531477e+001	-2.000000e+002	0.000000e+000	-2.000000e+002	0.000000e+000
18299720.000	3.801505e-003	-6.155119e+000	-6.706535e+001	8.460891e+001	-2.000000e+002	0.000000e+000	-2.000000e+002	0.000000e+000
18949710.000	2.356087e-003	-6.355323e+000	-6.660045e+001	8.410650e+001	-2.000000e+002	0.000000e+000	-2.000000e+002	0.000000e+000
19599700.000	-2.977630e-003	-6.529686e+000	-6.641527e+001	8.566702e+001	-2.000000e+002	0.000000e+000	-2.000000e+002	0.000000e+000
20249690.000	-6.696861e-003	-6.719078e+000	-6.636035e+001	8.546754e+001	-2.000000e+002	0.000000e+000	-2.000000e+002	0.000000e+000
20899680.000	-8.079981e-003	-6.955357e+000	-6.595940e+001	8.454774e+001	-2.000000e+002	0.000000e+000	-2.000000e+002	0.000000e+000
21549670.000	-7.782222e-003	-7.170191e+000	-6.585726e+001	8.444574e+001	-2.000000e+002	0.000000e+000	-2.000000e+002	0.000000e+000
22199660.000	-6.115542e-003	-7.361240e+000	-6.572526e+001	8.555773e+001	-2.000000e+002	0.000000e+000	-2.000000e+002	0.000000e+000
22849650.000	-3.011469e-003	-7.543268e+000	-6.553545e+001	8.606175e+001	-2.000000e+002	0.000000e+000	-2.000000e+002	0.000000e+000
23499640.000	-3.698392e-003	-7.747903e+000	-6.542156e+001	8.685780e+001	-2.000000e+002	0.000000e+000	-2.000000e+002	0.000000e+000
24149630.000	-5.241921e-003	-7.960771e+000	-6.501404e+001	8.968793e+001	-2.000000e+002	0.000000e+000	-2.000000e+002	0.000000e+000
24799620.000	-4.835519e-003	-8.167587e+000	-6.427238e+001	9.149091e+001	-2.000000e+002	0.000000e+000	-2.000000e+002	0.000000e+000
25449610.000	-2.144676e-003	-8.374115e+000	-6.360788e+001	8.926735e+001	-2.000000e+002	0.000000e+000	-2.000000e+002	0.000000e+000
26099600.000	-2.431375e-003	-8.577286e+000	-6.330660e+001	8.783077e+001	-2.000000e+002	0.000000e+000	-2.000000e+002	0.000000e+000
26749590.000	-3.310587e-003	-8.787445e+000	-6.310350e+001	8.701109e+001	-2.000000e+002	0.000000e+000	-2.000000e+002	0.000000e+000
27399580.000	-3.481119e-003	-8.995789e+000	-6.290283e+001	8.442350e+001	-2.000000e+002	0.000000e+000	-2.000000e+002	0.000000e+000
28049570.000	-2.402105e-003	-9.211700e+000	-6.276506e+001	8.437401e+001	-2.000000e+002	0.000000e+000	-2.000000e+002	0.000000e+000
28699560.000	-2.849436e-003	-9.413142e+000	-6.271244e+001	8.325269e+001	-2.000000e+002	0.000000e+000	-2.000000e+002	0.000000e+000
29349550.000	-3.037112e-003	-9.614302e+000	-6.258955e+001	8.292045e+001	-2.000000e+002	0.000000e+000	-2.000000e+002	0.000000e+000
29999540.000	-3.170475e-003	-9.820610e+000	-6.240461e+001	8.288129e+001	-2.000000e+002	0.000000e+000	-2.000000e+002	0.000000e+000
30649530.000	-3.765900e-003	-1.003342e+001	-6.221644e+001	8.280009e+001	-2.000000e+002	0.000000e+000	-2.000000e+002	0.000000e+000
31299520.000	-3.040403e-003	-1.025005e+001	-6.199035e+001	8.261778e+001	-2.000000e+002	0.000000e+000	-2.000000e+002	0.000000e+000
31949510.000	-3.480696e-003	-1.045582e+001	-6.199388e+001	8.261488e+001	-2.000000e+002	0.000000e+000	-2.000000e+002	0.000000e+000
32599500.000	-4.313716e-003	-1.066276e+001	-6.186974e+001	8.194877e+001	-2.000000e+002	0.000000e+000	-2.000000e+002	0.000000e+000
33249490.000	-4.337001e-003	-1.087025e+001	-6.164468e+001	8.144594e+001	-2.000000e+002	0.000000e+000	-2.000000e+002	0.000000e+000
33899480.000	-4.891045e-003	-1.108336e+001	-6.151439e+001	8.168466e+001	-2.000000e+002	0.000000e+000	-2.000000e+002	0.000000e+000
34549470.000	-5.055837e-003	-1.128031e+001	-6.143606e+001	8.170917e+001	-2.000000e+002	0.000000e+000	-2.000000e+002	0.000000e+000
35199460.000	-4.825864e-003	-1.148177e+001	-6.133638e+001	8.230898e+001	-2.000000e+002	0.000000e+000	-2.000000e+002	0.000000e+000
35849450.000	-5.226980e-003	-1.168632e+001	-6.125198e+001	8.158284e+001	-2.000000e+002	0.000000e+000	-2.000000e+002	0.000000e+000
36499440.000	-5.439466e-003	-1.189387e+001	-6.103792e+001	8.198757e+001	-2.000000e+002	0.000000e+000	-2.000000e+002	0.000000e+000
37149430.000	-5.108311e-003	-1.210191e+001	-6.095141e+001	8.186861e+001	-2.000000e+002	0.000000e+000	-2.000000e+002	0.000000e+000
37799420.000	-5.433602e-003	-1.230822e+001	-6.078780e+001	8.232495e+001	-2.000000e+002	0.000000e+000	-2.000000e+002	0.000000e+000
38449410.000	-5.831850e-003	-1.251784e+001	-6.079687e+001	8.231770e+001	-2.000000e+002	0.000000e+000	-2.000000e+002	0.000000e+000
39099400.000	-5.990883e-003	-1.272782e+001	-6.057013e+001	8.213184e+001	-2.000000e+002	0.000000e+000	-2.000000e+002	0.000000e+000
39749390.000	-6.870871e-003	-1.294087e+001	-6.033186e+001	8.291592e+001	-2.000000e+002	0.000000e+000	-2.000000e+002	0.000000e+000
40399380.000	-7.226041e-003	-1.315106e+001	-6.023106e+001	8.337771e+001	-2.000000e+002	0.000000e+000	-2.000000e+002	0.000000e+000
41049370.000	-6.931419e-003	-1.336000e+001	-6.005199e+001	8.373610e+001	-2.000000e+002	0.000000e+000	-2.000000e+002	0.000000e+000
41699360.000	-6.349039e-003	-1.356242e+001	-5.976009e+001	8.343747e+001	-2.000000e+002	0.000000e+000	-2.000000e+002	0.000000e+000
42349350.000	-5.688284e-003	-1.376486e+001	-5.964165e+001	8.247242e+001	-2.000000e+002	0.000000e+000	-2.000000e+002	0.000000e+000
42999340.000	-6.789044e-003	-1.397185e+001	-5.943893e+001	8.274042e+001	-2.000000e+002	0.000000e+000	-2.000000e+002	0.000000e+000
43649330.000	-6.495372e-003	-1.417844e+001	-5.930831e+001	8.250512e+001	-2.000000e+002	0.000000e+000	-2.000000e+002	0.000000e+000
44299320.000	-6.756610e-003	-1.438738e+001	-5.926495e+001	8.221390e+001	-2.000000e+002	0.000000e+000	-2.000000e+002	0.000000e+000
44949310.000	-6.743730e-003	-1.459770e+001	-5.915650e+001	8.278325e+001	-2.000000e+002	0.000000e+000	-2.000000e+002	0.000000e+000
45599300.000	-7.500722e-003	-1.480731e+001	-5.910085e+001	8.276506e+001	-2.000000e+002	0.000000e+000	-2.000000e+002	0.000000e+000
46249290.000	-8.053517e-003	-1.501533e+001	-5.902084e+001	8.350833e+001	-2.000000e+002	0.000000e+000	-2.000000e+002	0.000000e+000
46899280.000	-8.334874e-003	-1.521900e+001	-5.883666e+001	8.400440e+001	-2.000000e+002	0.000000e+000	-2.000000e+002	0.000000e+000
47549270.000	-1.015164e-002	-1.542658e+001	-5.864359e+001	8.474401e+001	-2.000000e+002	0.000000e+000	-2.000000e+002	0.000000e+000
48199260.000	-1.081459e-002	-1.563308e+001	-5.837967e+001	8.455805e+001	-2.000000e+002	0.000000e+000	-2.000000e+002	0.000000e+000
48849250.000	-1.186833e-002	-1.584371e+001	-5.810292e+001	8.410428e+001	-2.000000e+002	0.000000e+000	-2.000000e+002	0.000000e+000
49499240.000	-1.177428e-002	-1.604768e+001	-5.796024e+001	8.360912e+001	-2.000000e+002	0.000000e+000	-2.000000e+002	0.000000e+000
50149230.000	-1.184314e-002	-1.625564e+001	-5.776925e+001	8.337245e+001	-2.000000e+002	0.000000e+000	-2.000000e+002	0.000000e+000
50799220.000	-1.213135e-002	-1.646535e+001	-5.764461e+001	8.289674e+001	-2.000000e+002	0.000000e+000	-2.000000e+002	0.000000e+000
51449210.000	-1.135618e-002	-1.667319e+001	-5.752687e+001	8.245410e+001	-2.000000e+002	0.000000e+000	-2.000000e+002	0.000000e+000
52099200.000	-1.182738e-002	-1.688051e+001	-5.739345e+001	8.176746e+001	-2.000000e+002	0.000000e+000	-2.000000e+002	0.000000e+000
52749190.000	-1.150303e-002	-1.708683e+001	-5.732256e+001	8.214250e+001	-2.000000e+002	0.000000e+000	-2.000000e+002	0.000000e+000
53399180.000	-1.199320e-002	-1.729470e+001	-5.717028e+001	8.163959e+001	-2.000000e+002	0.000000e+000	-2.000000e+002	0.000000e+000
54049170.000	-1.210791e-002	-1.750056e+001	-5.708379e+001	8.139141e+001	-2.000000e+002	0.000000e+000	-2.000000e+002	0.000000e+000
54699160.000	-1.216157e-002	-1.771093e+001	-5.705524e+001	8.103192e+001	-2.000000e+002	0.000000e+000	-2.000000e+002	0.000000e+000
55349150.000	-1.281463e-002	-1.792092e+001	-5.704401e+001	8.110666e+001	-2.000000e+002	0.000000e+000	-2.000000e+002	0.000000e+000
55999140.000	-1.321411e-002	-1.812785e+001	-5.698717e+001	8.207832e+001	-2.000000e+002	0.000000e+000	-2.000000e+002	0.000000e+000
56649130.000	-1.410062e-002	-1.833608e+001	-5.678356e+001	8.268258e+001	-2.000000e+002	0.000000e+000	-2.000000e+002	0.000000e+000
57299120.000	-1.469527e-002	-1.853923e+001	-5.649991e+001	8.282392e+001	-2.000000e+002	0.000000e+000	-2.000000e+002	0.000000e+000
57949110.000	-1.505626e-002	-1.874648e+001	-5.628627e+001	8.083339e+001	-2.000000e+002	0.000000e+000	-2.000000e+002	0.000000e+000
58599100.000	-1.491637e-002	-1.895128e+001	-5.645465e+001	8.049046e+001	-2.000000e+002	0.000000e+000	-2.000000e+002	0.000000e+000
59249090.000	-1.585879e-002	-1.915829e+001	-5.645361e+001	8.186142e+001	-2.000000e+002	0.000000e+000	-2.000000e+002	0.000000e+000
59899080.000	-1.633194e-002	-1.936544e+001	-5.632488e+001	8.269893e+001	-2.000000e+002	0.000000e+000	-2.000000e+002	0.000000e+000
60549070.000	-1.773610e-002	-1.956955e+001	-5.610811e+001	8.343334e+001	-2.000000e+002	0.000000e+000	-2.000000e+002	0.000000e+000
61199060.000	-1.848877e-002	-1.977304e+001	-5.589192e+001	8.441587e+001	-2.000000e+002	0.000000e+000	-2.000000e+002	0.000000e+000
61849050.000	-1.880593e-002	-1.997520e+001	-5.563775e+001	8.422366e+001	-2.000000e+002	0.000000e+000	-2.000000e+002	0.000000e+000
62499040.000	-2.000824e-002	-2.018029e+001	-5.541962e+001	8.387421e+001	-2.000000e+002	0.000000e+000	-2.000000e+002	0.000000e+000
63149030.000	-2.024258e-002	-2.038492e+001	-5.524483e+001	8.372878e+001	-2.000000e+002	0.000000e+000	-2.000000e+002	0.000000e+000
63799020.000	-2.101219e-002	-2.058948e+001	-5.510084e+001	8.332479e+001	-2.000000e+002	0.000000e+000	-2.000000e+002	0.000000e+000
64449010.000	-2.187167e-002	-2.079239e+001	-5.492646e+001	8.372169e+001	-2.000000e+002	0.000000e+000	-2.000000e+002	0.000000e+000
65099000.000	-2.257018e-002	-2.099787e+001	-5.470338e+001	8.369346e+001	-2.000000e+002	0.000000e+000	-2.000000e+002	0.000000e+000
65748990.000	-2.264659e-002	-2.120369e+001	-5.444087e+001	8.343639e+001	-2.000000e+002	0.000000e+000	-2.000000e+002	0.000000e+000
66398980.000	-2.297116e-002	-2.140715e+001	-5.418740e+001	8.265296e+001	-2.000000e+002	0.000000e+000	-2.000000e+002	0.000000e+000
67048970.000	-2.299436e-002	-2.161180e+001	-5.399138e+001	8.180272e+001	-2.000000e+002	0.000000e+000	-2.000000e+002	0.000000e+000
67698960.000	-2.380925e-002	-2.181267e+001	-5.380755e+001	8.092184e+001	-2.000000e+002	0.000000e+000	-2.000000e+002	0.000000e+000
68348950.000	-2.377932e-002	-2.201640e+001	-5.365940e+001	8.020529e+001	-2.000000e+002	0.000000e+000	-2.000000e+002	0.000000e+000
68998940.000	-2.447744e-002	-2.222327e+001	-5.349136e+001	7.906356e+001	-2.000000e+002	0.000000e+000	-2.000000e+002	0.000000e+000
69648930.000	-2.421635e-002	-2.242482e+001	-5.340780e+001	7.788780e+001	-2.000000e+002	0.000000e+000	-2.000000e+002	0.000000e+000
70298920.000	-2.408605e-002	-2.263882e+001	-5.331439e+001	7.699150e+001	-2.000000e+002	0.000000e+000	-2.000000e+002	0.000000e+000
70948910.000	-2.471247e-002	-2.284934e+001	-5.321738e+001	7.636479e+001	-2.000000e+002	0.000000e+000	-2.000000e+002	0.000000e+000
71598900.000	-2.460720e-002	-2.305388e+001	-5.319840e+001	7.552487e+001	-2.000000e+002	0.000000e+000	-2.000000e+002	0.000000e+000
72248890.000	-2.520858e-002	-2.325969e+001	-5.315454e+001	7.514867e+001	-2.000000e+002	0.000000e+000	-2.000000e+002	0.000000e+000
72898880.000	-2.488338e-002	-2.346810e+001	-5.306951e+001	7.469653e+001	-2.000000e+002	0.000000e+000	-2.000000e+002	0.000000e+000
73548870.000	-2.598188e-002	-2.367232e+001	-5.302345e+001	7.401747e+001	-2.000000e+002	0.000000e+000	-2.000000e+002	0.000000e+000
74198860.000	-2.561809e-002	-2.387904e+001	-5.300489e+001	7.351455e+001	-2.000000e+002	0.000000e+000	-2.000000e+002	0.000000e+000
74848850.000	-2.669427e-002	-2.408690e+001	-5.292757e+001	7.318083e+001	-2.000000e+002	0.000000e+000	-2.000000e+002	0.000000e+000
75498840.000	-2.623438e-002	-2.429302e+001	-5.285552e+001	7.200397e+001	-2.000000e+002	0.000000e+000	-2.000000e+002	0.000000e+000
76148830.000	-2.659260e-002	-2.449696e+001	-5.277985e+001	7.216386e+001	-2.000000e+002	0.000000e+000	-2.000000e+002	0.000000e+000
76798820.000	-2.614918e-002	-2.470399e+001	-5.274429e+001	7.170394e+001	-2.000000e+002	0.000000e+000	-2.000000e+002	0.000000e+000
77448810.000	-2.752608e-002	-2.490151e+001	-5.267376e+001	7.131277e+001	-2.000000e+002	0.000000e+000	-2.000000e+002	0.000000e+000
78098800.000	-2.787347e-002	-2.510943e+001	-5.264241e+001	7.100298e+001	-2.000000e+002	0.000000e+000	-2.000000e+002	0.000000e+000
78748790.000	-2.840182e-002	-2.531494e+001	-5.258163e+001	7.069048e+001	-2.000000e+002	0.000000e+000	-2.000000e+002	0.000000e+000
79398780.000	-2.812570e-002	-2.552185e+001	-5.256331e+001	6.998235e+001	-2.000000e+002	0.000000e+000	-2.000000e+002	0.000000e+000
80048770.000	-2.839820e-002	-2.573671e+001	-5.250765e+001	6.976249e+001	-2.000000e+002	0.000000e+000	-2.000000e+002	0.000000e+000
80698760.000	-2.889956e-002	-2.594417e+001	-5.249147e+001	6.925079e+001	-2.000000e+002	0.000000e+000	-2.000000e+002	0.000000e+000
81348750.000	-2.896157e-002	-2.614907e+001	-5.247087e+001	6.924415e+001	-2.000000e+002	0.000000e+000	-2.000000e+002	0.000000e+000
81998740.000	-2.926245e-002	-2.635924e+001	-5.245091e+001	6.908415e+001	-2.000000e+002	0.000000e+000	-2.000000e+002	0.000000e+000
82648730.000	-2.954630e-002	-2.655996e+001	-5.241621e+001	6.892157e+001	-2.000000e+002	0.000000e+000	-2.000000e+002	0.000000e+000
83298720.000	-3.042164e-002	-2.677022e+001	-5.235438e+001	6.874078e+001	-2.000000e+002	0.000000e+000	-2.000000e+002	0.000000e+000
83948710.000	-3.084682e-002	-2.697755e+001	-5.233244e+001	6.855811e+001	-2.000000e+002	0.000000e+000	-2.000000e+002	0.000000e+000
84598700.000	-3.086075e-002	-2.718753e+001	-5.227051e+001	6.876695e+001	-2.000000e+002	0.000000e+000	-2.000000e+002	0.000000e+000
85248690.000	-3.086468e-002	-2.739410e+001	-5.219568e+001	6.858336e+001	-2.000000e+002	0.000000e+000	-2.000000e+002	0.000000e+000
85898680.000	-3.196524e-002	-2.760341e+001	-5.216825e+001	6.847470e+001	-2.000000e+002	0.000000e+000	-2.000000e+002	0.000000e+000
86548670.000	-3.224258e-002	-2.780770e+001	-5.206786e+001	6.842107e+001	-2.000000e+002	0.000000e+000	-2.000000e+002	0.000000e+000
87198660.000	-3.278751e-002	-2.800875e+001	-5.203175e+001	6.828045e+001	-2.000000e+002	0.000000e+000	-2.000000e+002	0.000000e+000
87848650.000	-3.330142e-002	-2.821661e+001	-5.195788e+001	6.809904e+001	-2.000000e+002	0.000000e+000	-2.000000e+002	0.000000e+000
88498640.000	-3.363932e-002	-2.842071e+001	-5.191869e+001	6.773912e+001	-2.000000e+002	0.000000e+000	-2.000000e+002	0.000000e+000
89148630.000	-3.486444e-002	-2.862669e+001	-5.185122e+001	6.756743e+001	-2.000000e+002	0.000000e+000	-2.000000e+002	0.000000e+000
89798620.000	-3.501483e-002	-2.883515e+001	-5.176353e+001	6.742198e+001	-2.000000e+002	0.000000e+000	-2.000000e+002	0.000000e+000
90448610.000	-3.453742e-002	-2.904280e+001	-5.178078e+001	6.704580e+001	-2.000000e+002	0.000000e+000	-2.000000e+002	0.000000e+000
91098600.000	-3.528035e-002	-2.925453e+001	-5.173332e+001	6.721816e+001	-2.000000e+002	0.000000e+000	-2.000000e+002	0.000000e+000
91748590.000	-3.530125e-002	-2.946310e+001	-5.167741e+001	6.731688e+001	-2.000000e+002	0.000000e+000	-2.000000e+002	0.000000e+000
92398580.000	-3.522702e-002	-2.966888e+001	-5.160846e+001	6.733994e+001	-2.000000e+002	0.000000e+000	-2.000000e+002	0.000000e+000
93048570.000	-3.530999e-002	-2.987953e+001	-5.158950e+001	6.760007e+001	-2.000000e+002	0.000000e+000	-2.000000e+002	0.000000e+000
93698560.000	-3.614312e-002	-3.008770e+001	-5.146458e+001	6.705426e+001	-2.000000e+002	0.000000e+000	-2.000000e+002	0.000000e+000
94348550.000	-3.630830e-002	-3.029389e+001	-5.146067e+001	6.691281e+001	-2.000000e+002	0.000000e+000	-2.000000e+002	0.000000e+000
94998540.000	-3.724003e-002	-3.050550e+001	-5.132318e+001	6.742777e+001	-2.000000e+002	0.000000e+000	-2.000000e+002	0.000000e+000
95648530.000	-3.720745e-002	-3.070815e+001	-5.129166e+001	6.667504e+001	-2.000000e+002	0.000000e+000	-2.000000e+002	0.000000e+000
96298520.000	-3.740595e-002	-3.091191e+001	-5.123474e+001	6.648515e+001	-2.000000e+002	0.000000e+000	-2.000000e+002	0.000000e+000
96948510.000	-3.831085e-002	-3.111974e+001	-5.117211e+001	6.648978e+001	-2.000000e+002	0.000000e+000	-2.000000e+002	0.000000e+000
97598500.000	-3.898446e-002	-3.132600e+001	-5.114000e+001	6.626334e+001	-2.000000e+002	0.000000e+000	-2.000000e+002	0.000000e+000
98248490.000	-3.862552e-002	-3.153033e+001	-5.110244e+001	6.616570e+001	-2.000000e+002	0.000000e+000	-2.000000e+002	0.000000e+000
