!Keysight Technologies,E5063A,MY54503115,A.05.08
!Date: Wed Nov 22 14:33:54 2023
!Data & Calibration Information:
!Freq	S11:NONE(--)	S21:NONE(--)	S12:NONE(--)	S22:NONE(--)
# Hz S dB R 50
100000.000	4.964413e-002	-6.347966e-001	-9.500774e+001	-3.454411e+001	-2.000000e+002	0.000000e+000	-2.000000e+002	0.000000e+000
749990.000	-3.161680e-003	-5.839488e-001	-9.350067e+001	-1.141085e+002	-2.000000e+002	0.000000e+000	-2.000000e+002	0.000000e+000
1399980.000	-3.340920e-003	-7.607524e-001	-8.795091e+001	-1.742157e+002	-2.000000e+002	0.000000e+000	-2.000000e+002	0.000000e+000
2049970.000	-2.864087e-003	-9.548506e-001	-8.043518e+001	1.503964e+002	-2.000000e+002	0.000000e+000	-2.000000e+002	0.000000e+000
2699960.000	-3.827510e-003	-1.150806e+000	-8.249255e+001	1.208692e+002	-2.000000e+002	0.000000e+000	-2.000000e+002	0.000000e+000
3349950.000	-1.242920e-003	-1.363771e+000	-7.802274e+001	1.093584e+002	-2.000000e+002	0.000000e+000	-2.000000e+002	0.000000e+000
3999940.000	-2.601033e-003	-1.558649e+000	-7.799834e+001	9.264707e+001	-2.000000e+002	0.000000e+000	-2.000000e+002	0.000000e+000
4649930.000	-2.460170e-003	-1.776556e+000	-7.960142e+001	8.679112e+001	-2.000000e+002	0.000000e+000	-2.000000e+002	0.000000e+000
5299920.000	-2.271823e-003	-1.972791e+000	-7.598424e+001	7.701602e+001	-2.000000e+002	0.000000e+000	-2.000000e+002	0.000000e+000
5949910.000	-3.248275e-003	-2.189588e+000	-7.611106e+001	8.168783e+001	-2.000000e+002	0.000000e+000	-2.000000e+002	0.000000e+000
6599900.000	-3.729993e-003	-2.385410e+000	-7.364748e+001	8.239408e+001	-2.000000e+002	0.000000e+000	-2.000000e+002	0.000000e+000
7249890.000	-2.652041e-003	-2.590458e+000	-7.603846e+001	8.742131e+001	-2.000000e+002	0.000000e+000	-2.000000e+002	0.000000e+000
7899880.000	-2.331186e-003	-2.807954e+000	-7.418279e+001	7.971675e+001	-2.000000e+002	0.000000e+000	-2.000000e+002	0.000000e+000
8549870.000	-8.563073e-004	-3.024301e+000	-7.351531e+001	8.759317e+001	-2.000000e+002	0.000000e+000	-2.000000e+002	0.000000e+000
9199860.000	-1.928298e-003	-3.230549e+000	-7.244847e+001	8.858336e+001	-2.000000e+002	0.000000e+000	-2.000000e+002	0.000000e+000
9849850.000	-1.793226e-003	-3.438954e+000	-7.194018e+001	8.721328e+001	-2.000000e+002	0.000000e+000	-2.000000e+002	0.000000e+000
10499840.000	-2.557928e-003	-3.636993e+000	-7.165838e+001	8.799127e+001	-2.000000e+002	0.000000e+000	-2.000000e+002	0.000000e+000
11149830.000	-4.585550e-003	-3.835325e+000	-7.093081e+001	8.702061e+001	-2.000000e+002	0.000000e+000	-2.000000e+002	0.000000e+000
11799820.000	-5.241376e-003	-4.039872e+000	-7.051605e+001	8.732114e+001	-2.000000e+002	0.000000e+000	-2.000000e+002	0.000000e+000
12449810.000	-3.745444e-003	-4.253430e+000	-6.984198e+001	8.677854e+001	-2.000000e+002	0.000000e+000	-2.000000e+002	0.000000e+000
13099800.000	-2.625012e-003	-4.470980e+000	-6.946083e+001	8.630070e+001	-2.000000e+002	0.000000e+000	-2.000000e+002	0.000000e+000
13749790.000	-3.714849e-003	-4.672442e+000	-6.903036e+001	8.581168e+001	-2.000000e+002	0.000000e+000	-2.000000e+002	0.000000e+000
14399780.000	-4.104849e-003	-4.886922e+000	-6.891760e+001	8.522566e+001	-2.000000e+002	0.000000e+000	-2.000000e+002	0.000000e+000
15049770.000	-5.255779e-003	-5.105794e+000	-6.835635e+001	8.741372e+001	-2.000000e+002	0.000000e+000	-2.000000e+002	0.000000e+000
15699760.000	-3.222089e-003	-5.291967e+000	-6.809263e+001	8.603529e+001	-2.000000e+002	0.000000e+000	-2.000000e+002	0.000000e+000
16349750.000	-3.973011e-003	-5.490932e+000	-6.792188e+001	8.594661e+001	-2.000000e+002	0.000000e+000	-2.000000e+002	0.000000e+000
16999740.000	-6.294660e-003	-5.711342e+000	-6.741675e+001	8.776801e+001	-2.000000e+002	0.000000e+000	-2.000000e+002	0.000000e+000
17649730.000	1.053121e-003	-5.938262e+000	-6.714835e+001	8.417447e+001	-2.000000e+002	0.000000e+000	-2.000000e+002	0.000000e+000
18299720.000	3.205666e-003	-6.155582e+000	-6.700580e+001	8.483467e+001	-2.000000e+002	0.000000e+000	-2.000000e+002	0.000000e+000
18949710.000	2.209208e-003	-6.357643e+000	-6.689901e+001	8.442580e+001	-2.000000e+002	0.000000e+000	-2.000000e+002	0.000000e+000
19599700.000	-3.418490e-003	-6.532870e+000	-6.648217e+001	8.494517e+001	-2.000000e+002	0.000000e+000	-2.000000e+002	0.000000e+000
20249690.000	-7.143791e-003	-6.717936e+000	-6.607976e+001	8.486650e+001	-2.000000e+002	0.000000e+000	-2.000000e+002	0.000000e+000
20899680.000	-8.342718e-003	-6.957450e+000	-6.593648e+001	8.355089e+001	-2.000000e+002	0.000000e+000	-2.000000e+002	0.000000e+000
21549670.000	-8.395387e-003	-7.170610e+000	-6.581377e+001	8.479962e+001	-2.000000e+002	0.000000e+000	-2.000000e+002	0.000000e+000
22199660.000	-6.433908e-003	-7.364170e+000	-6.560242e+001	8.394898e+001	-2.000000e+002	0.000000e+000	-2.000000e+002	0.000000e+000
22849650.000	-2.795963e-003	-7.543358e+000	-6.541275e+001	8.454399e+001	-2.000000e+002	0.000000e+000	-2.000000e+002	0.000000e+000
23499640.000	-3.494971e-003	-7.749441e+000	-6.522421e+001	8.563090e+001	-2.000000e+002	0.000000e+000	-2.000000e+002	0.000000e+000
24149630.000	-5.535250e-003	-7.960690e+000	-6.489066e+001	8.635164e+001	-2.000000e+002	0.000000e+000	-2.000000e+002	0.000000e+000
24799620.000	-5.373100e-003	-8.169021e+000	-6.453762e+001	8.672840e+001	-2.000000e+002	0.000000e+000	-2.000000e+002	0.000000e+000
25449610.000	-2.206566e-003	-8.375163e+000	-6.407668e+001	8.574419e+001	-2.000000e+002	0.000000e+000	-2.000000e+002	0.000000e+000
26099600.000	-2.609809e-003	-8.582507e+000	-6.399901e+001	8.604104e+001	-2.000000e+002	0.000000e+000	-2.000000e+002	0.000000e+000
26749590.000	-3.450101e-003	-8.787779e+000	-6.372710e+001	8.543021e+001	-2.000000e+002	0.000000e+000	-2.000000e+002	0.000000e+000
27399580.000	-3.991957e-003	-9.003741e+000	-6.351352e+001	8.527063e+001	-2.000000e+002	0.000000e+000	-2.000000e+002	0.000000e+000
28049570.000	-2.953373e-003	-9.215405e+000	-6.333825e+001	8.507189e+001	-2.000000e+002	0.000000e+000	-2.000000e+002	0.000000e+000
28699560.000	-3.442556e-003	-9.414131e+000	-6.307880e+001	8.609172e+001	-2.000000e+002	0.000000e+000	-2.000000e+002	0.000000e+000
29349550.000	-3.664305e-003	-9.616800e+000	-6.317725e+001	8.570377e+001	-2.000000e+002	0.000000e+000	-2.000000e+002	0.000000e+000
29999540.000	-3.940165e-003	-9.823111e+000	-6.265328e+001	8.717085e+001	-2.000000e+002	0.000000e+000	-2.000000e+002	0.000000e+000
30649530.000	-4.231678e-003	-1.003625e+001	-6.227771e+001	8.564347e+001	-2.000000e+002	0.000000e+000	-2.000000e+002	0.000000e+000
31299520.000	-3.795636e-003	-1.025167e+001	-6.209105e+001	8.500216e+001	-2.000000e+002	0.000000e+000	-2.000000e+002	0.000000e+000
31949510.000	-3.792391e-003	-1.045627e+001	-6.189893e+001	8.438231e+001	-2.000000e+002	0.000000e+000	-2.000000e+002	0.000000e+000
32599500.000	-4.909356e-003	-1.066404e+001	-6.179713e+001	8.390477e+001	-2.000000e+002	0.000000e+000	-2.000000e+002	0.000000e+000
33249490.000	-4.788331e-003	-1.087287e+001	-6.167021e+001	8.360777e+001	-2.000000e+002	0.000000e+000	-2.000000e+002	0.000000e+000
33899480.000	-5.267794e-003	-1.108303e+001	-6.144229e+001	8.394054e+001	-2.000000e+002	0.000000e+000	-2.000000e+002	0.000000e+000
34549470.000	-5.370876e-003	-1.127833e+001	-6.131325e+001	8.307004e+001	-2.000000e+002	0.000000e+000	-2.000000e+002	0.000000e+000
35199460.000	-5.299361e-003	-1.148457e+001	-6.120313e+001	8.299891e+001	-2.000000e+002	0.000000e+000	-2.000000e+002	0.000000e+000
35849450.000	-5.482062e-003	-1.168896e+001	-6.108221e+001	8.354780e+001	-2.000000e+002	0.000000e+000	-2.000000e+002	0.000000e+000
36499440.000	-5.282579e-003	-1.189435e+001	-6.103243e+001	8.347183e+001	-2.000000e+002	0.000000e+000	-2.000000e+002	0.000000e+000
37149430.000	-5.821476e-003	-1.210054e+001	-6.085955e+001	8.431144e+001	-2.000000e+002	0.000000e+000	-2.000000e+002	0.000000e+000
37799420.000	-6.262827e-003	-1.230991e+001	-6.056274e+001	8.475066e+001	-2.000000e+002	0.000000e+000	-2.000000e+002	0.000000e+000
38449410.000	-6.222165e-003	-1.252118e+001	-6.047547e+001	8.479649e+001	-2.000000e+002	0.000000e+000	-2.000000e+002	0.000000e+000
39099400.000	-6.796282e-003	-1.272879e+001	-6.017474e+001	8.510840e+001	-2.000000e+002	0.000000e+000	-2.000000e+002	0.000000e+000
39749390.000	-7.291854e-003	-1.294373e+001	-6.002464e+001	8.505704e+001	-2.000000e+002	0.000000e+000	-2.000000e+002	0.000000e+000
40399380.000	-7.735959e-003	-1.315010e+001	-5.972643e+001	8.442382e+001	-2.000000e+002	0.000000e+000	-2.000000e+002	0.000000e+000
41049370.000	-7.500646e-003	-1.335854e+001	-5.958258e+001	8.433477e+001	-2.000000e+002	0.000000e+000	-2.000000e+002	0.000000e+000
41699360.000	-6.582943e-003	-1.356401e+001	-5.943757e+001	8.369266e+001	-2.000000e+002	0.000000e+000	-2.000000e+002	0.000000e+000
42349350.000	-6.104596e-003	-1.376796e+001	-5.928595e+001	8.245160e+001	-2.000000e+002	0.000000e+000	-2.000000e+002	0.000000e+000
42999340.000	-7.433814e-003	-1.397169e+001	-5.919137e+001	8.237832e+001	-2.000000e+002	0.000000e+000	-2.000000e+002	0.000000e+000
43649330.000	-6.902583e-003	-1.417825e+001	-5.912090e+001	8.258451e+001	-2.000000e+002	0.000000e+000	-2.000000e+002	0.000000e+000
44299320.000	-7.468702e-003	-1.438754e+001	-5.898721e+001	8.227055e+001	-2.000000e+002	0.000000e+000	-2.000000e+002	0.000000e+000
44949310.000	-7.180742e-003	-1.459850e+001	-5.891198e+001	8.241829e+001	-2.000000e+002	0.000000e+000	-2.000000e+002	0.000000e+000
45599300.000	-7.739864e-003	-1.480936e+001	-5.889251e+001	8.246449e+001	-2.000000e+002	0.000000e+000	-2.000000e+002	0.000000e+000
46249290.000	-8.466650e-003	-1.501691e+001	-5.875351e+001	8.303412e+001	-2.000000e+002	0.000000e+000	-2.000000e+002	0.000000e+000
46899280.000	-8.866304e-003	-1.522122e+001	-5.851547e+001	8.353636e+001	-2.000000e+002	0.000000e+000	-2.000000e+002	0.000000e+000
47549270.000	-1.041234e-002	-1.542901e+001	-5.833807e+001	8.380963e+001	-2.000000e+002	0.000000e+000	-2.000000e+002	0.000000e+000
48199260.000	-1.098522e-002	-1.563597e+001	-5.811733e+001	8.365362e+001	-2.000000e+002	0.000000e+000	-2.000000e+002	0.000000e+000
48849250.000	-1.220478e-002	-1.584415e+001	-5.786855e+001	8.375850e+001	-2.000000e+002	0.000000e+000	-2.000000e+002	0.000000e+000
49499240.000	-1.170136e-002	-1.605036e+001	-5.774284e+001	8.318189e+001	-2.000000e+002	0.000000e+000	-2.000000e+002	0.000000e+000
50149230.000	-1.210222e-002	-1.625946e+001	-5.759898e+001	8.266594e+001	-2.000000e+002	0.000000e+000	-2.000000e+002	0.000000e+000
50799220.000	-1.218410e-002	-1.646626e+001	-5.743336e+001	8.203581e+001	-2.000000e+002	0.000000e+000	-2.000000e+002	0.000000e+000
51449210.000	-1.163193e-002	-1.667266e+001	-5.736693e+001	8.204413e+001	-2.000000e+002	0.000000e+000	-2.000000e+002	0.000000e+000
52099200.000	-1.198616e-002	-1.687972e+001	-5.724895e+001	8.160112e+001	-2.000000e+002	0.000000e+000	-2.000000e+002	0.000000e+000
52749190.000	-1.208127e-002	-1.708648e+001	-5.711016e+001	8.132871e+001	-2.000000e+002	0.000000e+000	-2.000000e+002	0.000000e+000
53399180.000	-1.203245e-002	-1.729401e+001	-5.698164e+001	8.074121e+001	-2.000000e+002	0.000000e+000	-2.000000e+002	0.000000e+000
54049170.000	-1.215055e-002	-1.750294e+001	-5.697624e+001	8.012881e+001	-2.000000e+002	0.000000e+000	-2.000000e+002	0.000000e+000
54699160.000	-1.258894e-002	-1.771208e+001	-5.691151e+001	8.055110e+001	-2.000000e+002	0.000000e+000	-2.000000e+002	0.000000e+000
55349150.000	-1.338283e-002	-1.791984e+001	-5.688839e+001	8.033176e+001	-2.000000e+002	0.000000e+000	-2.000000e+002	0.000000e+000
55999140.000	-1.326807e-002	-1.813140e+001	-5.674834e+001	8.088761e+001	-2.000000e+002	0.000000e+000	-2.000000e+002	0.000000e+000
56649130.000	-1.465653e-002	-1.833685e+001	-5.665042e+001	8.196387e+001	-2.000000e+002	0.000000e+000	-2.000000e+002	0.000000e+000
57299120.000	-1.509886e-002	-1.854252e+001	-5.636351e+001	8.188495e+001	-2.000000e+002	0.000000e+000	-2.000000e+002	0.000000e+000
57949110.000	-1.519993e-002	-1.874832e+001	-5.617483e+001	8.026269e+001	-2.000000e+002	0.000000e+000	-2.000000e+002	0.000000e+000
58599100.000	-1.505831e-002	-1.895389e+001	-5.636455e+001	7.981758e+001	-2.000000e+002	0.000000e+000	-2.000000e+002	0.000000e+000
59249090.000	-1.601004e-002	-1.916017e+001	-5.631751e+001	8.093175e+001	-2.000000e+002	0.000000e+000	-2.000000e+002	0.000000e+000
59899080.000	-1.623910e-002	-1.936360e+001	-5.613905e+001	8.214145e+001	-2.000000e+002	0.000000e+000	-2.000000e+002	0.000000e+000
60549070.000	-1.752482e-002	-1.957008e+001	-5.600553e+001	8.271565e+001	-2.000000e+002	0.000000e+000	-2.000000e+002	0.000000e+000
61199060.000	-1.879433e-002	-1.977344e+001	-5.571659e+001	8.341382e+001	-2.000000e+002	0.000000e+000	-2.000000e+002	0.000000e+000
61849050.000	-1.925840e-002	-1.997650e+001	-5.544705e+001	8.328814e+001	-2.000000e+002	0.000000e+000	-2.000000e+002	0.000000e+000
62499040.000	-1.989878e-002	-2.017885e+001	-5.517690e+001	8.275862e+001	-2.000000e+002	0.000000e+000	-2.000000e+002	0.000000e+000
63149030.000	-2.042138e-002	-2.038381e+001	-5.507848e+001	8.207561e+001	-2.000000e+002	0.000000e+000	-2.000000e+002	0.000000e+000
63799020.000	-2.103748e-002	-2.058980e+001	-5.491611e+001	8.205791e+001	-2.000000e+002	0.000000e+000	-2.000000e+002	0.000000e+000
64449010.000	-2.164795e-002	-2.079520e+001	-5.472232e+001	8.227705e+001	-2.000000e+002	0.000000e+000	-2.000000e+002	0.000000e+000
65099000.000	-2.226541e-002	-2.099860e+001	-5.453918e+001	8.189440e+001	-2.000000e+002	0.000000e+000	-2.000000e+002	0.000000e+000
65748990.000	-2.243987e-002	-2.120102e+001	-5.426273e+001	8.147289e+001	-2.000000e+002	0.000000e+000	-2.000000e+002	0.000000e+000
66398980.000	-2.294335e-002	-2.140587e+001	-5.403085e+001	8.075043e+001	-2.000000e+002	0.000000e+000	-2.000000e+002	0.000000e+000
67048970.000	-2.297840e-002	-2.160978e+001	-5.386416e+001	7.974018e+001	-2.000000e+002	0.000000e+000	-2.000000e+002	0.000000e+000
67698960.000	-2.383698e-002	-2.181480e+001	-5.372449e+001	7.893968e+001	-2.000000e+002	0.000000e+000	-2.000000e+002	0.000000e+000
68348950.000	-2.388989e-002	-2.201597e+001	-5.360287e+001	7.785816e+001	-2.000000e+002	0.000000e+000	-2.000000e+002	0.000000e+000
68998940.000	-2.439186e-002	-2.222541e+001	-5.349727e+001	7.688912e+001	-2.000000e+002	0.000000e+000	-2.000000e+002	0.000000e+000
69648930.000	-2.403191e-002	-2.242866e+001	-5.341487e+001	7.592607e+001	-2.000000e+002	0.000000e+000	-2.000000e+002	0.000000e+000
70298920.000	-2.376891e-002	-2.264264e+001	-5.336348e+001	7.539361e+001	-2.000000e+002	0.000000e+000	-2.000000e+002	0.000000e+000
70948910.000	-2.447229e-002	-2.284904e+001	-5.327149e+001	7.458123e+001	-2.000000e+002	0.000000e+000	-2.000000e+002	0.000000e+000
71598900.000	-2.427473e-002	-2.305644e+001	-5.325313e+001	7.403964e+001	-2.000000e+002	0.000000e+000	-2.000000e+002	0.000000e+000
72248890.000	-2.500983e-002	-2.326247e+001	-5.317632e+001	7.337682e+001	-2.000000e+002	0.000000e+000	-2.000000e+002	0.000000e+000
72898880.000	-2.523230e-002	-2.346691e+001	-5.313296e+001	7.303463e+001	-2.000000e+002	0.000000e+000	-2.000000e+002	0.000000e+000
73548870.000	-2.552117e-002	-2.367399e+001	-5.309528e+001	7.253969e+001	-2.000000e+002	0.000000e+000	-2.000000e+002	0.000000e+000
74198860.000	-2.539600e-002	-2.388159e+001	-5.300789e+001	7.197144e+001	-2.000000e+002	0.000000e+000	-2.000000e+002	0.000000e+000
74848850.000	-2.646891e-002	-2.408909e+001	-5.298437e+001	7.159080e+001	-2.000000e+002	0.000000e+000	-2.000000e+002	0.000000e+000
75498840.000	-2.605300e-002	-2.429631e+001	-5.294628e+001	7.154879e+001	-2.000000e+002	0.000000e+000	-2.000000e+002	0.000000e+000
76148830.000	-2.634598e-002	-2.450081e+001	-5.287149e+001	7.071948e+001	-2.000000e+002	0.000000e+000	-2.000000e+002	0.000000e+000
76798820.000	-2.594724e-002	-2.470764e+001	-5.283557e+001	7.028174e+001	-2.000000e+002	0.000000e+000	-2.000000e+002	0.000000e+000
77448810.000	-2.745585e-002	-2.490548e+001	-5.282065e+001	6.994815e+001	-2.000000e+002	0.000000e+000	-2.000000e+002	0.000000e+000
78098800.000	-2.787537e-002	-2.511354e+001	-5.275592e+001	6.960416e+001	-2.000000e+002	0.000000e+000	-2.000000e+002	0.000000e+000
78748790.000	-2.827034e-002	-2.531882e+001	-5.269646e+001	6.924109e+001	-2.000000e+002	0.000000e+000	-2.000000e+002	0.000000e+000
79398780.000	-2.798713e-002	-2.552310e+001	-5.268086e+001	6.903679e+001	-2.000000e+002	0.000000e+000	-2.000000e+002	0.000000e+000
80048770.000	-2.855613e-002	-2.574174e+001	-5.263223e+001	6.867403e+001	-2.000000e+002	0.000000e+000	-2.000000e+002	0.000000e+000
80698760.000	-2.890572e-002	-2.594982e+001	-5.259893e+001	6.829020e+001	-2.000000e+002	0.000000e+000	-2.000000e+002	0.000000e+000
81348750.000	-2.897474e-002	-2.615371e+001	-5.257757e+001	6.828586e+001	-2.000000e+002	0.000000e+000	-2.000000e+002	0.000000e+000
81998740.000	-2.926332e-002	-2.636125e+001	-5.252419e+001	6.808309e+001	-2.000000e+002	0.000000e+000	-2.000000e+002	0.000000e+000
82648730.000	-2.984397e-002	-2.656551e+001	-5.249948e+001	6.798950e+001	-2.000000e+002	0.000000e+000	-2.000000e+002	0.000000e+000
83298720.000	-3.036106e-002	-2.677516e+001	-5.245761e+001	6.783102e+001	-2.000000e+002	0.000000e+000	-2.000000e+002	0.000000e+000
83948710.000	-3.077928e-002	-2.698031e+001	-5.240777e+001	6.790961e+001	-2.000000e+002	0.000000e+000	-2.000000e+002	0.000000e+000
84598700.000	-3.077181e-002	-2.718833e+001	-5.236573e+001	6.758812e+001	-2.000000e+002	0.000000e+000	-2.000000e+002	0.000000e+000
85248690.000	-3.142601e-002	-2.739750e+001	-5.240418e+001	6.778621e+001	-2.000000e+002	0.000000e+000	-2.000000e+002	0.000000e+000
85898680.000	-3.189220e-002	-2.760442e+001	-5.228118e+001	6.779246e+001	-2.000000e+002	0.000000e+000	-2.000000e+002	0.000000e+000
86548670.000	-3.249691e-002	-2.780927e+001	-5.220522e+001	6.754403e+001	-2.000000e+002	0.000000e+000	-2.000000e+002	0.000000e+000
87198660.000	-3.237519e-002	-2.801432e+001	-5.215230e+001	6.699321e+001	-2.000000e+002	0.000000e+000	-2.000000e+002	0.000000e+000
87848650.000	-3.332720e-002	-2.822024e+001	-5.208459e+001	6.713470e+001	-2.000000e+002	0.000000e+000	-2.000000e+002	0.000000e+000
88498640.000	-3.371675e-002	-2.842359e+001	-5.202131e+001	6.684871e+001	-2.000000e+002	0.000000e+000	-2.000000e+002	0.000000e+000
89148630.000	-3.459673e-002	-2.862871e+001	-5.199154e+001	6.666600e+001	-2.000000e+002	0.000000e+000	-2.000000e+002	0.000000e+000
89798620.000	-3.479833e-002	-2.883792e+001	-5.192809e+001	6.643624e+001	-2.000000e+002	0.000000e+000	-2.000000e+002	0.000000e+000
90448610.000	-3.447025e-002	-2.904603e+001	-5.193438e+001	6.630247e+001	-2.000000e+002	0.000000e+000	-2.000000e+002	0.000000e+000
91098600.000	-3.532861e-002	-2.925771e+001	-5.188672e+001	6.631545e+001	-2.000000e+002	0.000000e+000	-2.000000e+002	0.000000e+000
91748590.000	-3.551455e-002	-2.946533e+001	-5.190631e+001	6.628318e+001	-2.000000e+002	0.000000e+000	-2.000000e+002	0.000000e+000
92398580.000	-3.556330e-002	-2.967344e+001	-5.181820e+001	6.640682e+001	-2.000000e+002	0.000000e+000	-2.000000e+002	0.000000e+000
93048570.000	-3.527953e-002	-2.988173e+001	-5.183237e+001	6.655407e+001	-2.000000e+002	0.000000e+000	-2.000000e+002	0.000000e+000
93698560.000	-3.631779e-002	-3.009173e+001	-5.166593e+001	6.653448e+001	-2.000000e+002	0.000000e+000	-2.000000e+002	0.000000e+000
94348550.000	-3.642328e-002	-3.029928e+001	-5.167133e+001	6.692881e+001	-2.000000e+002	0.000000e+000	-2.000000e+002	0.000000e+000
94998540.000	-3.736147e-002	-3.051025e+001	-5.167549e+001	6.678751e+001	-2.000000e+002	0.000000e+000	-2.000000e+002	0.000000e+000
95648530.000	-3.750697e-002	-3.071166e+001	-5.152232e+001	6.617725e+001	-2.000000e+002	0.000000e+000	-2.000000e+002	0.000000e+000
96298520.000	-3.746424e-002	-3.091606e+001	-5.146375e+001	6.601881e+001	-2.000000e+002	0.000000e+000	-2.000000e+002	0.000000e+000
96948510.000	-3.828413e-002	-3.112233e+001	-5.143251e+001	6.590617e+001	-2.000000e+002	0.000000e+000	-2.000000e+002	0.000000e+000
97598500.000	-3.921240e-002	-3.133080e+001	-5.141086e+001	6.620897e+001	-2.000000e+002	0.000000e+000	-2.000000e+002	0.000000e+000
98248490.000	-3.844535e-002	-3.153393e+001	-5.138383e+001	6.616209e+001	-2.000000e+002	0.000000e+000	-2.000000e+002	0.000000e+000
