!Keysight Technologies,E5063A,MY54503115,A.05.08
!Date: Wed Nov 22 14:42:01 2023
!Data & Calibration Information:
!Freq	S11:NONE(--)	S21:NONE(--)	S12:NONE(--)	S22:NONE(--)
# Hz S dB R 50
100000.000	5.060124e-002	-6.356142e-001	-1.017936e+002	-6.857391e+001	-2.000000e+002	0.000000e+000	-2.000000e+002	0.000000e+000
749990.000	-2.537233e-003	-5.932799e-001	-8.329327e+001	-1.026668e+002	-2.000000e+002	0.000000e+000	-2.000000e+002	0.000000e+000
1399980.000	-1.170704e-003	-7.578895e-001	-8.709130e+001	-1.211438e+002	-2.000000e+002	0.000000e+000	-2.000000e+002	0.000000e+000
2049970.000	-2.477194e-003	-9.602791e-001	-8.011035e+001	1.488611e+002	-2.000000e+002	0.000000e+000	-2.000000e+002	0.000000e+000
2699960.000	-2.269793e-003	-1.155256e+000	-8.830591e+001	1.325107e+002	-2.000000e+002	0.000000e+000	-2.000000e+002	0.000000e+000
3349950.000	-1.205972e-003	-1.361904e+000	-8.091087e+001	8.889972e+001	-2.000000e+002	0.000000e+000	-2.000000e+002	0.000000e+000
3999940.000	-5.701072e-004	-1.562718e+000	-7.992796e+001	1.120720e+002	-2.000000e+002	0.000000e+000	-2.000000e+002	0.000000e+000
4649930.000	-9.835530e-004	-1.776833e+000	-7.810320e+001	8.010783e+001	-2.000000e+002	0.000000e+000	-2.000000e+002	0.000000e+000
5299920.000	-1.063276e-003	-1.974818e+000	-7.668677e+001	8.083932e+001	-2.000000e+002	0.000000e+000	-2.000000e+002	0.000000e+000
5949910.000	-2.573148e-003	-2.185028e+000	-7.806470e+001	8.841415e+001	-2.000000e+002	0.000000e+000	-2.000000e+002	0.000000e+000
6599900.000	-1.762910e-003	-2.390288e+000	-7.451228e+001	9.166077e+001	-2.000000e+002	0.000000e+000	-2.000000e+002	0.000000e+000
7249890.000	-2.185873e-003	-2.595928e+000	-7.454578e+001	9.092283e+001	-2.000000e+002	0.000000e+000	-2.000000e+002	0.000000e+000
7899880.000	-1.878389e-003	-2.809957e+000	-7.411627e+001	7.753895e+001	-2.000000e+002	0.000000e+000	-2.000000e+002	0.000000e+000
8549870.000	4.332285e-004	-3.025458e+000	-7.337672e+001	8.721205e+001	-2.000000e+002	0.000000e+000	-2.000000e+002	0.000000e+000
9199860.000	-4.903599e-004	-3.232186e+000	-7.266941e+001	8.861463e+001	-2.000000e+002	0.000000e+000	-2.000000e+002	0.000000e+000
9849850.000	-8.129798e-004	-3.441179e+000	-7.198238e+001	8.570587e+001	-2.000000e+002	0.000000e+000	-2.000000e+002	0.000000e+000
10499840.000	-1.484516e-003	-3.636986e+000	-7.168998e+001	8.557466e+001	-2.000000e+002	0.000000e+000	-2.000000e+002	0.000000e+000
11149830.000	-3.327513e-003	-3.835703e+000	-7.071834e+001	8.963436e+001	-2.000000e+002	0.000000e+000	-2.000000e+002	0.000000e+000
11799820.000	-3.383373e-003	-4.040524e+000	-7.041882e+001	8.693621e+001	-2.000000e+002	0.000000e+000	-2.000000e+002	0.000000e+000
12449810.000	-2.313677e-003	-4.256878e+000	-7.030763e+001	8.696459e+001	-2.000000e+002	0.000000e+000	-2.000000e+002	0.000000e+000
13099800.000	-1.422559e-003	-4.474635e+000	-6.981694e+001	8.612154e+001	-2.000000e+002	0.000000e+000	-2.000000e+002	0.000000e+000
13749790.000	-2.411338e-003	-4.675297e+000	-6.932305e+001	8.613868e+001	-2.000000e+002	0.000000e+000	-2.000000e+002	0.000000e+000
14399780.000	-3.305212e-003	-4.889613e+000	-6.890477e+001	8.646397e+001	-2.000000e+002	0.000000e+000	-2.000000e+002	0.000000e+000
15049770.000	-3.795382e-003	-5.107114e+000	-6.853348e+001	8.485921e+001	-2.000000e+002	0.000000e+000	-2.000000e+002	0.000000e+000
15699760.000	-2.379441e-003	-5.293920e+000	-6.814354e+001	8.516722e+001	-2.000000e+002	0.000000e+000	-2.000000e+002	0.000000e+000
16349750.000	-2.362805e-003	-5.493908e+000	-6.780586e+001	8.488697e+001	-2.000000e+002	0.000000e+000	-2.000000e+002	0.000000e+000
16999740.000	-4.719893e-003	-5.710317e+000	-6.764581e+001	8.522582e+001	-2.000000e+002	0.000000e+000	-2.000000e+002	0.000000e+000
17649730.000	1.719498e-003	-5.941453e+000	-6.722348e+001	8.475888e+001	-2.000000e+002	0.000000e+000	-2.000000e+002	0.000000e+000
18299720.000	4.398436e-003	-6.156697e+000	-6.707378e+001	8.447164e+001	-2.000000e+002	0.000000e+000	-2.000000e+002	0.000000e+000
18949710.000	3.153954e-003	-6.357909e+000	-6.669194e+001	8.408152e+001	-2.000000e+002	0.000000e+000	-2.000000e+002	0.000000e+000
19599700.000	-2.229302e-003	-6.535663e+000	-6.635358e+001	8.419854e+001	-2.000000e+002	0.000000e+000	-2.000000e+002	0.000000e+000
20249690.000	-5.694459e-003	-6.721489e+000	-6.611926e+001	8.449353e+001	-2.000000e+002	0.000000e+000	-2.000000e+002	0.000000e+000
20899680.000	-7.137987e-003	-6.957931e+000	-6.590364e+001	8.421718e+001	-2.000000e+002	0.000000e+000	-2.000000e+002	0.000000e+000
21549670.000	-6.861315e-003	-7.172178e+000	-6.562496e+001	8.356425e+001	-2.000000e+002	0.000000e+000	-2.000000e+002	0.000000e+000
22199660.000	-5.488307e-003	-7.365437e+000	-6.555373e+001	8.399266e+001	-2.000000e+002	0.000000e+000	-2.000000e+002	0.000000e+000
22849650.000	-1.778580e-003	-7.541608e+000	-6.544391e+001	8.440809e+001	-2.000000e+002	0.000000e+000	-2.000000e+002	0.000000e+000
23499640.000	-2.419340e-003	-7.750104e+000	-6.527579e+001	8.527420e+001	-2.000000e+002	0.000000e+000	-2.000000e+002	0.000000e+000
24149630.000	-4.401005e-003	-7.963086e+000	-6.492552e+001	8.600045e+001	-2.000000e+002	0.000000e+000	-2.000000e+002	0.000000e+000
24799620.000	-3.928579e-003	-8.169311e+000	-6.462552e+001	8.691966e+001	-2.000000e+002	0.000000e+000	-2.000000e+002	0.000000e+000
25449610.000	-1.261701e-003	-8.376495e+000	-6.422696e+001	8.771578e+001	-2.000000e+002	0.000000e+000	-2.000000e+002	0.000000e+000
26099600.000	-1.639381e-003	-8.581391e+000	-6.378352e+001	8.667736e+001	-2.000000e+002	0.000000e+000	-2.000000e+002	0.000000e+000
26749590.000	-2.511296e-003	-8.791392e+000	-6.356018e+001	8.585942e+001	-2.000000e+002	0.000000e+000	-2.000000e+002	0.000000e+000
27399580.000	-2.838896e-003	-9.001694e+000	-6.330668e+001	8.507251e+001	-2.000000e+002	0.000000e+000	-2.000000e+002	0.000000e+000
28049570.000	-1.939212e-003	-9.217524e+000	-6.311298e+001	8.484588e+001	-2.000000e+002	0.000000e+000	-2.000000e+002	0.000000e+000
28699560.000	-2.414076e-003	-9.417754e+000	-6.308374e+001	8.408671e+001	-2.000000e+002	0.000000e+000	-2.000000e+002	0.000000e+000
29349550.000	-2.589438e-003	-9.616464e+000	-6.300194e+001	8.589683e+001	-2.000000e+002	0.000000e+000	-2.000000e+002	0.000000e+000
29999540.000	-2.370437e-003	-9.826366e+000	-6.285256e+001	8.441738e+001	-2.000000e+002	0.000000e+000	-2.000000e+002	0.000000e+000
30649530.000	-2.935642e-003	-1.003522e+001	-6.242675e+001	8.463523e+001	-2.000000e+002	0.000000e+000	-2.000000e+002	0.000000e+000
31299520.000	-2.583807e-003	-1.025289e+001	-6.219366e+001	8.473879e+001	-2.000000e+002	0.000000e+000	-2.000000e+002	0.000000e+000
31949510.000	-3.018054e-003	-1.045734e+001	-6.205629e+001	8.544263e+001	-2.000000e+002	0.000000e+000	-2.000000e+002	0.000000e+000
32599500.000	-3.905195e-003	-1.066311e+001	-6.183166e+001	8.489834e+001	-2.000000e+002	0.000000e+000	-2.000000e+002	0.000000e+000
33249490.000	-3.689455e-003	-1.087345e+001	-6.172805e+001	8.504646e+001	-2.000000e+002	0.000000e+000	-2.000000e+002	0.000000e+000
33899480.000	-4.092575e-003	-1.108474e+001	-6.143190e+001	8.437106e+001	-2.000000e+002	0.000000e+000	-2.000000e+002	0.000000e+000
34549470.000	-4.137859e-003	-1.128168e+001	-6.122988e+001	8.418748e+001	-2.000000e+002	0.000000e+000	-2.000000e+002	0.000000e+000
35199460.000	-4.363984e-003	-1.148193e+001	-6.109821e+001	8.343819e+001	-2.000000e+002	0.000000e+000	-2.000000e+002	0.000000e+000
35849450.000	-4.360704e-003	-1.168908e+001	-6.098379e+001	8.296703e+001	-2.000000e+002	0.000000e+000	-2.000000e+002	0.000000e+000
36499440.000	-4.252362e-003	-1.189294e+001	-6.079476e+001	8.363729e+001	-2.000000e+002	0.000000e+000	-2.000000e+002	0.000000e+000
37149430.000	-4.888027e-003	-1.210083e+001	-6.071652e+001	8.323021e+001	-2.000000e+002	0.000000e+000	-2.000000e+002	0.000000e+000
37799420.000	-4.897725e-003	-1.231228e+001	-6.058583e+001	8.336451e+001	-2.000000e+002	0.000000e+000	-2.000000e+002	0.000000e+000
38449410.000	-4.982007e-003	-1.251906e+001	-6.041182e+001	8.345305e+001	-2.000000e+002	0.000000e+000	-2.000000e+002	0.000000e+000
39099400.000	-5.276900e-003	-1.272713e+001	-6.025410e+001	8.342194e+001	-2.000000e+002	0.000000e+000	-2.000000e+002	0.000000e+000
39749390.000	-6.331049e-003	-1.294447e+001	-6.017554e+001	8.322087e+001	-2.000000e+002	0.000000e+000	-2.000000e+002	0.000000e+000
40399380.000	-6.326280e-003	-1.315269e+001	-5.996091e+001	8.369836e+001	-2.000000e+002	0.000000e+000	-2.000000e+002	0.000000e+000
41049370.000	-6.358713e-003	-1.335883e+001	-5.975252e+001	8.376685e+001	-2.000000e+002	0.000000e+000	-2.000000e+002	0.000000e+000
41699360.000	-5.187064e-003	-1.356354e+001	-5.958722e+001	8.339540e+001	-2.000000e+002	0.000000e+000	-2.000000e+002	0.000000e+000
42349350.000	-5.171294e-003	-1.376723e+001	-5.949171e+001	8.323092e+001	-2.000000e+002	0.000000e+000	-2.000000e+002	0.000000e+000
42999340.000	-5.966039e-003	-1.397417e+001	-5.927467e+001	8.317067e+001	-2.000000e+002	0.000000e+000	-2.000000e+002	0.000000e+000
43649330.000	-5.706068e-003	-1.418003e+001	-5.914624e+001	8.302367e+001	-2.000000e+002	0.000000e+000	-2.000000e+002	0.000000e+000
44299320.000	-5.987113e-003	-1.438970e+001	-5.912180e+001	8.286490e+001	-2.000000e+002	0.000000e+000	-2.000000e+002	0.000000e+000
44949310.000	-5.983839e-003	-1.459917e+001	-5.897698e+001	8.299582e+001	-2.000000e+002	0.000000e+000	-2.000000e+002	0.000000e+000
45599300.000	-6.882991e-003	-1.480894e+001	-5.891369e+001	8.351920e+001	-2.000000e+002	0.000000e+000	-2.000000e+002	0.000000e+000
46249290.000	-7.594941e-003	-1.501750e+001	-5.879397e+001	8.410552e+001	-2.000000e+002	0.000000e+000	-2.000000e+002	0.000000e+000
46899280.000	-7.830663e-003	-1.521904e+001	-5.863242e+001	8.506581e+001	-2.000000e+002	0.000000e+000	-2.000000e+002	0.000000e+000
47549270.000	-9.301055e-003	-1.542572e+001	-5.824458e+001	8.555341e+001	-2.000000e+002	0.000000e+000	-2.000000e+002	0.000000e+000
48199260.000	-1.000732e-002	-1.563239e+001	-5.790609e+001	8.514624e+001	-2.000000e+002	0.000000e+000	-2.000000e+002	0.000000e+000
48849250.000	-1.105266e-002	-1.584210e+001	-5.762693e+001	8.477660e+001	-2.000000e+002	0.000000e+000	-2.000000e+002	0.000000e+000
49499240.000	-1.054297e-002	-1.604754e+001	-5.746300e+001	8.305670e+001	-2.000000e+002	0.000000e+000	-2.000000e+002	0.000000e+000
50149230.000	-1.055416e-002	-1.625515e+001	-5.735365e+001	8.249152e+001	-2.000000e+002	0.000000e+000	-2.000000e+002	0.000000e+000
50799220.000	-1.134855e-002	-1.646408e+001	-5.721857e+001	8.161599e+001	-2.000000e+002	0.000000e+000	-2.000000e+002	0.000000e+000
51449210.000	-1.038012e-002	-1.667190e+001	-5.716551e+001	8.104160e+001	-2.000000e+002	0.000000e+000	-2.000000e+002	0.000000e+000
52099200.000	-1.077427e-002	-1.688093e+001	-5.705606e+001	8.053336e+001	-2.000000e+002	0.000000e+000	-2.000000e+002	0.000000e+000
52749190.000	-1.101107e-002	-1.708483e+001	-5.699076e+001	8.021274e+001	-2.000000e+002	0.000000e+000	-2.000000e+002	0.000000e+000
53399180.000	-1.099638e-002	-1.729323e+001	-5.695625e+001	7.941584e+001	-2.000000e+002	0.000000e+000	-2.000000e+002	0.000000e+000
54049170.000	-1.141730e-002	-1.750369e+001	-5.691223e+001	7.966603e+001	-2.000000e+002	0.000000e+000	-2.000000e+002	0.000000e+000
54699160.000	-1.172127e-002	-1.771186e+001	-5.684491e+001	7.926300e+001	-2.000000e+002	0.000000e+000	-2.000000e+002	0.000000e+000
55349150.000	-1.183996e-002	-1.791857e+001	-5.680594e+001	7.958441e+001	-2.000000e+002	0.000000e+000	-2.000000e+002	0.000000e+000
55999140.000	-1.216421e-002	-1.812740e+001	-5.677758e+001	8.027726e+001	-2.000000e+002	0.000000e+000	-2.000000e+002	0.000000e+000
56649130.000	-1.330896e-002	-1.833588e+001	-5.660384e+001	8.083220e+001	-2.000000e+002	0.000000e+000	-2.000000e+002	0.000000e+000
57299120.000	-1.365312e-002	-1.854245e+001	-5.632306e+001	8.119040e+001	-2.000000e+002	0.000000e+000	-2.000000e+002	0.000000e+000
57949110.000	-1.415680e-002	-1.874679e+001	-5.616669e+001	7.939455e+001	-2.000000e+002	0.000000e+000	-2.000000e+002	0.000000e+000
58599100.000	-1.389117e-002	-1.895218e+001	-5.626163e+001	7.906837e+001	-2.000000e+002	0.000000e+000	-2.000000e+002	0.000000e+000
59249090.000	-1.491723e-002	-1.915896e+001	-5.622054e+001	8.013448e+001	-2.000000e+002	0.000000e+000	-2.000000e+002	0.000000e+000
59899080.000	-1.507798e-002	-1.936541e+001	-5.614917e+001	8.075366e+001	-2.000000e+002	0.000000e+000	-2.000000e+002	0.000000e+000
60549070.000	-1.656610e-002	-1.956934e+001	-5.597744e+001	8.141137e+001	-2.000000e+002	0.000000e+000	-2.000000e+002	0.000000e+000
61199060.000	-1.722646e-002	-1.977188e+001	-5.570949e+001	8.171436e+001	-2.000000e+002	0.000000e+000	-2.000000e+002	0.000000e+000
61849050.000	-1.765135e-002	-1.997535e+001	-5.550829e+001	8.157578e+001	-2.000000e+002	0.000000e+000	-2.000000e+002	0.000000e+000
62499040.000	-1.871822e-002	-2.018095e+001	-5.536138e+001	8.117954e+001	-2.000000e+002	0.000000e+000	-2.000000e+002	0.000000e+000
63149030.000	-1.874302e-002	-2.038461e+001	-5.520064e+001	8.084909e+001	-2.000000e+002	0.000000e+000	-2.000000e+002	0.000000e+000
63799020.000	-1.971412e-002	-2.059160e+001	-5.505652e+001	8.084401e+001	-2.000000e+002	0.000000e+000	-2.000000e+002	0.000000e+000
64449010.000	-2.052118e-002	-2.079456e+001	-5.489115e+001	8.098212e+001	-2.000000e+002	0.000000e+000	-2.000000e+002	0.000000e+000
65099000.000	-2.142292e-002	-2.099612e+001	-5.469906e+001	8.109919e+001	-2.000000e+002	0.000000e+000	-2.000000e+002	0.000000e+000
65748990.000	-2.116155e-002	-2.120282e+001	-5.447428e+001	8.082239e+001	-2.000000e+002	0.000000e+000	-2.000000e+002	0.000000e+000
66398980.000	-2.170811e-002	-2.140791e+001	-5.426166e+001	8.033589e+001	-2.000000e+002	0.000000e+000	-2.000000e+002	0.000000e+000
67048970.000	-2.145170e-002	-2.161448e+001	-5.406425e+001	7.980922e+001	-2.000000e+002	0.000000e+000	-2.000000e+002	0.000000e+000
67698960.000	-2.243823e-002	-2.181370e+001	-5.391085e+001	7.872470e+001	-2.000000e+002	0.000000e+000	-2.000000e+002	0.000000e+000
68348950.000	-2.285104e-002	-2.201950e+001	-5.379388e+001	7.803750e+001	-2.000000e+002	0.000000e+000	-2.000000e+002	0.000000e+000
68998940.000	-2.294419e-002	-2.222478e+001	-5.360346e+001	7.701089e+001	-2.000000e+002	0.000000e+000	-2.000000e+002	0.000000e+000
69648930.000	-2.294712e-002	-2.242955e+001	-5.352046e+001	7.597413e+001	-2.000000e+002	0.000000e+000	-2.000000e+002	0.000000e+000
70298920.000	-2.297367e-002	-2.264173e+001	-5.346165e+001	7.499977e+001	-2.000000e+002	0.000000e+000	-2.000000e+002	0.000000e+000
70948910.000	-2.351673e-002	-2.284929e+001	-5.342186e+001	7.420073e+001	-2.000000e+002	0.000000e+000	-2.000000e+002	0.000000e+000
71598900.000	-2.309057e-002	-2.305496e+001	-5.336454e+001	7.380046e+001	-2.000000e+002	0.000000e+000	-2.000000e+002	0.000000e+000
72248890.000	-2.403569e-002	-2.326184e+001	-5.335581e+001	7.321057e+001	-2.000000e+002	0.000000e+000	-2.000000e+002	0.000000e+000
72898880.000	-2.393947e-002	-2.347116e+001	-5.329572e+001	7.311981e+001	-2.000000e+002	0.000000e+000	-2.000000e+002	0.000000e+000
73548870.000	-2.506355e-002	-2.367549e+001	-5.319336e+001	7.245952e+001	-2.000000e+002	0.000000e+000	-2.000000e+002	0.000000e+000
74198860.000	-2.483706e-002	-2.388010e+001	-5.318003e+001	7.198022e+001	-2.000000e+002	0.000000e+000	-2.000000e+002	0.000000e+000
74848850.000	-2.536035e-002	-2.409106e+001	-5.312460e+001	7.143185e+001	-2.000000e+002	0.000000e+000	-2.000000e+002	0.000000e+000
75498840.000	-2.551166e-002	-2.429720e+001	-5.308683e+001	7.173859e+001	-2.000000e+002	0.000000e+000	-2.000000e+002	0.000000e+000
76148830.000	-2.544018e-002	-2.450320e+001	-5.301976e+001	7.106953e+001	-2.000000e+002	0.000000e+000	-2.000000e+002	0.000000e+000
76798820.000	-2.523180e-002	-2.470722e+001	-5.294507e+001	7.072603e+001	-2.000000e+002	0.000000e+000	-2.000000e+002	0.000000e+000
77448810.000	-2.672795e-002	-2.490590e+001	-5.289772e+001	7.019346e+001	-2.000000e+002	0.000000e+000	-2.000000e+002	0.000000e+000
78098800.000	-2.698472e-002	-2.511525e+001	-5.283323e+001	6.980182e+001	-2.000000e+002	0.000000e+000	-2.000000e+002	0.000000e+000
78748790.000	-2.767719e-002	-2.531957e+001	-5.279697e+001	6.953817e+001	-2.000000e+002	0.000000e+000	-2.000000e+002	0.000000e+000
79398780.000	-2.732873e-002	-2.552676e+001	-5.277597e+001	6.928395e+001	-2.000000e+002	0.000000e+000	-2.000000e+002	0.000000e+000
80048770.000	-2.769603e-002	-2.574205e+001	-5.272386e+001	6.882445e+001	-2.000000e+002	0.000000e+000	-2.000000e+002	0.000000e+000
80698760.000	-2.800066e-002	-2.594769e+001	-5.267017e+001	6.860097e+001	-2.000000e+002	0.000000e+000	-2.000000e+002	0.000000e+000
81348750.000	-2.855056e-002	-2.615590e+001	-5.266449e+001	6.843537e+001	-2.000000e+002	0.000000e+000	-2.000000e+002	0.000000e+000
81998740.000	-2.839307e-002	-2.636467e+001	-5.262977e+001	6.850519e+001	-2.000000e+002	0.000000e+000	-2.000000e+002	0.000000e+000
82648730.000	-2.898915e-002	-2.656536e+001	-5.260824e+001	6.830224e+001	-2.000000e+002	0.000000e+000	-2.000000e+002	0.000000e+000
83298720.000	-2.965529e-002	-2.677250e+001	-5.258251e+001	6.818460e+001	-2.000000e+002	0.000000e+000	-2.000000e+002	0.000000e+000
83948710.000	-2.993868e-002	-2.698287e+001	-5.255005e+001	6.803832e+001	-2.000000e+002	0.000000e+000	-2.000000e+002	0.000000e+000
84598700.000	-3.030752e-002	-2.718878e+001	-5.247290e+001	6.814592e+001	-2.000000e+002	0.000000e+000	-2.000000e+002	0.000000e+000
85248690.000	-3.065985e-002	-2.739697e+001	-5.240814e+001	6.773386e+001	-2.000000e+002	0.000000e+000	-2.000000e+002	0.000000e+000
85898680.000	-3.121720e-002	-2.760529e+001	-5.233944e+001	6.799893e+001	-2.000000e+002	0.000000e+000	-2.000000e+002	0.000000e+000
86548670.000	-3.190099e-002	-2.780912e+001	-5.228870e+001	6.801099e+001	-2.000000e+002	0.000000e+000	-2.000000e+002	0.000000e+000
87198660.000	-3.176913e-002	-2.801393e+001	-5.219625e+001	6.766355e+001	-2.000000e+002	0.000000e+000	-2.000000e+002	0.000000e+000
87848650.000	-3.267875e-002	-2.821929e+001	-5.215302e+001	6.780725e+001	-2.000000e+002	0.000000e+000	-2.000000e+002	0.000000e+000
88498640.000	-3.316074e-002	-2.842207e+001	-5.209601e+001	6.735929e+001	-2.000000e+002	0.000000e+000	-2.000000e+002	0.000000e+000
89148630.000	-3.407139e-002	-2.862957e+001	-5.203171e+001	6.721247e+001	-2.000000e+002	0.000000e+000	-2.000000e+002	0.000000e+000
89798620.000	-3.437639e-002	-2.883816e+001	-5.199692e+001	6.706700e+001	-2.000000e+002	0.000000e+000	-2.000000e+002	0.000000e+000
90448610.000	-3.386249e-002	-2.904520e+001	-5.195851e+001	6.712145e+001	-2.000000e+002	0.000000e+000	-2.000000e+002	0.000000e+000
91098600.000	-3.507063e-002	-2.925599e+001	-5.190452e+001	6.683368e+001	-2.000000e+002	0.000000e+000	-2.000000e+002	0.000000e+000
91748590.000	-3.461001e-002	-2.946135e+001	-5.187962e+001	6.719075e+001	-2.000000e+002	0.000000e+000	-2.000000e+002	0.000000e+000
92398580.000	-3.475600e-002	-2.967094e+001	-5.179688e+001	6.705078e+001	-2.000000e+002	0.000000e+000	-2.000000e+002	0.000000e+000
93048570.000	-3.495937e-002	-2.988228e+001	-5.180042e+001	6.724059e+001	-2.000000e+002	0.000000e+000	-2.000000e+002	0.000000e+000
93698560.000	-3.590308e-002	-3.009128e+001	-5.168209e+001	6.694125e+001	-2.000000e+002	0.000000e+000	-2.000000e+002	0.000000e+000
94348550.000	-3.584944e-002	-3.029880e+001	-5.163161e+001	6.738634e+001	-2.000000e+002	0.000000e+000	-2.000000e+002	0.000000e+000
94998540.000	-3.707516e-002	-3.050578e+001	-5.166965e+001	6.716969e+001	-2.000000e+002	0.000000e+000	-2.000000e+002	0.000000e+000
95648530.000	-3.710009e-002	-3.071018e+001	-5.148457e+001	6.645770e+001	-2.000000e+002	0.000000e+000	-2.000000e+002	0.000000e+000
96298520.000	-3.723477e-002	-3.091402e+001	-5.144379e+001	6.654444e+001	-2.000000e+002	0.000000e+000	-2.000000e+002	0.000000e+000
96948510.000	-3.792357e-002	-3.111993e+001	-5.139724e+001	6.643985e+001	-2.000000e+002	0.000000e+000	-2.000000e+002	0.000000e+000
97598500.000	-3.877610e-002	-3.132891e+001	-5.134006e+001	6.636522e+001	-2.000000e+002	0.000000e+000	-2.000000e+002	0.000000e+000
98248490.000	-3.818058e-002	-3.153123e+001	-5.134372e+001	6.634344e+001	-2.000000e+002	0.000000e+000	-2.000000e+002	0.000000e+000
