!Keysight Technologies,E5063A,MY54503115,A.05.08
!Date: Wed Nov 22 14:45:32 2023
!Data & Calibration Information:
!Freq	S11:NONE(--)	S21:NONE(--)	S12:NONE(--)	S22:NONE(--)
# Hz S dB R 50
100000.000	5.014797e-002	-6.420774e-001	-8.305185e+001	6.188484e+001	-2.000000e+002	0.000000e+000	-2.000000e+002	0.000000e+000
749990.000	-2.796029e-003	-5.905762e-001	-8.284069e+001	-1.737649e+002	-2.000000e+002	0.000000e+000	-2.000000e+002	0.000000e+000
1399980.000	-1.126612e-003	-7.637633e-001	-9.319530e+001	1.546707e+002	-2.000000e+002	0.000000e+000	-2.000000e+002	0.000000e+000
2049970.000	-1.817893e-003	-9.509725e-001	-8.386146e+001	1.405607e+002	-2.000000e+002	0.000000e+000	-2.000000e+002	0.000000e+000
2699960.000	-3.303439e-003	-1.153383e+000	-8.241267e+001	1.230746e+002	-2.000000e+002	0.000000e+000	-2.000000e+002	0.000000e+000
3349950.000	-7.605949e-004	-1.369119e+000	-8.023561e+001	9.148584e+001	-2.000000e+002	0.000000e+000	-2.000000e+002	0.000000e+000
3999940.000	-1.688442e-003	-1.562094e+000	-7.682670e+001	1.030771e+002	-2.000000e+002	0.000000e+000	-2.000000e+002	0.000000e+000
4649930.000	-8.989072e-004	-1.780094e+000	-7.805241e+001	7.410133e+001	-2.000000e+002	0.000000e+000	-2.000000e+002	0.000000e+000
5299920.000	-1.780874e-003	-1.975865e+000	-7.690050e+001	9.112870e+001	-2.000000e+002	0.000000e+000	-2.000000e+002	0.000000e+000
5949910.000	-2.887254e-003	-2.191879e+000	-7.556110e+001	7.554927e+001	-2.000000e+002	0.000000e+000	-2.000000e+002	0.000000e+000
6599900.000	-2.941328e-003	-2.392211e+000	-7.572440e+001	8.722288e+001	-2.000000e+002	0.000000e+000	-2.000000e+002	0.000000e+000
7249890.000	-2.399685e-003	-2.595147e+000	-7.592775e+001	8.124298e+001	-2.000000e+002	0.000000e+000	-2.000000e+002	0.000000e+000
7899880.000	-3.157421e-003	-2.808796e+000	-7.434481e+001	8.422727e+001	-2.000000e+002	0.000000e+000	-2.000000e+002	0.000000e+000
8549870.000	-3.988046e-005	-3.028645e+000	-7.360924e+001	8.691310e+001	-2.000000e+002	0.000000e+000	-2.000000e+002	0.000000e+000
9199860.000	-1.321786e-003	-3.236417e+000	-7.271961e+001	8.844233e+001	-2.000000e+002	0.000000e+000	-2.000000e+002	0.000000e+000
9849850.000	-1.141135e-003	-3.440772e+000	-7.258367e+001	8.673667e+001	-2.000000e+002	0.000000e+000	-2.000000e+002	0.000000e+000
10499840.000	-2.266944e-003	-3.639518e+000	-7.190241e+001	8.774969e+001	-2.000000e+002	0.000000e+000	-2.000000e+002	0.000000e+000
11149830.000	-3.870452e-003	-3.835965e+000	-7.068609e+001	8.748366e+001	-2.000000e+002	0.000000e+000	-2.000000e+002	0.000000e+000
11799820.000	-4.133961e-003	-4.041979e+000	-7.059209e+001	8.733674e+001	-2.000000e+002	0.000000e+000	-2.000000e+002	0.000000e+000
12449810.000	-2.746356e-003	-4.257325e+000	-7.030081e+001	8.605184e+001	-2.000000e+002	0.000000e+000	-2.000000e+002	0.000000e+000
13099800.000	-1.913026e-003	-4.475092e+000	-6.985513e+001	8.592466e+001	-2.000000e+002	0.000000e+000	-2.000000e+002	0.000000e+000
13749790.000	-2.679658e-003	-4.677090e+000	-6.938188e+001	8.550140e+001	-2.000000e+002	0.000000e+000	-2.000000e+002	0.000000e+000
14399780.000	-3.214101e-003	-4.891896e+000	-6.894469e+001	8.575976e+001	-2.000000e+002	0.000000e+000	-2.000000e+002	0.000000e+000
15049770.000	-4.414078e-003	-5.107690e+000	-6.837269e+001	8.436131e+001	-2.000000e+002	0.000000e+000	-2.000000e+002	0.000000e+000
15699760.000	-2.898501e-003	-5.296438e+000	-6.834630e+001	8.538656e+001	-2.000000e+002	0.000000e+000	-2.000000e+002	0.000000e+000
16349750.000	-2.951422e-003	-5.497137e+000	-6.794586e+001	8.573882e+001	-2.000000e+002	0.000000e+000	-2.000000e+002	0.000000e+000
16999740.000	-5.336844e-003	-5.711000e+000	-6.771336e+001	8.397542e+001	-2.000000e+002	0.000000e+000	-2.000000e+002	0.000000e+000
17649730.000	1.237912e-003	-5.942391e+000	-6.715513e+001	8.520185e+001	-2.000000e+002	0.000000e+000	-2.000000e+002	0.000000e+000
18299720.000	4.392692e-003	-6.159187e+000	-6.689277e+001	8.472565e+001	-2.000000e+002	0.000000e+000	-2.000000e+002	0.000000e+000
18949710.000	2.684436e-003	-6.360108e+000	-6.677544e+001	8.554878e+001	-2.000000e+002	0.000000e+000	-2.000000e+002	0.000000e+000
19599700.000	-2.332271e-003	-6.535676e+000	-6.634509e+001	8.374922e+001	-2.000000e+002	0.000000e+000	-2.000000e+002	0.000000e+000
20249690.000	-5.989827e-003	-6.722290e+000	-6.617870e+001	8.439584e+001	-2.000000e+002	0.000000e+000	-2.000000e+002	0.000000e+000
20899680.000	-7.635287e-003	-6.959344e+000	-6.599377e+001	8.352878e+001	-2.000000e+002	0.000000e+000	-2.000000e+002	0.000000e+000
21549670.000	-7.694744e-003	-7.175452e+000	-6.569369e+001	8.438354e+001	-2.000000e+002	0.000000e+000	-2.000000e+002	0.000000e+000
22199660.000	-5.951911e-003	-7.368385e+000	-6.558617e+001	8.395875e+001	-2.000000e+002	0.000000e+000	-2.000000e+002	0.000000e+000
22849650.000	-2.211201e-003	-7.545189e+000	-6.526805e+001	8.363547e+001	-2.000000e+002	0.000000e+000	-2.000000e+002	0.000000e+000
23499640.000	-2.921276e-003	-7.750740e+000	-6.520675e+001	8.446610e+001	-2.000000e+002	0.000000e+000	-2.000000e+002	0.000000e+000
24149630.000	-4.886426e-003	-7.964787e+000	-6.475621e+001	8.458419e+001	-2.000000e+002	0.000000e+000	-2.000000e+002	0.000000e+000
24799620.000	-4.095849e-003	-8.171180e+000	-6.452144e+001	8.537567e+001	-2.000000e+002	0.000000e+000	-2.000000e+002	0.000000e+000
25449610.000	-1.255670e-003	-8.377825e+000	-6.424984e+001	8.463335e+001	-2.000000e+002	0.000000e+000	-2.000000e+002	0.000000e+000
26099600.000	-1.787754e-003	-8.583217e+000	-6.416871e+001	8.441791e+001	-2.000000e+002	0.000000e+000	-2.000000e+002	0.000000e+000
26749590.000	-2.595676e-003	-8.792894e+000	-6.388689e+001	8.444780e+001	-2.000000e+002	0.000000e+000	-2.000000e+002	0.000000e+000
27399580.000	-3.166465e-003	-9.004886e+000	-6.356863e+001	8.418990e+001	-2.000000e+002	0.000000e+000	-2.000000e+002	0.000000e+000
28049570.000	-2.476247e-003	-9.219878e+000	-6.358975e+001	8.412930e+001	-2.000000e+002	0.000000e+000	-2.000000e+002	0.000000e+000
28699560.000	-2.435758e-003	-9.419090e+000	-6.346456e+001	8.473817e+001	-2.000000e+002	0.000000e+000	-2.000000e+002	0.000000e+000
29349550.000	-3.021661e-003	-9.620501e+000	-6.316528e+001	8.435717e+001	-2.000000e+002	0.000000e+000	-2.000000e+002	0.000000e+000
29999540.000	-3.164425e-003	-9.826814e+000	-6.307458e+001	8.681509e+001	-2.000000e+002	0.000000e+000	-2.000000e+002	0.000000e+000
30649530.000	-3.434148e-003	-1.003751e+001	-6.264730e+001	8.585567e+001	-2.000000e+002	0.000000e+000	-2.000000e+002	0.000000e+000
31299520.000	-3.419267e-003	-1.025623e+001	-6.235762e+001	8.697543e+001	-2.000000e+002	0.000000e+000	-2.000000e+002	0.000000e+000
31949510.000	-3.012638e-003	-1.046012e+001	-6.210013e+001	8.649618e+001	-2.000000e+002	0.000000e+000	-2.000000e+002	0.000000e+000
32599500.000	-4.355299e-003	-1.066517e+001	-6.183215e+001	8.565203e+001	-2.000000e+002	0.000000e+000	-2.000000e+002	0.000000e+000
33249490.000	-4.015380e-003	-1.087638e+001	-6.173363e+001	8.588663e+001	-2.000000e+002	0.000000e+000	-2.000000e+002	0.000000e+000
33899480.000	-4.530235e-003	-1.108490e+001	-6.146736e+001	8.543091e+001	-2.000000e+002	0.000000e+000	-2.000000e+002	0.000000e+000
34549470.000	-4.414314e-003	-1.128190e+001	-6.120038e+001	8.541555e+001	-2.000000e+002	0.000000e+000	-2.000000e+002	0.000000e+000
35199460.000	-4.451156e-003	-1.148546e+001	-6.101786e+001	8.501439e+001	-2.000000e+002	0.000000e+000	-2.000000e+002	0.000000e+000
35849450.000	-4.439581e-003	-1.168965e+001	-6.082167e+001	8.398517e+001	-2.000000e+002	0.000000e+000	-2.000000e+002	0.000000e+000
36499440.000	-4.845962e-003	-1.189591e+001	-6.070684e+001	8.385589e+001	-2.000000e+002	0.000000e+000	-2.000000e+002	0.000000e+000
37149430.000	-5.279075e-003	-1.210171e+001	-6.054138e+001	8.373883e+001	-2.000000e+002	0.000000e+000	-2.000000e+002	0.000000e+000
37799420.000	-5.102130e-003	-1.231042e+001	-6.046298e+001	8.284074e+001	-2.000000e+002	0.000000e+000	-2.000000e+002	0.000000e+000
38449410.000	-5.189004e-003	-1.252131e+001	-6.033425e+001	8.286782e+001	-2.000000e+002	0.000000e+000	-2.000000e+002	0.000000e+000
39099400.000	-5.454518e-003	-1.273115e+001	-6.024494e+001	8.300742e+001	-2.000000e+002	0.000000e+000	-2.000000e+002	0.000000e+000
39749390.000	-6.743060e-003	-1.294440e+001	-6.014086e+001	8.324256e+001	-2.000000e+002	0.000000e+000	-2.000000e+002	0.000000e+000
40399380.000	-6.783679e-003	-1.315679e+001	-5.998897e+001	8.285387e+001	-2.000000e+002	0.000000e+000	-2.000000e+002	0.000000e+000
41049370.000	-6.180738e-003	-1.336205e+001	-5.987314e+001	8.355994e+001	-2.000000e+002	0.000000e+000	-2.000000e+002	0.000000e+000
41699360.000	-5.368981e-003	-1.356776e+001	-5.972258e+001	8.323229e+001	-2.000000e+002	0.000000e+000	-2.000000e+002	0.000000e+000
42349350.000	-5.374836e-003	-1.377117e+001	-5.954675e+001	8.376991e+001	-2.000000e+002	0.000000e+000	-2.000000e+002	0.000000e+000
42999340.000	-6.590497e-003	-1.397623e+001	-5.937065e+001	8.351201e+001	-2.000000e+002	0.000000e+000	-2.000000e+002	0.000000e+000
43649330.000	-6.295149e-003	-1.418151e+001	-5.924316e+001	8.308696e+001	-2.000000e+002	0.000000e+000	-2.000000e+002	0.000000e+000
44299320.000	-6.506895e-003	-1.439296e+001	-5.918463e+001	8.354731e+001	-2.000000e+002	0.000000e+000	-2.000000e+002	0.000000e+000
44949310.000	-6.331903e-003	-1.460138e+001	-5.911684e+001	8.342391e+001	-2.000000e+002	0.000000e+000	-2.000000e+002	0.000000e+000
45599300.000	-6.914287e-003	-1.481191e+001	-5.900161e+001	8.350524e+001	-2.000000e+002	0.000000e+000	-2.000000e+002	0.000000e+000
46249290.000	-7.770394e-003	-1.501882e+001	-5.884165e+001	8.453903e+001	-2.000000e+002	0.000000e+000	-2.000000e+002	0.000000e+000
46899280.000	-7.958435e-003	-1.522281e+001	-5.862563e+001	8.492140e+001	-2.000000e+002	0.000000e+000	-2.000000e+002	0.000000e+000
47549270.000	-9.295351e-003	-1.542920e+001	-5.832685e+001	8.579334e+001	-2.000000e+002	0.000000e+000	-2.000000e+002	0.000000e+000
48199260.000	-1.057156e-002	-1.563645e+001	-5.796484e+001	8.547644e+001	-2.000000e+002	0.000000e+000	-2.000000e+002	0.000000e+000
48849250.000	-1.157828e-002	-1.584677e+001	-5.771765e+001	8.503180e+001	-2.000000e+002	0.000000e+000	-2.000000e+002	0.000000e+000
49499240.000	-1.109231e-002	-1.604869e+001	-5.753202e+001	8.364114e+001	-2.000000e+002	0.000000e+000	-2.000000e+002	0.000000e+000
50149230.000	-1.162106e-002	-1.625609e+001	-5.741474e+001	8.285181e+001	-2.000000e+002	0.000000e+000	-2.000000e+002	0.000000e+000
50799220.000	-1.142722e-002	-1.646922e+001	-5.723707e+001	8.202512e+001	-2.000000e+002	0.000000e+000	-2.000000e+002	0.000000e+000
51449210.000	-1.060818e-002	-1.667343e+001	-5.716179e+001	8.126370e+001	-2.000000e+002	0.000000e+000	-2.000000e+002	0.000000e+000
52099200.000	-1.091367e-002	-1.688045e+001	-5.709381e+001	8.086131e+001	-2.000000e+002	0.000000e+000	-2.000000e+002	0.000000e+000
52749190.000	-1.101968e-002	-1.708706e+001	-5.695915e+001	8.066520e+001	-2.000000e+002	0.000000e+000	-2.000000e+002	0.000000e+000
53399180.000	-1.156343e-002	-1.729482e+001	-5.692441e+001	8.016199e+001	-2.000000e+002	0.000000e+000	-2.000000e+002	0.000000e+000
54049170.000	-1.156576e-002	-1.750380e+001	-5.685449e+001	7.999528e+001	-2.000000e+002	0.000000e+000	-2.000000e+002	0.000000e+000
54699160.000	-1.185429e-002	-1.771309e+001	-5.685847e+001	7.972857e+001	-2.000000e+002	0.000000e+000	-2.000000e+002	0.000000e+000
55349150.000	-1.195911e-002	-1.792329e+001	-5.683462e+001	7.987054e+001	-2.000000e+002	0.000000e+000	-2.000000e+002	0.000000e+000
55999140.000	-1.262111e-002	-1.813030e+001	-5.673453e+001	8.058819e+001	-2.000000e+002	0.000000e+000	-2.000000e+002	0.000000e+000
56649130.000	-1.347357e-002	-1.833876e+001	-5.656863e+001	8.118890e+001	-2.000000e+002	0.000000e+000	-2.000000e+002	0.000000e+000
57299120.000	-1.403137e-002	-1.854376e+001	-5.626954e+001	8.078340e+001	-2.000000e+002	0.000000e+000	-2.000000e+002	0.000000e+000
57949110.000	-1.435043e-002	-1.874891e+001	-5.616233e+001	7.954492e+001	-2.000000e+002	0.000000e+000	-2.000000e+002	0.000000e+000
58599100.000	-1.417654e-002	-1.895297e+001	-5.631352e+001	7.918699e+001	-2.000000e+002	0.000000e+000	-2.000000e+002	0.000000e+000
59249090.000	-1.533689e-002	-1.916296e+001	-5.628013e+001	8.038725e+001	-2.000000e+002	0.000000e+000	-2.000000e+002	0.000000e+000
59899080.000	-1.541081e-002	-1.936649e+001	-5.610044e+001	8.103944e+001	-2.000000e+002	0.000000e+000	-2.000000e+002	0.000000e+000
60549070.000	-1.690627e-002	-1.957189e+001	-5.594876e+001	8.186937e+001	-2.000000e+002	0.000000e+000	-2.000000e+002	0.000000e+000
61199060.000	-1.758789e-002	-1.977522e+001	-5.566309e+001	8.194042e+001	-2.000000e+002	0.000000e+000	-2.000000e+002	0.000000e+000
61849050.000	-1.809124e-002	-1.997738e+001	-5.551500e+001	8.188491e+001	-2.000000e+002	0.000000e+000	-2.000000e+002	0.000000e+000
62499040.000	-1.916440e-002	-2.018107e+001	-5.528450e+001	8.150588e+001	-2.000000e+002	0.000000e+000	-2.000000e+002	0.000000e+000
63149030.000	-1.945025e-002	-2.038650e+001	-5.514770e+001	8.080101e+001	-2.000000e+002	0.000000e+000	-2.000000e+002	0.000000e+000
63799020.000	-1.993969e-002	-2.059054e+001	-5.503515e+001	8.098505e+001	-2.000000e+002	0.000000e+000	-2.000000e+002	0.000000e+000
64449010.000	-2.114922e-002	-2.079539e+001	-5.487825e+001	8.115597e+001	-2.000000e+002	0.000000e+000	-2.000000e+002	0.000000e+000
65099000.000	-2.166170e-002	-2.099826e+001	-5.466927e+001	8.110358e+001	-2.000000e+002	0.000000e+000	-2.000000e+002	0.000000e+000
65748990.000	-2.153027e-002	-2.120487e+001	-5.447275e+001	8.077503e+001	-2.000000e+002	0.000000e+000	-2.000000e+002	0.000000e+000
66398980.000	-2.199948e-002	-2.140739e+001	-5.421965e+001	8.044446e+001	-2.000000e+002	0.000000e+000	-2.000000e+002	0.000000e+000
67048970.000	-2.196265e-002	-2.161420e+001	-5.403466e+001	7.953464e+001	-2.000000e+002	0.000000e+000	-2.000000e+002	0.000000e+000
67698960.000	-2.259758e-002	-2.181842e+001	-5.389934e+001	7.849018e+001	-2.000000e+002	0.000000e+000	-2.000000e+002	0.000000e+000
68348950.000	-2.308275e-002	-2.202008e+001	-5.374624e+001	7.771494e+001	-2.000000e+002	0.000000e+000	-2.000000e+002	0.000000e+000
68998940.000	-2.340642e-002	-2.222652e+001	-5.359493e+001	7.673565e+001	-2.000000e+002	0.000000e+000	-2.000000e+002	0.000000e+000
69648930.000	-2.367606e-002	-2.243205e+001	-5.349680e+001	7.575299e+001	-2.000000e+002	0.000000e+000	-2.000000e+002	0.000000e+000
70298920.000	-2.276800e-002	-2.264467e+001	-5.346913e+001	7.496232e+001	-2.000000e+002	0.000000e+000	-2.000000e+002	0.000000e+000
70948910.000	-2.378530e-002	-2.285225e+001	-5.342640e+001	7.431682e+001	-2.000000e+002	0.000000e+000	-2.000000e+002	0.000000e+000
71598900.000	-2.363731e-002	-2.306000e+001	-5.337644e+001	7.359626e+001	-2.000000e+002	0.000000e+000	-2.000000e+002	0.000000e+000
72248890.000	-2.419146e-002	-2.326598e+001	-5.336025e+001	7.330791e+001	-2.000000e+002	0.000000e+000	-2.000000e+002	0.000000e+000
72898880.000	-2.401561e-002	-2.347201e+001	-5.327152e+001	7.264257e+001	-2.000000e+002	0.000000e+000	-2.000000e+002	0.000000e+000
73548870.000	-2.522331e-002	-2.367772e+001	-5.324287e+001	7.240550e+001	-2.000000e+002	0.000000e+000	-2.000000e+002	0.000000e+000
74198860.000	-2.473938e-002	-2.388315e+001	-5.317506e+001	7.211725e+001	-2.000000e+002	0.000000e+000	-2.000000e+002	0.000000e+000
74848850.000	-2.537900e-002	-2.409316e+001	-5.309222e+001	7.146754e+001	-2.000000e+002	0.000000e+000	-2.000000e+002	0.000000e+000
75498840.000	-2.558996e-002	-2.429931e+001	-5.309349e+001	7.110371e+001	-2.000000e+002	0.000000e+000	-2.000000e+002	0.000000e+000
76148830.000	-2.559843e-002	-2.450461e+001	-5.304143e+001	7.081908e+001	-2.000000e+002	0.000000e+000	-2.000000e+002	0.000000e+000
76798820.000	-2.517034e-002	-2.470924e+001	-5.292276e+001	7.049883e+001	-2.000000e+002	0.000000e+000	-2.000000e+002	0.000000e+000
77448810.000	-2.712402e-002	-2.490711e+001	-5.291761e+001	7.018010e+001	-2.000000e+002	0.000000e+000	-2.000000e+002	0.000000e+000
78098800.000	-2.730283e-002	-2.511550e+001	-5.288734e+001	6.991501e+001	-2.000000e+002	0.000000e+000	-2.000000e+002	0.000000e+000
78748790.000	-2.765420e-002	-2.532224e+001	-5.284223e+001	6.945479e+001	-2.000000e+002	0.000000e+000	-2.000000e+002	0.000000e+000
79398780.000	-2.750257e-002	-2.552595e+001	-5.277543e+001	6.903875e+001	-2.000000e+002	0.000000e+000	-2.000000e+002	0.000000e+000
80048770.000	-2.794725e-002	-2.574274e+001	-5.274643e+001	6.879893e+001	-2.000000e+002	0.000000e+000	-2.000000e+002	0.000000e+000
80698760.000	-2.835794e-002	-2.595128e+001	-5.268364e+001	6.851518e+001	-2.000000e+002	0.000000e+000	-2.000000e+002	0.000000e+000
81348750.000	-2.817055e-002	-2.615855e+001	-5.268299e+001	6.824264e+001	-2.000000e+002	0.000000e+000	-2.000000e+002	0.000000e+000
81998740.000	-2.871981e-002	-2.636641e+001	-5.262407e+001	6.851329e+001	-2.000000e+002	0.000000e+000	-2.000000e+002	0.000000e+000
82648730.000	-2.903985e-002	-2.656614e+001	-5.261155e+001	6.793024e+001	-2.000000e+002	0.000000e+000	-2.000000e+002	0.000000e+000
83298720.000	-3.021204e-002	-2.677584e+001	-5.259349e+001	6.822789e+001	-2.000000e+002	0.000000e+000	-2.000000e+002	0.000000e+000
83948710.000	-3.028032e-002	-2.698219e+001	-5.254375e+001	6.822949e+001	-2.000000e+002	0.000000e+000	-2.000000e+002	0.000000e+000
84598700.000	-3.034679e-002	-2.719185e+001	-5.249208e+001	6.801428e+001	-2.000000e+002	0.000000e+000	-2.000000e+002	0.000000e+000
85248690.000	-3.088910e-002	-2.739897e+001	-5.240626e+001	6.821307e+001	-2.000000e+002	0.000000e+000	-2.000000e+002	0.000000e+000
85898680.000	-3.154402e-002	-2.760777e+001	-5.236756e+001	6.791294e+001	-2.000000e+002	0.000000e+000	-2.000000e+002	0.000000e+000
86548670.000	-3.206399e-002	-2.781247e+001	-5.228359e+001	6.782083e+001	-2.000000e+002	0.000000e+000	-2.000000e+002	0.000000e+000
87198660.000	-3.203015e-002	-2.801526e+001	-5.219600e+001	6.755101e+001	-2.000000e+002	0.000000e+000	-2.000000e+002	0.000000e+000
87848650.000	-3.296177e-002	-2.822072e+001	-5.213864e+001	6.743415e+001	-2.000000e+002	0.000000e+000	-2.000000e+002	0.000000e+000
88498640.000	-3.322368e-002	-2.842469e+001	-5.211378e+001	6.729422e+001	-2.000000e+002	0.000000e+000	-2.000000e+002	0.000000e+000
89148630.000	-3.442142e-002	-2.863184e+001	-5.206209e+001	6.703469e+001	-2.000000e+002	0.000000e+000	-2.000000e+002	0.000000e+000
89798620.000	-3.469013e-002	-2.883962e+001	-5.206556e+001	6.682742e+001	-2.000000e+002	0.000000e+000	-2.000000e+002	0.000000e+000
90448610.000	-3.415797e-002	-2.904795e+001	-5.195611e+001	6.687802e+001	-2.000000e+002	0.000000e+000	-2.000000e+002	0.000000e+000
91098600.000	-3.519679e-002	-2.925932e+001	-5.191737e+001	6.688278e+001	-2.000000e+002	0.000000e+000	-2.000000e+002	0.000000e+000
91748590.000	-3.488371e-002	-2.946665e+001	-5.190706e+001	6.709734e+001	-2.000000e+002	0.000000e+000	-2.000000e+002	0.000000e+000
92398580.000	-3.493766e-002	-2.967491e+001	-5.187485e+001	6.694038e+001	-2.000000e+002	0.000000e+000	-2.000000e+002	0.000000e+000
93048570.000	-3.480886e-002	-2.988191e+001	-5.190080e+001	6.654204e+001	-2.000000e+002	0.000000e+000	-2.000000e+002	0.000000e+000
93698560.000	-3.587440e-002	-3.009289e+001	-5.172638e+001	6.693098e+001	-2.000000e+002	0.000000e+000	-2.000000e+002	0.000000e+000
94348550.000	-3.571421e-002	-3.030171e+001	-5.165632e+001	6.640983e+001	-2.000000e+002	0.000000e+000	-2.000000e+002	0.000000e+000
94998540.000	-3.644473e-002	-3.050989e+001	-5.155933e+001	6.611173e+001	-2.000000e+002	0.000000e+000	-2.000000e+002	0.000000e+000
95648530.000	-3.738102e-002	-3.071588e+001	-5.155448e+001	6.654480e+001	-2.000000e+002	0.000000e+000	-2.000000e+002	0.000000e+000
96298520.000	-3.742486e-002	-3.092019e+001	-5.151775e+001	6.654805e+001	-2.000000e+002	0.000000e+000	-2.000000e+002	0.000000e+000
96948510.000	-3.789667e-002	-3.112545e+001	-5.147013e+001	6.645246e+001	-2.000000e+002	0.000000e+000	-2.000000e+002	0.000000e+000
97598500.000	-3.892719e-002	-3.133453e+001	-5.144453e+001	6.666343e+001	-2.000000e+002	0.000000e+000	-2.000000e+002	0.000000e+000
98248490.000	-3.821123e-002	-3.153562e+001	-5.136859e+001	6.670776e+001	-2.000000e+002	0.000000e+000	-2.000000e+002	0.000000e+000
