!Keysight Technologies,E5063A,MY54503115,A.05.08
!Date: Wed Nov 22 20:09:50 2023
!Data & Calibration Information:
!Freq	S11:NONE(--)	S21:NONE(--)	S12:NONE(--)	S22:NONE(--)
# Hz S dB R 50
100000.000	4.535993e-002	-4.653775e-001	-9.249764e+001	6.379756e+001	-2.000000e+002	0.000000e+000	-2.000000e+002	0.000000e+000
749990.000	6.506307e-003	-5.837472e-001	-9.568002e+001	1.790044e+002	-2.000000e+002	0.000000e+000	-2.000000e+002	0.000000e+000
1399980.000	7.478161e-003	-7.677762e-001	-9.273474e+001	-1.632175e+002	-2.000000e+002	0.000000e+000	-2.000000e+002	0.000000e+000
2049970.000	7.150165e-003	-9.601398e-001	-8.040575e+001	1.168578e+002	-2.000000e+002	0.000000e+000	-2.000000e+002	0.000000e+000
2699960.000	6.294584e-003	-1.160699e+000	-8.007421e+001	9.153242e+001	-2.000000e+002	0.000000e+000	-2.000000e+002	0.000000e+000
3349950.000	8.830172e-003	-1.373460e+000	-7.789120e+001	9.815449e+001	-2.000000e+002	0.000000e+000	-2.000000e+002	0.000000e+000
3999940.000	8.232341e-003	-1.574012e+000	-7.792463e+001	9.624917e+001	-2.000000e+002	0.000000e+000	-2.000000e+002	0.000000e+000
4649930.000	8.921322e-003	-1.787676e+000	-7.576243e+001	1.026093e+002	-2.000000e+002	0.000000e+000	-2.000000e+002	0.000000e+000
5299920.000	7.891459e-003	-1.986029e+000	-7.524261e+001	9.077675e+001	-2.000000e+002	0.000000e+000	-2.000000e+002	0.000000e+000
5949910.000	7.665531e-003	-2.192922e+000	-7.301763e+001	8.783028e+001	-2.000000e+002	0.000000e+000	-2.000000e+002	0.000000e+000
6599900.000	7.169538e-003	-2.395815e+000	-7.370858e+001	8.435789e+001	-2.000000e+002	0.000000e+000	-2.000000e+002	0.000000e+000
7249890.000	6.878756e-003	-2.606359e+000	-7.218107e+001	9.000302e+001	-2.000000e+002	0.000000e+000	-2.000000e+002	0.000000e+000
7899880.000	6.255422e-003	-2.815359e+000	-7.117134e+001	9.195315e+001	-2.000000e+002	0.000000e+000	-2.000000e+002	0.000000e+000
8549870.000	1.099123e-002	-3.027070e+000	-7.065082e+001	9.091049e+001	-2.000000e+002	0.000000e+000	-2.000000e+002	0.000000e+000
9199860.000	9.464892e-003	-3.234851e+000	-7.002109e+001	8.962955e+001	-2.000000e+002	0.000000e+000	-2.000000e+002	0.000000e+000
9849850.000	9.285780e-003	-3.443322e+000	-6.966224e+001	8.909141e+001	-2.000000e+002	0.000000e+000	-2.000000e+002	0.000000e+000
10499840.000	7.298639e-003	-3.636952e+000	-6.906198e+001	8.821306e+001	-2.000000e+002	0.000000e+000	-2.000000e+002	0.000000e+000
11149830.000	5.525524e-003	-3.834555e+000	-6.850992e+001	8.963707e+001	-2.000000e+002	0.000000e+000	-2.000000e+002	0.000000e+000
11799820.000	5.220864e-003	-4.033689e+000	-6.792210e+001	8.754044e+001	-2.000000e+002	0.000000e+000	-2.000000e+002	0.000000e+000
12449810.000	6.310527e-003	-4.249128e+000	-6.755005e+001	8.772672e+001	-2.000000e+002	0.000000e+000	-2.000000e+002	0.000000e+000
13099800.000	9.232135e-003	-4.457472e+000	-6.722460e+001	8.831205e+001	-2.000000e+002	0.000000e+000	-2.000000e+002	0.000000e+000
13749790.000	8.696060e-003	-4.654738e+000	-6.684574e+001	8.692050e+001	-2.000000e+002	0.000000e+000	-2.000000e+002	0.000000e+000
14399780.000	7.427794e-003	-4.867392e+000	-6.626559e+001	8.658597e+001	-2.000000e+002	0.000000e+000	-2.000000e+002	0.000000e+000
15049770.000	8.614687e-003	-5.081064e+000	-6.606643e+001	8.603518e+001	-2.000000e+002	0.000000e+000	-2.000000e+002	0.000000e+000
15699760.000	1.037974e-002	-5.269987e+000	-6.557120e+001	8.744296e+001	-2.000000e+002	0.000000e+000	-2.000000e+002	0.000000e+000
16349750.000	1.132860e-002	-5.477032e+000	-6.523861e+001	8.638223e+001	-2.000000e+002	0.000000e+000	-2.000000e+002	0.000000e+000
16999740.000	1.036003e-002	-5.694960e+000	-6.490785e+001	8.679478e+001	-2.000000e+002	0.000000e+000	-2.000000e+002	0.000000e+000
17649730.000	1.791870e-002	-5.930484e+000	-6.454797e+001	8.569386e+001	-2.000000e+002	0.000000e+000	-2.000000e+002	0.000000e+000
18299720.000	2.131047e-002	-6.160203e+000	-6.423982e+001	8.599340e+001	-2.000000e+002	0.000000e+000	-2.000000e+002	0.000000e+000
18949710.000	2.000949e-002	-6.372119e+000	-6.390794e+001	8.566923e+001	-2.000000e+002	0.000000e+000	-2.000000e+002	0.000000e+000
19599700.000	1.409915e-002	-6.560471e+000	-6.356019e+001	8.588757e+001	-2.000000e+002	0.000000e+000	-2.000000e+002	0.000000e+000
20249690.000	9.158037e-003	-6.754653e+000	-6.323550e+001	8.615861e+001	-2.000000e+002	0.000000e+000	-2.000000e+002	0.000000e+000
20899680.000	6.464002e-003	-6.997207e+000	-6.288044e+001	8.520610e+001	-2.000000e+002	0.000000e+000	-2.000000e+002	0.000000e+000
21549670.000	4.814584e-003	-7.212295e+000	-6.267728e+001	8.497401e+001	-2.000000e+002	0.000000e+000	-2.000000e+002	0.000000e+000
22199660.000	5.071955e-003	-7.405016e+000	-6.251468e+001	8.436686e+001	-2.000000e+002	0.000000e+000	-2.000000e+002	0.000000e+000
22849650.000	7.385429e-003	-7.579238e+000	-6.222257e+001	8.419707e+001	-2.000000e+002	0.000000e+000	-2.000000e+002	0.000000e+000
23499640.000	5.602948e-003	-7.780450e+000	-6.204819e+001	8.398845e+001	-2.000000e+002	0.000000e+000	-2.000000e+002	0.000000e+000
24149630.000	3.337321e-003	-7.990496e+000	-6.170602e+001	8.356967e+001	-2.000000e+002	0.000000e+000	-2.000000e+002	0.000000e+000
24799620.000	3.586541e-003	-8.193356e+000	-6.148035e+001	8.257894e+001	-2.000000e+002	0.000000e+000	-2.000000e+002	0.000000e+000
25449610.000	5.711009e-003	-8.397448e+000	-6.139244e+001	8.239906e+001	-2.000000e+002	0.000000e+000	-2.000000e+002	0.000000e+000
26099600.000	5.146298e-003	-8.596028e+000	-6.107131e+001	8.257183e+001	-2.000000e+002	0.000000e+000	-2.000000e+002	0.000000e+000
26749590.000	4.014800e-003	-8.803870e+000	-6.094803e+001	8.262491e+001	-2.000000e+002	0.000000e+000	-2.000000e+002	0.000000e+000
27399580.000	3.459382e-003	-9.009102e+000	-6.076421e+001	8.216784e+001	-2.000000e+002	0.000000e+000	-2.000000e+002	0.000000e+000
28049570.000	4.320746e-003	-9.221103e+000	-6.053221e+001	8.204599e+001	-2.000000e+002	0.000000e+000	-2.000000e+002	0.000000e+000
28699560.000	3.650855e-003	-9.414877e+000	-6.043691e+001	8.233887e+001	-2.000000e+002	0.000000e+000	-2.000000e+002	0.000000e+000
29349550.000	3.756804e-003	-9.616495e+000	-6.027420e+001	8.169786e+001	-2.000000e+002	0.000000e+000	-2.000000e+002	0.000000e+000
29999540.000	4.102321e-003	-9.820584e+000	-6.000692e+001	8.188989e+001	-2.000000e+002	0.000000e+000	-2.000000e+002	0.000000e+000
30649530.000	3.591643e-003	-1.003215e+001	-5.983795e+001	8.134818e+001	-2.000000e+002	0.000000e+000	-2.000000e+002	0.000000e+000
31299520.000	3.785379e-003	-1.024569e+001	-5.973528e+001	8.141438e+001	-2.000000e+002	0.000000e+000	-2.000000e+002	0.000000e+000
31949510.000	4.073694e-003	-1.044808e+001	-5.960260e+001	8.096480e+001	-2.000000e+002	0.000000e+000	-2.000000e+002	0.000000e+000
32599500.000	3.324436e-003	-1.065331e+001	-5.945499e+001	8.134320e+001	-2.000000e+002	0.000000e+000	-2.000000e+002	0.000000e+000
33249490.000	3.052386e-003	-1.086022e+001	-5.923820e+001	8.136139e+001	-2.000000e+002	0.000000e+000	-2.000000e+002	0.000000e+000
33899480.000	2.823026e-003	-1.106948e+001	-5.910123e+001	8.117888e+001	-2.000000e+002	0.000000e+000	-2.000000e+002	0.000000e+000
34549470.000	2.817615e-003	-1.126773e+001	-5.898593e+001	8.108844e+001	-2.000000e+002	0.000000e+000	-2.000000e+002	0.000000e+000
35199460.000	2.720462e-003	-1.146767e+001	-5.881829e+001	8.138402e+001	-2.000000e+002	0.000000e+000	-2.000000e+002	0.000000e+000
35849450.000	3.031969e-003	-1.167136e+001	-5.878558e+001	8.162294e+001	-2.000000e+002	0.000000e+000	-2.000000e+002	0.000000e+000
36499440.000	2.495547e-003	-1.187915e+001	-5.862395e+001	8.164075e+001	-2.000000e+002	0.000000e+000	-2.000000e+002	0.000000e+000
37149430.000	2.423053e-003	-1.208164e+001	-5.850854e+001	8.187532e+001	-2.000000e+002	0.000000e+000	-2.000000e+002	0.000000e+000
37799420.000	1.594829e-003	-1.229172e+001	-5.838148e+001	8.260989e+001	-2.000000e+002	0.000000e+000	-2.000000e+002	0.000000e+000
38449410.000	1.508728e-003	-1.250165e+001	-5.823747e+001	8.317047e+001	-2.000000e+002	0.000000e+000	-2.000000e+002	0.000000e+000
39099400.000	8.327376e-004	-1.270728e+001	-5.796841e+001	8.359240e+001	-2.000000e+002	0.000000e+000	-2.000000e+002	0.000000e+000
39749390.000	1.832515e-004	-1.292035e+001	-5.775662e+001	8.387660e+001	-2.000000e+002	0.000000e+000	-2.000000e+002	0.000000e+000
40399380.000	-2.105680e-004	-1.312702e+001	-5.753448e+001	8.378234e+001	-2.000000e+002	0.000000e+000	-2.000000e+002	0.000000e+000
41049370.000	9.582642e-005	-1.333212e+001	-5.723725e+001	8.373927e+001	-2.000000e+002	0.000000e+000	-2.000000e+002	0.000000e+000
41699360.000	5.704127e-004	-1.353855e+001	-5.708008e+001	8.309694e+001	-2.000000e+002	0.000000e+000	-2.000000e+002	0.000000e+000
42349350.000	9.294928e-004	-1.374144e+001	-5.698595e+001	8.307100e+001	-2.000000e+002	0.000000e+000	-2.000000e+002	0.000000e+000
42999340.000	1.006133e-004	-1.394482e+001	-5.686452e+001	8.290425e+001	-2.000000e+002	0.000000e+000	-2.000000e+002	0.000000e+000
43649330.000	3.685212e-004	-1.414913e+001	-5.670421e+001	8.304129e+001	-2.000000e+002	0.000000e+000	-2.000000e+002	0.000000e+000
44299320.000	-4.019350e-004	-1.435878e+001	-5.660970e+001	8.319106e+001	-2.000000e+002	0.000000e+000	-2.000000e+002	0.000000e+000
44949310.000	-6.041382e-004	-1.456520e+001	-5.647014e+001	8.349342e+001	-2.000000e+002	0.000000e+000	-2.000000e+002	0.000000e+000
45599300.000	-1.355762e-003	-1.477439e+001	-5.630423e+001	8.429452e+001	-2.000000e+002	0.000000e+000	-2.000000e+002	0.000000e+000
46249290.000	-1.933935e-003	-1.498064e+001	-5.609435e+001	8.542195e+001	-2.000000e+002	0.000000e+000	-2.000000e+002	0.000000e+000
46899280.000	-2.692716e-003	-1.518449e+001	-5.573678e+001	8.587944e+001	-2.000000e+002	0.000000e+000	-2.000000e+002	0.000000e+000
47549270.000	-4.281100e-003	-1.538412e+001	-5.534042e+001	8.577937e+001	-2.000000e+002	0.000000e+000	-2.000000e+002	0.000000e+000
48199260.000	-4.927123e-003	-1.558815e+001	-5.500208e+001	8.455215e+001	-2.000000e+002	0.000000e+000	-2.000000e+002	0.000000e+000
48849250.000	-5.663604e-003	-1.579416e+001	-5.478871e+001	8.357268e+001	-2.000000e+002	0.000000e+000	-2.000000e+002	0.000000e+000
49499240.000	-5.596526e-003	-1.599516e+001	-5.458508e+001	8.209548e+001	-2.000000e+002	0.000000e+000	-2.000000e+002	0.000000e+000
50149230.000	-5.339832e-003	-1.620132e+001	-5.444427e+001	8.115949e+001	-2.000000e+002	0.000000e+000	-2.000000e+002	0.000000e+000
50799220.000	-6.077390e-003	-1.641132e+001	-5.431397e+001	8.029005e+001	-2.000000e+002	0.000000e+000	-2.000000e+002	0.000000e+000
51449210.000	-4.910876e-003	-1.661641e+001	-5.428349e+001	7.944526e+001	-2.000000e+002	0.000000e+000	-2.000000e+002	0.000000e+000
52099200.000	-5.108840e-003	-1.682313e+001	-5.415622e+001	7.906299e+001	-2.000000e+002	0.000000e+000	-2.000000e+002	0.000000e+000
52749190.000	-4.729675e-003	-1.702694e+001	-5.402130e+001	7.847185e+001	-2.000000e+002	0.000000e+000	-2.000000e+002	0.000000e+000
53399180.000	-5.050090e-003	-1.723090e+001	-5.390090e+001	7.749086e+001	-2.000000e+002	0.000000e+000	-2.000000e+002	0.000000e+000
54049170.000	-5.338122e-003	-1.743952e+001	-5.395768e+001	7.619893e+001	-2.000000e+002	0.000000e+000	-2.000000e+002	0.000000e+000
54699160.000	-5.302369e-003	-1.764852e+001	-5.394228e+001	7.627552e+001	-2.000000e+002	0.000000e+000	-2.000000e+002	0.000000e+000
55349150.000	-5.656704e-003	-1.785785e+001	-5.390672e+001	7.586976e+001	-2.000000e+002	0.000000e+000	-2.000000e+002	0.000000e+000
55999140.000	-6.198082e-003	-1.806324e+001	-5.382729e+001	7.626956e+001	-2.000000e+002	0.000000e+000	-2.000000e+002	0.000000e+000
56649130.000	-6.894169e-003	-1.826992e+001	-5.371848e+001	7.627380e+001	-2.000000e+002	0.000000e+000	-2.000000e+002	0.000000e+000
57299120.000	-7.442756e-003	-1.847493e+001	-5.361576e+001	7.641565e+001	-2.000000e+002	0.000000e+000	-2.000000e+002	0.000000e+000
57949110.000	-8.114917e-003	-1.867980e+001	-5.347283e+001	7.656748e+001	-2.000000e+002	0.000000e+000	-2.000000e+002	0.000000e+000
58599100.000	-8.346066e-003	-1.888211e+001	-5.331402e+001	7.635556e+001	-2.000000e+002	0.000000e+000	-2.000000e+002	0.000000e+000
59249090.000	-8.882969e-003	-1.908539e+001	-5.312203e+001	7.595783e+001	-2.000000e+002	0.000000e+000	-2.000000e+002	0.000000e+000
59899080.000	-8.629629e-003	-1.928723e+001	-5.305967e+001	7.547361e+001	-2.000000e+002	0.000000e+000	-2.000000e+002	0.000000e+000
60549070.000	-1.006400e-002	-1.949232e+001	-5.289230e+001	7.493823e+001	-2.000000e+002	0.000000e+000	-2.000000e+002	0.000000e+000
61199060.000	-1.050444e-002	-1.969517e+001	-5.281101e+001	7.422421e+001	-2.000000e+002	0.000000e+000	-2.000000e+002	0.000000e+000
61849050.000	-1.053926e-002	-1.989709e+001	-5.274475e+001	7.362395e+001	-2.000000e+002	0.000000e+000	-2.000000e+002	0.000000e+000
62499040.000	-1.155705e-002	-2.010011e+001	-5.268582e+001	7.358972e+001	-2.000000e+002	0.000000e+000	-2.000000e+002	0.000000e+000
63149030.000	-1.184192e-002	-2.030275e+001	-5.263094e+001	7.335724e+001	-2.000000e+002	0.000000e+000	-2.000000e+002	0.000000e+000
63799020.000	-1.265499e-002	-2.050887e+001	-5.253020e+001	7.324892e+001	-2.000000e+002	0.000000e+000	-2.000000e+002	0.000000e+000
64449010.000	-1.353504e-002	-2.071085e+001	-5.241878e+001	7.300739e+001	-2.000000e+002	0.000000e+000	-2.000000e+002	0.000000e+000
65099000.000	-1.368730e-002	-2.091270e+001	-5.233276e+001	7.275370e+001	-2.000000e+002	0.000000e+000	-2.000000e+002	0.000000e+000
65748990.000	-1.373125e-002	-2.111809e+001	-5.223006e+001	7.232342e+001	-2.000000e+002	0.000000e+000	-2.000000e+002	0.000000e+000
66398980.000	-1.406158e-002	-2.132258e+001	-5.214758e+001	7.181518e+001	-2.000000e+002	0.000000e+000	-2.000000e+002	0.000000e+000
67048970.000	-1.455650e-002	-2.152783e+001	-5.208486e+001	7.170360e+001	-2.000000e+002	0.000000e+000	-2.000000e+002	0.000000e+000
67698960.000	-1.494409e-002	-2.173150e+001	-5.198717e+001	7.127684e+001	-2.000000e+002	0.000000e+000	-2.000000e+002	0.000000e+000
68348950.000	-1.541378e-002	-2.193209e+001	-5.192419e+001	7.093258e+001	-2.000000e+002	0.000000e+000	-2.000000e+002	0.000000e+000
68998940.000	-1.586146e-002	-2.213987e+001	-5.180790e+001	7.075338e+001	-2.000000e+002	0.000000e+000	-2.000000e+002	0.000000e+000
69648930.000	-1.581412e-002	-2.234449e+001	-5.174140e+001	7.012505e+001	-2.000000e+002	0.000000e+000	-2.000000e+002	0.000000e+000
70298920.000	-1.449421e-002	-2.255446e+001	-5.168884e+001	6.976005e+001	-2.000000e+002	0.000000e+000	-2.000000e+002	0.000000e+000
70948910.000	-1.522815e-002	-2.275983e+001	-5.162702e+001	6.942937e+001	-2.000000e+002	0.000000e+000	-2.000000e+002	0.000000e+000
71598900.000	-1.473627e-002	-2.296373e+001	-5.156536e+001	6.922339e+001	-2.000000e+002	0.000000e+000	-2.000000e+002	0.000000e+000
72248890.000	-1.570682e-002	-2.316975e+001	-5.150195e+001	6.890461e+001	-2.000000e+002	0.000000e+000	-2.000000e+002	0.000000e+000
72898880.000	-1.560647e-002	-2.337515e+001	-5.144567e+001	6.866089e+001	-2.000000e+002	0.000000e+000	-2.000000e+002	0.000000e+000
73548870.000	-1.621790e-002	-2.358025e+001	-5.140028e+001	6.864404e+001	-2.000000e+002	0.000000e+000	-2.000000e+002	0.000000e+000
74198860.000	-1.651411e-002	-2.378546e+001	-5.137411e+001	6.820735e+001	-2.000000e+002	0.000000e+000	-2.000000e+002	0.000000e+000
74848850.000	-1.754650e-002	-2.398946e+001	-5.129485e+001	6.809047e+001	-2.000000e+002	0.000000e+000	-2.000000e+002	0.000000e+000
75498840.000	-1.735572e-002	-2.419504e+001	-5.121630e+001	6.780764e+001	-2.000000e+002	0.000000e+000	-2.000000e+002	0.000000e+000
76148830.000	-1.763541e-002	-2.440075e+001	-5.114831e+001	6.772973e+001	-2.000000e+002	0.000000e+000	-2.000000e+002	0.000000e+000
76798820.000	-1.746146e-002	-2.460437e+001	-5.108159e+001	6.752688e+001	-2.000000e+002	0.000000e+000	-2.000000e+002	0.000000e+000
77448810.000	-2.008021e-002	-2.480689e+001	-5.104568e+001	6.761458e+001	-2.000000e+002	0.000000e+000	-2.000000e+002	0.000000e+000
78098800.000	-1.997786e-002	-2.501280e+001	-5.096721e+001	6.724398e+001	-2.000000e+002	0.000000e+000	-2.000000e+002	0.000000e+000
78748790.000	-2.041272e-002	-2.521732e+001	-5.088349e+001	6.679581e+001	-2.000000e+002	0.000000e+000	-2.000000e+002	0.000000e+000
79398780.000	-2.029731e-002	-2.541865e+001	-5.082401e+001	6.677003e+001	-2.000000e+002	0.000000e+000	-2.000000e+002	0.000000e+000
80048770.000	-1.997497e-002	-2.563091e+001	-5.077087e+001	6.661086e+001	-2.000000e+002	0.000000e+000	-2.000000e+002	0.000000e+000
80698760.000	-2.024913e-002	-2.583664e+001	-5.067208e+001	6.643344e+001	-2.000000e+002	0.000000e+000	-2.000000e+002	0.000000e+000
81348750.000	-2.037541e-002	-2.604199e+001	-5.064131e+001	6.614677e+001	-2.000000e+002	0.000000e+000	-2.000000e+002	0.000000e+000
81998740.000	-2.057822e-002	-2.624819e+001	-5.055068e+001	6.590778e+001	-2.000000e+002	0.000000e+000	-2.000000e+002	0.000000e+000
82648730.000	-2.222291e-002	-2.645051e+001	-5.051837e+001	6.563501e+001	-2.000000e+002	0.000000e+000	-2.000000e+002	0.000000e+000
83298720.000	-2.293485e-002	-2.665953e+001	-5.045287e+001	6.556251e+001	-2.000000e+002	0.000000e+000	-2.000000e+002	0.000000e+000
83948710.000	-2.312816e-002	-2.686689e+001	-5.039332e+001	6.549764e+001	-2.000000e+002	0.000000e+000	-2.000000e+002	0.000000e+000
84598700.000	-2.356306e-002	-2.707436e+001	-5.035785e+001	6.519555e+001	-2.000000e+002	0.000000e+000	-2.000000e+002	0.000000e+000
85248690.000	-2.336038e-002	-2.728181e+001	-5.028456e+001	6.502490e+001	-2.000000e+002	0.000000e+000	-2.000000e+002	0.000000e+000
85898680.000	-2.390117e-002	-2.748756e+001	-5.021852e+001	6.478303e+001	-2.000000e+002	0.000000e+000	-2.000000e+002	0.000000e+000
86548670.000	-2.442369e-002	-2.769387e+001	-5.017652e+001	6.440880e+001	-2.000000e+002	0.000000e+000	-2.000000e+002	0.000000e+000
87198660.000	-2.428837e-002	-2.789791e+001	-5.011152e+001	6.425570e+001	-2.000000e+002	0.000000e+000	-2.000000e+002	0.000000e+000
87848650.000	-2.518581e-002	-2.810302e+001	-5.008614e+001	6.407558e+001	-2.000000e+002	0.000000e+000	-2.000000e+002	0.000000e+000
88498640.000	-2.571261e-002	-2.830452e+001	-5.004365e+001	6.385962e+001	-2.000000e+002	0.000000e+000	-2.000000e+002	0.000000e+000
89148630.000	-2.623779e-002	-2.850925e+001	-4.997389e+001	6.377696e+001	-2.000000e+002	0.000000e+000	-2.000000e+002	0.000000e+000
89798620.000	-2.661491e-002	-2.871420e+001	-4.994091e+001	6.362598e+001	-2.000000e+002	0.000000e+000	-2.000000e+002	0.000000e+000
90448610.000	-2.671020e-002	-2.891902e+001	-4.987948e+001	6.345869e+001	-2.000000e+002	0.000000e+000	-2.000000e+002	0.000000e+000
91098600.000	-2.776947e-002	-2.913044e+001	-4.982368e+001	6.315357e+001	-2.000000e+002	0.000000e+000	-2.000000e+002	0.000000e+000
91748590.000	-2.713433e-002	-2.933637e+001	-4.979884e+001	6.361349e+001	-2.000000e+002	0.000000e+000	-2.000000e+002	0.000000e+000
92398580.000	-2.724273e-002	-2.954397e+001	-4.973688e+001	6.286149e+001	-2.000000e+002	0.000000e+000	-2.000000e+002	0.000000e+000
93048570.000	-2.748471e-002	-2.975189e+001	-4.969453e+001	6.337338e+001	-2.000000e+002	0.000000e+000	-2.000000e+002	0.000000e+000
93698560.000	-2.807664e-002	-2.996091e+001	-4.969314e+001	6.272059e+001	-2.000000e+002	0.000000e+000	-2.000000e+002	0.000000e+000
94348550.000	-2.821697e-002	-3.016796e+001	-4.960079e+001	6.271272e+001	-2.000000e+002	0.000000e+000	-2.000000e+002	0.000000e+000
94998540.000	-2.889795e-002	-3.037498e+001	-4.950166e+001	6.195446e+001	-2.000000e+002	0.000000e+000	-2.000000e+002	0.000000e+000
95648530.000	-2.932923e-002	-3.058051e+001	-4.951185e+001	6.267364e+001	-2.000000e+002	0.000000e+000	-2.000000e+002	0.000000e+000
96298520.000	-2.969302e-002	-3.078418e+001	-4.944549e+001	6.236679e+001	-2.000000e+002	0.000000e+000	-2.000000e+002	0.000000e+000
96948510.000	-3.035272e-002	-3.098819e+001	-4.936111e+001	6.234036e+001	-2.000000e+002	0.000000e+000	-2.000000e+002	0.000000e+000
97598500.000	-3.106208e-002	-3.119279e+001	-4.930888e+001	6.213272e+001	-2.000000e+002	0.000000e+000	-2.000000e+002	0.000000e+000
98248490.000	-3.063737e-002	-3.139398e+001	-4.928494e+001	6.214537e+001	-2.000000e+002	0.000000e+000	-2.000000e+002	0.000000e+000
98898480.000	-3.159748e-002	-3.160177e+001	-4.923970e+001	6.194372e+001	-2.000000e+002	0.000000e+000	-2.000000e+002	0.000000e+000
